(1788788641.208997) can0 03FF1000#0840112200000001
(1788788641.313980) can0 03FF1000#0840112200000001
(1788788641.418990) can0 03FF1000#0840112200000001
(1788788641.524014) can0 03FF1000#0840112200000001
(1788788641.629054) can0 03FF1000#0840112200000001
(1788788641.734002) can0 03FF1000#0840112200000001
(1788788641.839011) can0 03FF1000#0840112200000001
(1788788641.944014) can0 03FF1000#0840112200000001
(1788788642.049024) can0 03FF1000#0840112200000001
(1788788642.154071) can0 03FF1000#0840112200000001
(1788788642.259031) can0 03FF1000#0840112200000001
(1788788642.364040) can0 03FF1000#0840112200000001
(1788788642.469042) can0 03FF1000#0840112200000001
(1788788642.574049) can0 03FF1000#0840112200000001
(1788788642.679087) can0 03FF1000#0840112200000001
(1788788642.784058) can0 03FF1000#0840112200000001
(1788788642.889065) can0 03FF1000#0840112200000001
(1788788642.994069) can0 03FF1000#0840112200000001
(1788788643.099074) can0 03FF1000#0840112200000001
(1788788643.204079) can0 03FF1000#0840112200000001
(1788788643.309084) can0 03FF1000#0840112200000001
(1788788643.414091) can0 03FF1000#0840112200000001
(1788788643.519095) can0 03FF1000#0840112200000001
(1788788643.624100) can0 03FF1000#0840112200000001
(1788788643.729105) can0 03FF1000#0840112200000001
(1788788643.834112) can0 03FF1000#0840112200000001
(1788788643.939119) can0 03FF1000#0840112200000001
(1788788644.044122) can0 03FF1000#0840112200000001
(1788788644.149127) can0 03FF1000#0840112200000001
(1788788644.254133) can0 03FF1000#0840112200000001
(1788788644.359139) can0 03FF1000#0840112200000001
(1788788644.464146) can0 03FF1000#0840112200000001
(1788788644.569150) can0 03FF1000#0840112200000001
(1788788644.674155) can0 03FF1000#0840112200000001
(1788788644.779160) can0 03FF1000#0840112200000001
(1788788644.884173) can0 03FF1000#0840112200000001
(1788788644.989175) can0 03FF1000#0840112200000001
(1788788645.094181) can0 03FF1000#0840112200000001
(1788788645.199182) can0 03FF1000#0840112200000001
(1788788645.304189) can0 03FF1000#0840112200000001
(1788788645.409195) can0 03FF1000#0840112200000001
(1788788645.514201) can0 03FF1000#0840112200000001
(1788788645.619205) can0 03FF1000#0840112200000001
(1788788645.724209) can0 03FF1000#0840112200000001
(1788788645.829214) can0 03FF1000#0840112200000001
(1788788645.934223) can0 03FF1000#0840112200000001
(1788788646.039229) can0 03FF1000#0840112200000001
(1788788646.144232) can0 03FF1000#0840112200000001
(1788788646.249238) can0 03FF1000#0840112200000001
(1788788646.354245) can0 03FF1000#0840112200000001
(1788788646.459253) can0 03FF1000#0840112200000001
(1788788646.564256) can0 03FF1000#0840112200000001
(1788788646.669261) can0 03FF1000#0840112200000001
(1788788646.774265) can0 03FF1000#0840112200000001
(1788788646.879271) can0 03FF1000#0840112200000001
(1788788646.984279) can0 03FF1000#0840112200000001
(1788788647.089286) can0 03FF1000#0840112200000001
(1788788647.194297) can0 03FF1000#0840112200000001
(1788788647.299293) can0 03FF1000#0840112200000001
(1788788647.404301) can0 03FF1000#0840112200000001
(1788788647.509304) can0 03FF1000#0840112200000001
(1788788647.614311) can0 03FF1000#0840112200000001
(1788788647.643553) can0 04FF3400#000005D100000000
(1788788647.719314) can0 03FF1000#0840112200000001
(1788788647.824319) can0 03FF1000#0840112200000001
(1788788647.929327) can0 03FF1000#0840112200000001
(1788788648.034331) can0 03FF1000#0840112200000001
(1788788648.139337) can0 03FF1000#0840112200000001
(1788788648.244342) can0 03FF1000#0840112200000001
(1788788648.349348) can0 03FF1000#0840112200000001
(1788788648.454353) can0 03FF1000#0840112200000001
(1788788648.559360) can0 03FF1000#0840112200000001
(1788788648.664365) can0 03FF1000#0840112200000001
(1788788648.769368) can0 03FF1000#0840112200000001
(1788788648.874377) can0 03FF1000#0840112200000001
(1788788648.979383) can0 03FF1000#0840112200000001
(1788788649.084388) can0 03FF1000#0840112200000001
(1788788649.189394) can0 03FF1000#0840112200000001
(1788788649.294398) can0 03FF1000#0840112200000001
(1788788649.399404) can0 03FF1000#0840112200000001
(1788788649.504409) can0 03FF1000#0840112200000001
(1788788649.609414) can0 03FF1000#0840112200000001
(1788788649.714420) can0 03FF1000#0840112200000001
(1788788649.819425) can0 03FF1000#0840112200000001
(1788788649.924434) can0 03FF1000#0840112200000001
(1788788650.029437) can0 03FF1000#0840112200000001
(1788788650.134444) can0 03FF1000#0840112200000001
(1788788650.239448) can0 03FF1000#0840112200000001
(1788788650.344454) can0 03FF1000#0840112200000001
(1788788650.449461) can0 03FF1000#0840112200000001
(1788788650.554465) can0 03FF1000#0840112200000001
(1788788650.659471) can0 03FF1000#0840112200000001
(1788788650.764482) can0 03FF1000#0840112200000001
(1788788650.869485) can0 03FF1000#0840112200000001
(1788788650.974490) can0 03FF1000#0840112200000001
(1788788651.079496) can0 03FF1000#0840112200000001
(1788788651.184500) can0 03FF1000#0840112200000001
(1788788651.289503) can0 03FF1000#0840112200000001
(1788788651.394511) can0 03FF1000#0840112200000001
(1788788651.499514) can0 03FF1000#0840112200000001
(1788788651.604520) can0 03FF1000#0840112200000001
(1788788651.709525) can0 03FF1000#0840112200000001
(1788788651.814531) can0 03FF1000#0840112200000001
(1788788651.919539) can0 03FF1000#0840112200000001
(1788788652.024541) can0 03FF1000#0840112200000001
(1788788652.129546) can0 03FF1000#0840112200000001
(1788788652.234553) can0 03FF1000#0840112200000001
(1788788652.339558) can0 03FF1000#0840112200000001
(1788788652.444564) can0 03FF1000#0840112200000001
(1788788652.549568) can0 03FF1000#0840112200000001
(1788788652.654574) can0 03FF1000#0840112200000001
(1788788652.759579) can0 03FF1000#0840112200000001
(1788788652.864585) can0 03FF1000#0840112200000001
(1788788652.969592) can0 03FF1000#0840112200000001
(1788788653.074601) can0 03FF1000#0840112200000001
(1788788653.179613) can0 03FF1000#0840112200000001
(1788788653.284611) can0 03FF1000#0840112200000001
(1788788653.389616) can0 03FF1000#0840112200000001
(1788788653.494620) can0 03FF1000#0840112200000001
(1788788653.599625) can0 03FF1000#0840112200000001
(1788788653.704630) can0 03FF1000#0840112200000001
(1788788653.809635) can0 03FF1000#0840112200000001
(1788788653.914645) can0 03FF1000#0840112200000001
(1788788654.019647) can0 03FF1000#0840112200000001
(1788788654.124655) can0 03FF1000#0840112200000001
(1788788654.229659) can0 03FF1000#0840112200000001
(1788788654.334662) can0 03FF1000#0840112200000001
(1788788654.439674) can0 03FF1000#0840112200000001
(1788788654.544683) can0 03FF1000#0840112200000001
(1788788654.649682) can0 03FF1000#0840112200000001
(1788788654.754686) can0 03FF1000#0840112200000001
(1788788654.859693) can0 03FF1000#0840112200000001
(1788788654.964702) can0 03FF1000#0840112200000001
(1788788655.069705) can0 03FF1000#0840112200000001
(1788788655.174710) can0 03FF1000#0840112200000001
(1788788655.279716) can0 03FF1000#0840112200000001
(1788788655.384721) can0 03FF1000#0840112200000001
(1788788655.489727) can0 03FF1000#0840112200000001
(1788788655.594731) can0 03FF1000#0840112200000001
(1788788655.699737) can0 03FF1000#0840112200000001
(1788788655.804742) can0 03FF1000#0840112200000001
(1788788655.909756) can0 03FF1000#0840112200000001
(1788788656.014754) can0 03FF1000#0840112200000001
(1788788656.119760) can0 03FF1000#0840112200000001
(1788788656.224765) can0 03FF1000#0840112200000001
(1788788656.329771) can0 03FF1000#0840112200000001
(1788788656.434776) can0 03FF1000#0840112200000001
(1788788656.539782) can0 03FF1000#0840112200000001
(1788788656.644786) can0 03FF1000#0840112200000001
(1788788656.749792) can0 03FF1000#0840112200000001
(1788788656.854800) can0 03FF1000#0840112200000001
(1788788656.959803) can0 03FF1000#0840112200000001
(1788788657.064809) can0 03FF1000#0840112200000001
(1788788657.169813) can0 03FF1000#0840112200000001
(1788788657.274821) can0 03FF1000#0840112200000001
(1788788657.379826) can0 03FF1000#0840112200000001
(1788788657.484832) can0 03FF1000#0840112200000001
(1788788657.589837) can0 03FF1000#0840112200000001
(1788788657.643840) can0 04FF3400#000005D200000000
(1788788657.694840) can0 03FF1000#0840112200000001
(1788788657.799846) can0 03FF1000#0840112200000001
(1788788657.904854) can0 03FF1000#0840112200000001
(1788788658.009857) can0 03FF1000#0840112200000001
(1788788658.114866) can0 03FF1000#0840112200000001
(1788788658.219869) can0 03FF1000#0840112200000001
(1788788658.324875) can0 03FF1000#0840112200000001
(1788788658.429881) can0 03FF1000#0840112200000001
(1788788658.534889) can0 03FF1000#0840112200000001
(1788788658.639897) can0 03FF1000#0840112200000001
(1788788658.744899) can0 03FF1000#0840112200000001
(1788788658.849904) can0 03FF1000#0840112200000001
(1788788658.954910) can0 03FF1000#0840112200000001
(1788788659.059914) can0 03FF1000#0840112200000001
(1788788659.164924) can0 03FF1000#0840112200000001
(1788788659.269929) can0 03FF1000#0840112200000001
(1788788659.374940) can0 03FF1000#0840112200000001
(1788788659.479939) can0 03FF1000#0840112200000001
(1788788659.584944) can0 03FF1000#0840112200000001
(1788788659.689949) can0 03FF1000#0840112200000001
(1788788659.794951) can0 03FF1000#0840112200000001
(1788788659.899958) can0 03FF1000#0840112200000001
(1788788660.004962) can0 03FF1000#0840112200000001
(1788788660.109967) can0 03FF1000#0840112200000001
(1788788660.214975) can0 03FF1000#0840112200000001
(1788788660.319979) can0 03FF1000#0840112200000001
(1788788660.424986) can0 03FF1000#0840112200000001
(1788788660.529989) can0 03FF1000#0840112200000001
(1788788660.634995) can0 03FF1000#0840112200000001
(1788788660.740002) can0 03FF1000#0840112200000001
(1788788660.845005) can0 03FF1000#0840112200000001
(1788788660.950011) can0 03FF1000#0840112200000001
(1788788661.055018) can0 03FF1000#0840112200000001
(1788788661.160021) can0 03FF1000#0840112200000001
(1788788661.265030) can0 03FF1000#0840112200000001
(1788788661.370034) can0 03FF1000#0840112200000001
(1788788661.475038) can0 03FF1000#0840112200000001
(1788788661.580044) can0 03FF1000#0840112200000001
(1788788661.685049) can0 03FF1000#0840112200000001
(1788788661.790056) can0 03FF1000#0840112200000001
(1788788661.895061) can0 03FF1000#0840112200000001
(1788788662.000065) can0 03FF1000#0840112200000001
(1788788662.105070) can0 03FF1000#0840112200000001
(1788788662.210076) can0 03FF1000#0840112200000001
(1788788662.315082) can0 03FF1000#0840112200000001
(1788788662.420090) can0 03FF1000#0840112200000001
(1788788662.525093) can0 03FF1000#0840112200000001
(1788788662.630099) can0 03FF1000#0840112200000001
(1788788662.735103) can0 03FF1000#0840112200000001
(1788788662.840111) can0 03FF1000#0840112200000001
(1788788662.945117) can0 03FF1000#0840112200000001
(1788788663.050123) can0 03FF1000#0840112200000001
(1788788663.155128) can0 03FF1000#0840112200000001
(1788788663.260132) can0 03FF1000#0840112200000001
(1788788663.365140) can0 03FF1000#0840112200000001
(1788788663.470143) can0 03FF1000#0840112200000001
(1788788663.575148) can0 03FF1000#0840112200000001
(1788788663.680153) can0 03FF1000#0840112200000001
(1788788663.785159) can0 03FF1000#0840112200000001
(1788788663.890166) can0 03FF1000#0840112200000001
(1788788663.995170) can0 03FF1000#0840112200000001
(1788788664.100175) can0 03FF1000#0840112200000001
(1788788664.205181) can0 03FF1000#0840112200000001
(1788788664.310186) can0 03FF1000#0840112200000001
(1788788664.415194) can0 03FF1000#0840112200000001
(1788788664.519451) can0 03FF1000#0840112200000001
(1788788664.625203) can0 03FF1000#0840112200000001
(1788788664.730209) can0 03FF1000#0840112200000001
(1788788664.835213) can0 03FF1000#0840112200000001
(1788788664.940223) can0 03FF1000#0840112200000001
(1788788665.044469) can0 03FF1000#0840112200000001
(1788788665.150233) can0 03FF1000#0840112200000001
(1788788665.254480) can0 03FF1000#0840112200000001
(1788788665.359497) can0 03FF1000#0840112200000001
(1788788665.464504) can0 03FF1000#0840112200000001
(1788788665.569473) can0 03FF1000#0840112200000001
(1788788665.674461) can0 03FF1000#0840112200000001
(1788788665.779483) can0 03FF1000#0840112200000001
(1788788665.884513) can0 03FF1000#0840112200000001
(1788788665.989497) can0 03FF1000#0840112200000001
(1788788666.094495) can0 03FF1000#0840112200000001
(1788788666.199493) can0 03FF1000#0840112200000001
(1788788666.304497) can0 03FF1000#0840112200000001
(1788788666.409518) can0 03FF1000#0840112200000001
(1788788666.514524) can0 03FF1000#0840112200000001
(1788788666.619505) can0 03FF1000#0840112200000001
(1788788666.724509) can0 03FF1000#0840112200000001
(1788788666.829491) can0 03FF1000#0840112200000001
(1788788666.934551) can0 03FF1000#0840112200000001
(1788788667.039529) can0 03FF1000#0840112200000001
(1788788667.144509) can0 03FF1000#0840112200000001
(1788788667.249502) can0 03FF1000#0840112200000001
(1788788667.354515) can0 03FF1000#0840112200000001
(1788788667.459560) can0 03FF1000#0840112200000001
(1788788667.564544) can0 03FF1000#0840112200000001
(1788788667.643374) can0 04FF3400#000005D300000000
(1788788667.669535) can0 03FF1000#0840112200000001
(1788788667.774517) can0 03FF1000#0840112200000001
(1788788667.879524) can0 03FF1000#0840112200000001
(1788788667.984576) can0 03FF1000#0840112200000001
(1788788668.089533) can0 03FF1000#0840112200000001
(1788788668.194552) can0 03FF1000#0840112200000001
(1788788668.299533) can0 03FF1000#0840112200000001
(1788788668.404540) can0 03FF1000#0840112200000001
(1788788668.509552) can0 03FF1000#0840112200000001
(1788788668.614565) can0 03FF1000#0840112200000001
(1788788668.719544) can0 03FF1000#0840112200000001
(1788788668.824539) can0 03FF1000#0840112200000001
(1788788668.929544) can0 03FF1000#0840112200000001
(1788788669.034575) can0 03FF1000#0840112200000001
(1788788669.139569) can0 03FF1000#0840112200000001
(1788788669.244560) can0 03FF1000#0840112200000001
(1788788669.349549) can0 03FF1000#0840112200000001
(1788788669.454560) can0 03FF1000#0840112200000001
(1788788669.559589) can0 03FF1000#0840112200000001
(1788788669.664572) can0 03FF1000#0840112200000001
(1788788669.769559) can0 03FF1000#0840112200000001
(1788788669.874573) can0 03FF1000#0840112200000001
(1788788669.979577) can0 03FF1000#0840112200000001
(1788788670.084594) can0 03FF1000#0840112200000001
(1788788670.189589) can0 03FF1000#0840112200000001
(1788788670.294638) can0 03FF1000#0840112200000001
(1788788670.399575) can0 03FF1000#0840112200000001
(1788788670.504567) can0 03FF1000#0840112200000001
(1788788670.609591) can0 03FF1000#0840112200000001
(1788788670.714604) can0 03FF1000#0840112200000001
(1788788670.819642) can0 03FF1000#0840112200000001
(1788788670.924578) can0 03FF1000#0840112200000001
(1788788671.029580) can0 03FF1000#0840112200000001
(1788788671.134630) can0 03FF1000#0840112200000001
(1788788671.239616) can0 03FF1000#0840112200000001
(1788788671.344660) can0 03FF1000#0840112200000001
(1788788671.449607) can0 03FF1000#0840112200000001
(1788788671.554601) can0 03FF1000#0840112200000001
(1788788671.659596) can0 03FF1000#0840112200000001
(1788788671.764623) can0 03FF1000#0840112200000001
(1788788671.869615) can0 03FF1000#0840112200000001
(1788788671.974599) can0 03FF1000#0840112200000001
(1788788672.079617) can0 03FF1000#0840112200000001
(1788788672.184606) can0 03FF1000#0840112200000001
(1788788672.289641) can0 03FF1000#0840112200000001
(1788788672.394623) can0 03FF1000#0840112200000001
(1788788672.499615) can0 03FF1000#0840112200000001
(1788788672.604631) can0 03FF1000#0840112200000001
(1788788672.709650) can0 03FF1000#0840112200000001
(1788788672.814646) can0 03FF1000#0840112200000001
(1788788672.919637) can0 03FF1000#0840112200000001
(1788788673.024641) can0 03FF1000#0840112200000001
(1788788673.129648) can0 03FF1000#0840112200000001
(1788788673.234653) can0 03FF1000#0840112200000001
(1788788673.339660) can0 03FF1000#0840112200000001
(1788788673.444664) can0 03FF1000#0840112200000001
(1788788673.549669) can0 03FF1000#0840112200000001
(1788788673.654698) can0 03FF1000#0840112200000001
(1788788673.759680) can0 03FF1000#0840112200000001
(1788788673.864689) can0 03FF1000#0840112200000001
(1788788673.969693) can0 03FF1000#0840112200000001
(1788788674.074700) can0 03FF1000#0840112200000001
(1788788674.179704) can0 03FF1000#0840112200000001
(1788788674.284708) can0 03FF1000#0840112200000001
(1788788674.389718) can0 03FF1000#0840112200000001
(1788788674.494720) can0 03FF1000#0840112200000001
(1788788674.599725) can0 03FF1000#0840112200000001
(1788788674.704731) can0 03FF1000#0840112200000001
(1788788674.809740) can0 03FF1000#0840112200000001
(1788788674.914743) can0 03FF1000#0840112200000001
(1788788675.019745) can0 03FF1000#0840112200000001
(1788788675.124752) can0 03FF1000#0840112200000001
(1788788675.229757) can0 03FF1000#0840112200000001
(1788788675.334762) can0 03FF1000#0840112200000001
(1788788675.439771) can0 03FF1000#0840112200000001
(1788788675.544772) can0 03FF1000#0840112200000001
(1788788675.649777) can0 03FF1000#0840112200000001
(1788788675.754783) can0 03FF1000#0840112200000001
(1788788675.859788) can0 03FF1000#0840112200000001
(1788788675.964798) can0 03FF1000#0840112200000001
(1788788676.069803) can0 03FF1000#0840112200000001
(1788788676.174807) can0 03FF1000#0840112200000001
(1788788676.279810) can0 03FF1000#0840112200000001
(1788788676.384818) can0 03FF1000#0840112200000001
(1788788676.489824) can0 03FF1000#0840112200000001
(1788788676.594828) can0 03FF1000#0840112200000001
(1788788676.699832) can0 03FF1000#0840112200000001
(1788788676.804837) can0 03FF1000#0840112200000001
(1788788676.909846) can0 03FF1000#0840112200000001
(1788788677.014850) can0 03FF1000#0840112200000001
(1788788677.119861) can0 03FF1000#0840112200000001
(1788788677.224860) can0 03FF1000#0840112200000001
(1788788677.329865) can0 03FF1000#0840112200000001
(1788788677.434874) can0 03FF1000#0840112200000001
(1788788677.539878) can0 03FF1000#0840112200000001
(1788788677.643881) can0 04FF3400#000005D400000000
(1788788677.644880) can0 03FF1000#0840112200000001
(1788788677.749891) can0 03FF1000#0840112200000001
(1788788677.854895) can0 03FF1000#0840112200000001
(1788788677.959902) can0 03FF1000#0840112200000001
(1788788678.064909) can0 03FF1000#0840112200000001
(1788788678.169913) can0 03FF1000#0840112200000001
(1788788678.274917) can0 03FF1000#0840112200000001
(1788788678.379923) can0 03FF1000#0840112200000001
(1788788678.484929) can0 03FF1000#0840112200000001
(1788788678.589936) can0 03FF1000#0840112200000001
(1788788678.694938) can0 03FF1000#0840112200000001
(1788788678.799944) can0 03FF1000#0840112200000001
(1788788678.904951) can0 03FF1000#0840112200000001
(1788788679.009955) can0 03FF1000#0840112200000001
(1788788679.114963) can0 03FF1000#0840112200000001
(1788788679.219966) can0 03FF1000#0840112200000001
(1788788679.324972) can0 03FF1000#0840112200000001
(1788788679.429978) can0 03FF1000#0840112200000001
(1788788679.534983) can0 03FF1000#0840112200000001
(1788788679.639990) can0 03FF1000#0840112200000001
(1788788679.744993) can0 03FF1000#0840112200000001
(1788788679.849999) can0 03FF1000#0840112200000001
(1788788679.955005) can0 03FF1000#0840112200000001
(1788788680.060012) can0 03FF1000#0840112200000001
(1788788680.165018) can0 03FF1000#0840112200000001
(1788788680.270021) can0 03FF1000#0840112200000001
(1788788680.375028) can0 03FF1000#0840112200000001
(1788788680.480032) can0 03FF1000#0840112200000001
(1788788680.585038) can0 03FF1000#0840112200000001
(1788788680.690045) can0 03FF1000#0840112200000001
(1788788680.795049) can0 03FF1000#0840112200000001
(1788788680.900056) can0 03FF1000#0840112200000001
(1788788681.005061) can0 03FF1000#0840112200000001
(1788788681.110066) can0 03FF1000#0840112200000001
(1788788681.215072) can0 03FF1000#0840112200000001
(1788788681.320077) can0 03FF1000#0840112200000001
(1788788681.425083) can0 03FF1000#0840112200000001
(1788788681.530088) can0 03FF1000#0840112200000001
(1788788681.635093) can0 03FF1000#0840112200000001
(1788788681.740100) can0 03FF1000#0840112200000001
(1788788681.845103) can0 03FF1000#0840112200000001
(1788788681.950111) can0 03FF1000#0840112200000001
(1788788682.055117) can0 03FF1000#0840112200000001
(1788788682.160122) can0 03FF1000#0840112200000001
(1788788682.265128) can0 03FF1000#0840112200000001
(1788788682.370131) can0 03FF1000#0840112200000001
(1788788682.475138) can0 03FF1000#0840112200000001
(1788788682.580142) can0 03FF1000#0840112200000001
(1788788682.685149) can0 03FF1000#0840112200000001
(1788788682.790154) can0 03FF1000#0840112200000001
(1788788682.895160) can0 03FF1000#0840112200000001
(1788788683.000165) can0 03FF1000#0840112200000001
(1788788683.105172) can0 03FF1000#0840112200000001
(1788788683.210177) can0 03FF1000#0840112200000001
(1788788683.315183) can0 03FF1000#0840112200000001
(1788788683.420187) can0 03FF1000#0840112200000001
(1788788683.525192) can0 03FF1000#0840112200000001
(1788788683.630198) can0 03FF1000#0840112200000001
(1788788683.735203) can0 03FF1000#0840112200000001
(1788788683.840210) can0 03FF1000#0840112200000001
(1788788683.945215) can0 03FF1000#0840112200000001
(1788788684.050221) can0 03FF1000#0840112200000001
(1788788684.155225) can0 03FF1000#0840112200000001
(1788788684.260230) can0 03FF1000#0840112200000001
(1788788684.365237) can0 03FF1000#0840112200000001
(1788788684.470243) can0 03FF1000#0840112200000001
(1788788684.575247) can0 03FF1000#0840112200000001
(1788788684.680253) can0 03FF1000#0840112200000001
(1788788684.785257) can0 03FF1000#0840112200000001
(1788788684.890267) can0 03FF1000#0840112200000001
(1788788684.995269) can0 03FF1000#0840112200000001
(1788788685.100275) can0 03FF1000#0840112200000001
(1788788685.205280) can0 03FF1000#0840112200000001
(1788788685.310286) can0 03FF1000#0840112200000001
(1788788685.415293) can0 03FF1000#0840112200000001
(1788788685.520296) can0 03FF1000#0840112200000001
(1788788685.625303) can0 03FF1000#0840112200000001
(1788788685.730307) can0 03FF1000#0840112200000001
(1788788685.835313) can0 03FF1000#0840112200000001
(1788788685.940321) can0 03FF1000#0840112200000001
(1788788686.045324) can0 03FF1000#0840112200000001
(1788788686.150330) can0 03FF1000#0840112200000001
(1788788686.255334) can0 03FF1000#0840112200000001
(1788788686.360341) can0 03FF1000#0840112200000001
(1788788686.465349) can0 03FF1000#0840112200000001
(1788788686.570352) can0 03FF1000#0840112200000001
(1788788686.675357) can0 03FF1000#0840112200000001
(1788788686.780363) can0 03FF1000#0840112200000001
(1788788686.885368) can0 03FF1000#0840112200000001
(1788788686.990375) can0 03FF1000#0840112200000001
(1788788687.095380) can0 03FF1000#0840112200000001
(1788788687.200385) can0 03FF1000#0840112200000001
(1788788687.305390) can0 03FF1000#0840112200000001
(1788788687.410395) can0 03FF1000#0840112200000001
(1788788687.515402) can0 03FF1000#0840112200000001
(1788788687.620406) can0 03FF1000#0840112200000001
(1788788687.643409) can0 04FF3400#000005D500000000
(1788788687.644404) can0 04FF3603#0300000000000000
(1788788687.725411) can0 03FF1000#0840112200000001
(1788788687.830416) can0 03FF1000#0840112200000001
(1788788687.935423) can0 03FF1000#0840112200000001
(1788788688.040430) can0 03FF1000#0840112200000001
(1788788688.145433) can0 03FF1000#0840112200000001
(1788788688.250440) can0 03FF1000#0840112200000001
(1788788688.355443) can0 03FF1000#0840112200000001
(1788788688.460450) can0 03FF1000#0840112200000001
(1788788688.565457) can0 03FF1000#0840112200000001
(1788788688.670461) can0 03FF1000#0840112200000001
(1788788688.775466) can0 03FF1000#0840112200000001
(1788788688.880471) can0 03FF1000#0840112200000001
(1788788688.985478) can0 03FF1000#0840112200000001
(1788788689.090485) can0 03FF1000#0840112200000001
(1788788689.195491) can0 03FF1000#0840112200000001
(1788788689.300495) can0 03FF1000#0840112200000001
(1788788689.405500) can0 03FF1000#0840112200000001
(1788788689.510505) can0 03FF1000#0840112200000001
(1788788689.615512) can0 03FF1000#0840112200000001
(1788788689.720516) can0 03FF1000#0840112200000001
(1788788689.825520) can0 03FF1000#0840112200000001
(1788788689.930528) can0 03FF1000#0840112200000001
(1788788690.035533) can0 03FF1000#0840112200000001
(1788788690.140541) can0 03FF1000#0840112200000001
(1788788690.245542) can0 03FF1000#0840112200000001
(1788788690.350549) can0 03FF1000#0840112200000001
(1788788690.455555) can0 03FF1000#0840112200000001
(1788788690.560561) can0 03FF1000#0840112200000001
(1788788690.665567) can0 03FF1000#0840112200000001
(1788788690.770571) can0 03FF1000#0840112200000001
(1788788690.875576) can0 03FF1000#0840112200000001
(1788788690.980582) can0 03FF1000#0840112200000001
(1788788691.085589) can0 03FF1000#0840112200000001
(1788788691.190596) can0 03FF1000#0840112200000001
(1788788691.295598) can0 03FF1000#0840112200000001
(1788788691.400604) can0 03FF1000#0840112200000001
(1788788691.505608) can0 03FF1000#0840112200000001
(1788788691.610615) can0 03FF1000#0840112200000001
(1788788691.715622) can0 03FF1000#0840112200000001
(1788788691.820625) can0 03FF1000#0840112200000001
(1788788691.925631) can0 03FF1000#0840112200000001
(1788788692.030635) can0 03FF1000#0840112200000001
(1788788692.135643) can0 03FF1000#0840112200000001
(1788788692.240649) can0 03FF1000#0840112200000001
(1788788692.345654) can0 03FF1000#0840112200000001
(1788788692.450670) can0 03FF1000#0840112200000001
(1788788692.555666) can0 03FF1000#0840112200000001
(1788788692.660670) can0 03FF1000#0840112200000001
(1788788692.765677) can0 03FF1000#0840112200000001
(1788788692.870681) can0 03FF1000#0840112200000001
(1788788692.975686) can0 03FF1000#0840112200000001
(1788788693.080692) can0 03FF1000#0840112200000001
(1788788693.185697) can0 03FF1000#0840112200000001
(1788788693.290705) can0 03FF1000#0840112200000001
(1788788693.395707) can0 03FF1000#0840112200000001
(1788788693.500714) can0 03FF1000#0840112200000001
(1788788693.605719) can0 03FF1000#0840112200000001
(1788788693.710724) can0 03FF1000#0840112200000001
(1788788693.815731) can0 03FF1000#0840112200000001
(1788788693.920736) can0 03FF1000#0840112200000001
(1788788694.025744) can0 03FF1000#0840112200000001
(1788788694.130746) can0 03FF1000#0840112200000001
(1788788694.235751) can0 03FF1000#0840112200000001
(1788788694.340758) can0 03FF1000#0840112200000001
(1788788694.445763) can0 03FF1000#0840112200000001
(1788788694.550769) can0 03FF1000#0840112200000001
(1788788694.655775) can0 03FF1000#0840112200000001
(1788788694.760780) can0 03FF1000#0840112200000001
(1788788694.865786) can0 03FF1000#0840112200000001
(1788788694.970791) can0 03FF1000#0840112200000001
(1788788695.075796) can0 03FF1000#0840112200000001
(1788788695.180805) can0 03FF1000#0840112200000001
(1788788695.285808) can0 03FF1000#0840112200000001
(1788788695.390814) can0 03FF1000#0840112200000001
(1788788695.495819) can0 03FF1000#0840112200000001
(1788788695.600824) can0 03FF1000#0840112200000001
(1788788695.705829) can0 03FF1000#0840112200000001
(1788788695.810084) can0 03FF1000#0840112200000001
(1788788695.915096) can0 03FF1000#0840112200000001
(1788788696.020846) can0 03FF1000#0840112200000001
(1788788696.125850) can0 03FF1000#0840112200000001
(1788788696.230857) can0 03FF1000#0840112200000001
(1788788696.335105) can0 03FF1000#0840112200000001
(1788788696.440112) can0 03FF1000#0840112200000001
(1788788696.545127) can0 03FF1000#0840112200000001
(1788788696.650878) can0 03FF1000#0840112200000001
(1788788696.755115) can0 03FF1000#0840112200000001
(1788788696.860109) can0 03FF1000#0840112200000001
(1788788696.965117) can0 03FF1000#0840112200000001
(1788788697.070139) can0 03FF1000#0840112200000001
(1788788697.175138) can0 03FF1000#0840112200000001
(1788788697.280130) can0 03FF1000#0840112200000001
(1788788697.385113) can0 03FF1000#0840112200000001
(1788788697.490132) can0 03FF1000#0840112200000001
(1788788697.595160) can0 03FF1000#0840112200000001
(1788788697.643058) can0 04FF3400#000005D600000000
(1788788697.700154) can0 03FF1000#0840112200000001
(1788788697.805142) can0 03FF1000#0840112200000001
(1788788697.910129) can0 03FF1000#0840112200000001
(1788788698.015149) can0 03FF1000#0840112200000001
(1788788698.120139) can0 03FF1000#0840112200000001
(1788788698.225153) can0 03FF1000#0840112200000001
(1788788698.330150) can0 03FF1000#0840112200000001
(1788788698.435145) can0 03FF1000#0840112200000001
(1788788698.540153) can0 03FF1000#0840112200000001
(1788788698.645179) can0 03FF1000#0840112200000001
(1788788698.750162) can0 03FF1000#0840112200000001
(1788788698.855166) can0 03FF1000#0840112200000001
(1788788698.960218) can0 03FF1000#0840112200000001
(1788788699.065156) can0 03FF1000#0840112200000001
(1788788699.170184) can0 03FF1000#0840112200000001
(1788788699.275174) can0 03FF1000#0840112200000001
(1788788699.380169) can0 03FF1000#0840112200000001
(1788788699.485224) can0 03FF1000#0840112200000001
(1788788699.590171) can0 03FF1000#0840112200000001
(1788788699.695166) can0 03FF1000#0840112200000001
(1788788699.800195) can0 03FF1000#0840112200000001
(1788788699.905189) can0 03FF1000#0840112200000001
(1788788700.010229) can0 03FF1000#0840112200000001
(1788788700.115188) can0 03FF1000#0840112200000001
(1788788700.220199) can0 03FF1000#0840112200000001
(1788788700.325209) can0 03FF1000#0840112200000001
(1788788700.430192) can0 03FF1000#0840112200000001
(1788788700.535185) can0 03FF1000#0840112200000001
(1788788700.640188) can0 03FF1000#0840112200000001
(1788788700.745197) can0 03FF1000#0840112200000001
(1788788700.850214) can0 03FF1000#0840112200000001
(1788788700.955197) can0 03FF1000#0840112200000001
(1788788701.060201) can0 03FF1000#0840112200000001
(1788788701.165201) can0 03FF1000#0840112200000001
(1788788701.270202) can0 03FF1000#0840112200000001
(1788788701.375218) can0 03FF1000#0840112200000001
(1788788701.480220) can0 03FF1000#0840112200000001
(1788788701.585206) can0 03FF1000#0840112200000001
(1788788701.690224) can0 03FF1000#0840112200000001
(1788788701.795205) can0 03FF1000#0840112200000001
(1788788701.900241) can0 03FF1000#0840112200000001
(1788788702.005228) can0 03FF1000#0840112200000001
(1788788702.110223) can0 03FF1000#0840112200000001
(1788788702.215217) can0 03FF1000#0840112200000001
(1788788702.320290) can0 03FF1000#0840112200000001
(1788788702.425262) can0 03FF1000#0840112200000001
(1788788702.530244) can0 03FF1000#0840112200000001
(1788788702.635240) can0 03FF1000#0840112200000001
(1788788702.740241) can0 03FF1000#0840112200000001
(1788788702.845283) can0 03FF1000#0840112200000001
(1788788702.950266) can0 03FF1000#0840112200000001
(1788788703.055259) can0 03FF1000#0840112200000001
(1788788703.160238) can0 03FF1000#0840112200000001
(1788788703.265250) can0 03FF1000#0840112200000001
(1788788703.370276) can0 03FF1000#0840112200000001
(1788788703.475260) can0 03FF1000#0840112200000001
(1788788703.580264) can0 03FF1000#0840112200000001
(1788788703.685246) can0 03FF1000#0840112200000001
(1788788703.790254) can0 03FF1000#0840112200000001
(1788788703.895293) can0 03FF1000#0840112200000001
(1788788704.000264) can0 03FF1000#0840112200000001
(1788788704.105292) can0 03FF1000#0840112200000001
(1788788704.210274) can0 03FF1000#0840112200000001
(1788788704.315282) can0 03FF1000#0840112200000001
(1788788704.420285) can0 03FF1000#0840112200000001
(1788788704.525303) can0 03FF1000#0840112200000001
(1788788704.630299) can0 03FF1000#0840112200000001
(1788788704.735302) can0 03FF1000#0840112200000001
(1788788704.840309) can0 03FF1000#0840112200000001
(1788788704.945313) can0 03FF1000#0840112200000001
(1788788705.050319) can0 03FF1000#0840112200000001
(1788788705.155361) can0 03FF1000#0840112200000001
(1788788705.260329) can0 03FF1000#0840112200000001
(1788788705.365336) can0 03FF1000#0840112200000001
(1788788705.470341) can0 03FF1000#0840112200000001
(1788788705.575345) can0 03FF1000#0840112200000001
(1788788705.680352) can0 03FF1000#0840112200000001
(1788788705.785357) can0 03FF1000#0840112200000001
(1788788705.890364) can0 03FF1000#0840112200000001
(1788788705.995369) can0 03FF1000#0840112200000001
(1788788706.100373) can0 03FF1000#0840112200000001
(1788788706.205379) can0 03FF1000#0840112200000001
(1788788706.310384) can0 03FF1000#0840112200000001
(1788788706.415399) can0 03FF1000#0840112200000001
(1788788706.520396) can0 03FF1000#0840112200000001
(1788788706.625403) can0 03FF1000#0840112200000001
(1788788706.730407) can0 03FF1000#0840112200000001
(1788788706.835413) can0 03FF1000#0840112200000001
(1788788706.940419) can0 03FF1000#0840112200000001
(1788788707.045422) can0 03FF1000#0840112200000001
(1788788707.150431) can0 03FF1000#0840112200000001
(1788788707.255435) can0 03FF1000#0840112200000001
(1788788707.360438) can0 03FF1000#0840112200000001
(1788788707.465447) can0 03FF1000#0840112200000001
(1788788707.570451) can0 03FF1000#0840112200000001
(1788788707.643454) can0 04FF3400#000005D700000000
(1788788707.675457) can0 03FF1000#0840112200000001
(1788788707.780462) can0 03FF1000#0840112200000001
(1788788707.885468) can0 03FF1000#0840112200000001
(1788788707.990475) can0 03FF1000#0840112200000001
(1788788708.095477) can0 03FF1000#0840112200000001
(1788788708.200484) can0 03FF1000#0840112200000001
(1788788708.305488) can0 03FF1000#0840112200000001
(1788788708.410494) can0 03FF1000#0840112200000001
(1788788708.515502) can0 03FF1000#0840112200000001
(1788788708.620505) can0 03FF1000#0840112200000001
(1788788708.725512) can0 03FF1000#0840112200000001
(1788788708.830516) can0 03FF1000#0840112200000001
(1788788708.935523) can0 03FF1000#0840112200000001
(1788788709.040528) can0 03FF1000#0840112200000001
(1788788709.145533) can0 03FF1000#0840112200000001
(1788788709.250538) can0 03FF1000#0840112200000001
(1788788709.355544) can0 03FF1000#0840112200000001
(1788788709.460550) can0 03FF1000#0840112200000001
(1788788709.565556) can0 03FF1000#0840112200000001
(1788788709.670560) can0 03FF1000#0840112200000001
(1788788709.775566) can0 03FF1000#0840112200000001
(1788788709.880572) can0 03FF1000#0840112200000001
(1788788709.985577) can0 03FF1000#0840112200000001
(1788788710.090584) can0 03FF1000#0840112200000001
(1788788710.195588) can0 03FF1000#0840112200000001
(1788788710.300593) can0 03FF1000#0840112200000001
(1788788710.405599) can0 03FF1000#0840112200000001
(1788788710.510604) can0 03FF1000#0840112200000001
(1788788710.615612) can0 03FF1000#0840112200000001
(1788788710.720616) can0 03FF1000#0840112200000001
(1788788710.825621) can0 03FF1000#0840112200000001
(1788788710.930627) can0 03FF1000#0840112200000001
(1788788711.035633) can0 03FF1000#0840112200000001
(1788788711.140639) can0 03FF1000#0840112200000001
(1788788711.245643) can0 03FF1000#0840112200000001
(1788788711.350650) can0 03FF1000#0840112200000001
(1788788711.455654) can0 03FF1000#0840112200000001
(1788788711.560660) can0 03FF1000#0840112200000001
(1788788711.665666) can0 03FF1000#0840112200000001
(1788788711.770672) can0 03FF1000#0840112200000001
(1788788711.875677) can0 03FF1000#0840112200000001
(1788788711.980683) can0 03FF1000#0840112200000001
(1788788712.085688) can0 03FF1000#0840112200000001
(1788788712.190694) can0 03FF1000#0840112200000001
(1788788712.295698) can0 03FF1000#0840112200000001
(1788788712.400704) can0 03FF1000#0840112200000001
(1788788712.505711) can0 03FF1000#0840112200000001
(1788788712.610716) can0 03FF1000#0840112200000001
(1788788712.715723) can0 03FF1000#0840112200000001
(1788788712.820726) can0 03FF1000#0840112200000001
(1788788712.925732) can0 03FF1000#0840112200000001
(1788788713.030735) can0 03FF1000#0840112200000001
(1788788713.135745) can0 03FF1000#0840112200000001
(1788788713.240749) can0 03FF1000#0840112200000001
(1788788713.345752) can0 03FF1000#0840112200000001
(1788788713.450755) can0 03FF1000#0840112200000001
(1788788713.555762) can0 03FF1000#0840112200000001
(1788788713.660767) can0 03FF1000#0840112200000001
(1788788713.765773) can0 03FF1000#0840112200000001
(1788788713.870777) can0 03FF1000#0840112200000001
(1788788713.975784) can0 03FF1000#0840112200000001
(1788788714.080789) can0 03FF1000#0840112200000001
(1788788714.185795) can0 03FF1000#0840112200000001
(1788788714.290800) can0 03FF1000#0840112200000001
(1788788714.395805) can0 03FF1000#0840112200000001
(1788788714.500811) can0 03FF1000#0840112200000001
(1788788714.605817) can0 03FF1000#0840112200000001
(1788788714.710822) can0 03FF1000#0840112200000001
(1788788714.815829) can0 03FF1000#0840112200000001
(1788788714.920838) can0 03FF1000#0840112200000001
(1788788715.025841) can0 03FF1000#0840112200000001
(1788788715.130845) can0 03FF1000#0840112200000001
(1788788715.235850) can0 03FF1000#0840112200000001
(1788788715.340857) can0 03FF1000#0840112200000001
(1788788715.445861) can0 03FF1000#0840112200000001
(1788788715.550865) can0 03FF1000#0840112200000001
(1788788715.655872) can0 03FF1000#0840112200000001
(1788788715.760877) can0 03FF1000#0840112200000001
(1788788715.865884) can0 03FF1000#0840112200000001
(1788788715.970888) can0 03FF1000#0840112200000001
(1788788716.075894) can0 03FF1000#0840112200000001
(1788788716.180900) can0 03FF1000#0840112200000001
(1788788716.285905) can0 03FF1000#0840112200000001
(1788788716.390912) can0 03FF1000#0840112200000001
(1788788716.495915) can0 03FF1000#0840112200000001
(1788788716.600921) can0 03FF1000#0840112200000001
(1788788716.705927) can0 03FF1000#0840112200000001
(1788788716.810932) can0 03FF1000#0840112200000001
(1788788716.915938) can0 03FF1000#0840112200000001
(1788788717.020944) can0 03FF1000#0840112200000001
(1788788717.125949) can0 03FF1000#0840112200000001
(1788788717.230954) can0 03FF1000#0840112200000001
(1788788717.335959) can0 03FF1000#0840112200000001
(1788788717.440966) can0 03FF1000#0840112200000001
(1788788717.545971) can0 03FF1000#0840112200000001
(1788788717.642975) can0 04FF3400#000005D800000000
(1788788717.650975) can0 03FF1000#0840112200000001
(1788788717.755981) can0 03FF1000#0840112200000001
(1788788717.860987) can0 03FF1000#0840112200000001
(1788788717.965994) can0 03FF1000#0840112200000001
(1788788718.070998) can0 03FF1000#0840112200000001
(1788788718.176003) can0 03FF1000#0840112200000001
(1788788718.281009) can0 03FF1000#0840112200000001
(1788788718.386014) can0 03FF1000#0840112200000001
(1788788718.491023) can0 03FF1000#0840112200000001
(1788788718.596025) can0 03FF1000#0840112200000001
(1788788718.701031) can0 03FF1000#0840112200000001
(1788788718.806037) can0 03FF1000#0840112200000001
(1788788718.911042) can0 03FF1000#0840112200000001
(1788788719.016050) can0 03FF1000#0840112200000001
(1788788719.121060) can0 03FF1000#0840112200000001
(1788788719.226061) can0 03FF1000#0840112200000001
(1788788719.331065) can0 03FF1000#0840112200000001
(1788788719.436073) can0 03FF1000#0840112200000001
(1788788719.541075) can0 03FF1000#0840112200000001
(1788788719.646080) can0 03FF1000#0840112200000001
(1788788719.751098) can0 03FF1000#0840112200000001
(1788788719.856091) can0 03FF1000#0840112200000001
(1788788719.961097) can0 03FF1000#0840112200000001
(1788788720.066104) can0 03FF1000#0840112200000001
(1788788720.171108) can0 03FF1000#0840112200000001
(1788788720.276115) can0 03FF1000#0840112200000001
(1788788720.381121) can0 03FF1000#0840112200000001
(1788788720.486125) can0 03FF1000#0840112200000001
(1788788720.591133) can0 03FF1000#0840112200000001
(1788788720.696136) can0 03FF1000#0840112200000001
(1788788720.801143) can0 03FF1000#0840112200000001
(1788788720.906146) can0 03FF1000#0840112200000001
(1788788721.011152) can0 03FF1000#0840112200000001
(1788788721.116161) can0 03FF1000#0840112200000001
(1788788721.221164) can0 03FF1000#0840112200000001
(1788788721.326169) can0 03FF1000#0840112200000001
(1788788721.431174) can0 03FF1000#0840112200000001
(1788788721.536180) can0 03FF1000#0840112200000001
(1788788721.641187) can0 03FF1000#0840112200000001
(1788788721.746192) can0 03FF1000#0840112200000001
(1788788721.851197) can0 03FF1000#0840112200000001
(1788788721.956203) can0 03FF1000#0840112200000001
(1788788722.061207) can0 03FF1000#0840112200000001
(1788788722.166215) can0 03FF1000#0840112200000001
(1788788722.271218) can0 03FF1000#0840112200000001
(1788788722.376224) can0 03FF1000#0840112200000001
(1788788722.481230) can0 03FF1000#0840112200000001
(1788788722.586235) can0 03FF1000#0840112200000001
(1788788722.691242) can0 03FF1000#0840112200000001
(1788788722.796246) can0 03FF1000#0840112200000001
(1788788722.901252) can0 03FF1000#0840112200000001
(1788788723.006258) can0 03FF1000#0840112200000001
(1788788723.111264) can0 03FF1000#0840112200000001
(1788788723.216269) can0 03FF1000#0840112200000001
(1788788723.321273) can0 03FF1000#0840112200000001
(1788788723.426278) can0 03FF1000#0840112200000001
(1788788723.531286) can0 03FF1000#0840112200000001
(1788788723.636290) can0 03FF1000#0840112200000001
(1788788723.741298) can0 03FF1000#0840112200000001
(1788788723.846302) can0 03FF1000#0840112200000001
(1788788723.951308) can0 03FF1000#0840112200000001
(1788788724.056312) can0 03FF1000#0840112200000001
(1788788724.161317) can0 03FF1000#0840112200000001
(1788788724.266326) can0 03FF1000#0840112200000001
(1788788724.371329) can0 03FF1000#0840112200000001
(1788788724.476336) can0 03FF1000#0840112200000001
(1788788724.581341) can0 03FF1000#0840112200000001
(1788788724.686346) can0 03FF1000#0840112200000001
(1788788724.791353) can0 03FF1000#0840112200000001
(1788788724.896362) can0 03FF1000#0840112200000001
(1788788725.001364) can0 03FF1000#0840112200000001
(1788788725.106372) can0 03FF1000#0840112200000001
(1788788725.211377) can0 03FF1000#0840112200000001
(1788788725.316380) can0 03FF1000#0840112200000001
(1788788725.421384) can0 03FF1000#0840112200000001
(1788788725.526389) can0 03FF1000#0840112200000001
(1788788725.631394) can0 03FF1000#0840112200000001
(1788788725.736401) can0 03FF1000#0840112200000001
(1788788725.841407) can0 03FF1000#0840112200000001
(1788788725.946412) can0 03FF1000#0840112200000001
(1788788726.051417) can0 03FF1000#0840112200000001
(1788788726.156421) can0 03FF1000#0840112200000001
(1788788726.261428) can0 03FF1000#0840112200000001
(1788788726.366435) can0 03FF1000#0840112200000001
(1788788726.471439) can0 03FF1000#0840112200000001
(1788788726.576444) can0 03FF1000#0840112200000001
(1788788726.681449) can0 03FF1000#0840112200000001
(1788788726.786456) can0 03FF1000#0840112200000001
(1788788726.891463) can0 03FF1000#0840112200000001
(1788788726.995721) can0 03FF1000#0840112200000001
(1788788727.100726) can0 03FF1000#0840112200000001
(1788788727.206477) can0 03FF1000#0840112200000001
(1788788727.311483) can0 03FF1000#0840112200000001
(1788788727.415746) can0 03FF1000#0840112200000001
(1788788727.520737) can0 03FF1000#0840112200000001
(1788788727.626500) can0 03FF1000#0840112200000001
(1788788727.642754) can0 04FF3400#000005D900000000
(1788788727.730737) can0 03FF1000#0840112200000001
(1788788727.836510) can0 03FF1000#0840112200000001
(1788788727.940756) can0 03FF1000#0840112200000001
(1788788728.045753) can0 03FF1000#0840112200000001
(1788788728.151527) can0 03FF1000#0840112200000001
(1788788728.255741) can0 03FF1000#0840112200000001
(1788788728.360769) can0 03FF1000#0840112200000001
(1788788728.465779) can0 03FF1000#0840112200000001
(1788788728.570759) can0 03FF1000#0840112200000001
(1788788728.675809) can0 03FF1000#0840112200000001
(1788788728.780764) can0 03FF1000#0840112200000001
(1788788728.885774) can0 03FF1000#0840112200000001
(1788788728.990794) can0 03FF1000#0840112200000001
(1788788729.095773) can0 03FF1000#0840112200000001
(1788788729.200774) can0 03FF1000#0840112200000001
(1788788729.305796) can0 03FF1000#0840112200000001
(1788788729.410804) can0 03FF1000#0840112200000001
(1788788729.515801) can0 03FF1000#0840112200000001
(1788788729.620791) can0 03FF1000#0840112200000001
(1788788729.725784) can0 03FF1000#0840112200000001
(1788788729.830789) can0 03FF1000#0840112200000001
(1788788729.935823) can0 03FF1000#0840112200000001
(1788788730.040801) can0 03FF1000#0840112200000001
(1788788730.145784) can0 03FF1000#0840112200000001
(1788788730.250800) can0 03FF1000#0840112200000001
(1788788730.355818) can0 03FF1000#0840112200000001
(1788788730.460843) can0 03FF1000#0840112200000001
(1788788730.565820) can0 03FF1000#0840112200000001
(1788788730.670799) can0 03FF1000#0840112200000001
(1788788730.775815) can0 03FF1000#0840112200000001
(1788788730.804666) can0 02181606#0100190001030200
(1788788730.885670) can0 03FF1000#0840112200000001
(1788788730.895717) can0 03FF1001#0000000000000000
(1788788730.906671) can0 03FF1603#0000D0DC00000000
(1788788730.914670) can0 02181606#0100190001030200
(1788788730.916717) can0 03FF1605#0100000000000000
(1788788730.918671) can0 05FF4610#0000D148FFFFFFD5
(1788788730.927672) can0 03121606#0100000000000000
(1788788730.990676) can0 03FF1000#0840112200000001
(1788788731.000723) can0 03FF1001#0000000000000000
(1788788731.011677) can0 03FF1603#0000D0DC00000000
(1788788731.021711) can0 03FF1605#0100000000000000
(1788788731.024676) can0 02181606#0100190001030200
(1788788731.032676) can0 03121606#0000000000000000
(1788788731.046677) can0 05FF4001#0000000000000000
(1788788731.048677) can0 05FF4000#0000000000000000
(1788788731.095687) can0 03FF1000#0840112200000001
(1788788731.105721) can0 03FF1001#0000000000000000
(1788788731.116681) can0 03FF1603#0000D0DC00000000
(1788788731.126728) can0 03FF1605#0100000000000000
(1788788731.128682) can0 05FF4602#1110171017101610
(1788788731.137683) can0 03121606#0000000000000000
(1788788731.138682) can0 05FF4603#17101A101C101C10
(1788788731.147706) can0 03FF1600#142B000104001319
(1788788731.148683) can0 05FF4604#1A101B101D101E10
(1788788731.158684) can0 03FF1601#6E50000000000000
(1788788731.158784) can0 05FF4605#1A10000000000000
(1788788731.168711) can0 03FF1602#000005000000157C
(1788788731.179686) can0 03FF1604#0000000000000000
(1788788731.179809) can0 05FF4610#0000D148FFFFFFD5
(1788788731.188685) can0 05FF4606#1D1D1C
(1788788731.198685) can0 05FF4607#1D1C1C
(1788788731.200685) can0 03FF1000#0840112200000001
(1788788731.208687) can0 05FF4608#0019007C
(1788788731.210720) can0 03FF1001#0000000000000000
(1788788731.218687) can0 05FF4609#010003D403CA00
(1788788731.221686) can0 03FF1603#0000D0DC00000000
(1788788731.231723) can0 03FF1605#0100000000000000
(1788788731.305692) can0 03FF1000#0840112200000001
(1788788731.315727) can0 03FF1001#0000000000000000
(1788788731.326693) can0 03FF1603#0000D0DC00000000
(1788788731.336739) can0 03FF1605#0100000000000000
(1788788731.380697) can0 05FF4400#00000000
(1788788731.410697) can0 03FF1000#0840112200000001
(1788788731.420728) can0 03FF1001#0000000000000000
(1788788731.430698) can0 05FF4600#0D0300900303
(1788788731.431698) can0 03FF1603#0000D0DC00000000
(1788788731.441780) can0 03FF1605#0100000000000000
(1788788731.452699) can0 05FF4610#0000D148FFFFFFD5
(1788788731.480701) can0 05FF4601#007300000000
(1788788731.515703) can0 03FF1000#0840112200000001
(1788788731.525752) can0 03FF1001#0000000000000000
(1788788731.535709) can0 02191602#0000000000000000
(1788788731.536704) can0 03FF1603#0000D0DC00000000
(1788788731.546727) can0 03FF1605#0100000000000000
(1788788731.620711) can0 03FF1000#0840112200000001
(1788788731.630739) can0 03FF1001#0000000000000000
(1788788731.641709) can0 03FF1603#0000D0DC00000000
(1788788731.651744) can0 03FF1605#0100000000000000
(1788788731.713715) can0 05FF4610#0000D148FFFFFFD5
(1788788731.725713) can0 03FF1000#0840112200000001
(1788788731.735737) can0 03FF1001#0000000000000000
(1788788731.746715) can0 03FF1603#0000D0DC00000000
(1788788731.756749) can0 03FF1605#0100000000000000
(1788788731.830720) can0 03FF1000#0840112200000001
(1788788731.840742) can0 03FF1001#0000000000000000
(1788788731.851720) can0 03FF1603#0000D0DC00000000
(1788788731.861743) can0 03FF1605#0100000000000000
(1788788731.935725) can0 03FF1000#0840112200000001
(1788788731.945745) can0 03FF1001#0000000000000000
(1788788731.956726) can0 03FF1603#0000D0DC00000000
(1788788731.966762) can0 03FF1605#0100000000000000
(1788788732.001728) can0 05FF4610#0000D148FFFFFFC4
(1788788732.040731) can0 03FF1000#0840112200000001
(1788788732.045731) can0 02191602#0000000000000000
(1788788732.050744) can0 03FF1001#0000000000000000
(1788788732.061731) can0 03FF1603#0000D0DC00000000
(1788788732.071733) can0 03FF1605#0100000000000000
(1788788732.086743) can0 05FF4001#0000000000000000
(1788788732.088755) can0 05FF4000#0000000000000000
(1788788732.124735) can0 03FF1600#142B000104001319
(1788788732.134735) can0 03FF1601#6E50000000000000
(1788788732.145736) can0 03FF1602#000005000000157C
(1788788732.155781) can0 03FF1604#0000000000000000
(1788788732.166737) can0 03FF1000#0840112200000001
(1788788732.168736) can0 05FF4602#1110171017101610
(1788788732.176760) can0 03FF1001#0000000000000000
(1788788732.178736) can0 05FF4603#17101A101C101C10
(1788788732.187738) can0 03FF1603#0000D0DC00000000
(1788788732.188737) can0 05FF4604#1A101B101D101E10
(1788788732.197750) can0 03FF1605#0100000000000000
(1788788732.198749) can0 05FF4605#1A10000000000000
(1788788732.228740) can0 05FF4606#1D1D1C
(1788788732.238740) can0 05FF4607#1D1C1C
(1788788732.248741) can0 05FF4608#0019007C
(1788788732.250740) can0 03FF1000#0840112200000001
(1788788732.258742) can0 05FF4609#010003D403CA00
(1788788732.260741) can0 03FF1001#0000000000000000
(1788788732.262741) can0 05FF4610#0000D148FFFFFFC4
(1788788732.271743) can0 03FF1603#0000D0DC00000000
(1788788732.281749) can0 03FF1605#0100000000000000
(1788788732.355748) can0 03FF1000#0840112200000001
(1788788732.365761) can0 03FF1001#0000000000000000
(1788788732.376748) can0 03FF1603#0000D0DC00000000
(1788788732.386748) can0 03FF1605#0100000000000000
(1788788732.460752) can0 03FF1000#0840112200000001
(1788788732.470765) can0 03FF1001#0000000000000000
(1788788732.481752) can0 03FF1603#0000D0DC00000000
(1788788732.491754) can0 03FF1605#0100000000000000
(1788788732.535773) can0 05FF4610#0000D148FFFFFFC4
(1788788732.565761) can0 03FF1000#0840112200000001
(1788788732.575760) can0 03FF1001#0000000000000000
(1788788732.586760) can0 03FF1603#0000D0DC00000000
(1788788732.596759) can0 03FF1605#0100000000000000
(1788788732.670764) can0 03FF1000#0840112200000001
(1788788732.680764) can0 03FF1001#0000000000000000
(1788788732.691764) can0 03FF1603#0000D0DC00000000
(1788788732.701765) can0 03FF1605#0100000000000000
(1788788732.775769) can0 03FF1000#0840112200000001
(1788788732.785769) can0 03FF1001#0000000000000000
(1788788732.796770) can0 03FF1603#0000D0DC00000000
(1788788732.806770) can0 03FF1605#0100000000000000
(1788788732.823818) can0 05FF4610#0000D147FFFFFFCA
(1788788732.880775) can0 03FF1000#0840112200000001
(1788788732.890775) can0 03FF1001#0000000000000000
(1788788732.901776) can0 03FF1603#0000D0DC00000000
(1788788732.911775) can0 03FF1605#0100000000000000
(1788788732.985781) can0 03FF1000#0840112200000001
(1788788732.995810) can0 03FF1001#0000000000000000
(1788788733.006782) can0 03FF1603#0000D0DC00000000
(1788788733.016781) can0 03FF1605#0100000000000000
(1788788733.084867) can0 05FF4610#0000D147FFFFFFCA
(1788788733.088787) can0 02FF2602#7AF3FE1530CCE56B
(1788788733.088840) can0 02294609#0000000000000000
(1788788733.090785) can0 03FF1000#0840112200000001
(1788788733.090851) can0 05124609#030003D403CA00
(1788788733.100786) can0 03FF1001#0000000000000000
(1788788733.111786) can0 03FF1603#0000D0DC00000000
(1788788733.121788) can0 03FF1605#0100000000000000
(1788788733.126914) can0 05FF4001#0000000000000000
(1788788733.128909) can0 05FF4000#0000000000000000
(1788788733.132787) can0 03FF1600#142B000104001319
(1788788733.142787) can0 03FF1601#6E50000000000000
(1788788733.153789) can0 03FF1602#000005000000157C
(1788788733.163789) can0 03FF1604#0000000000000000
(1788788733.195792) can0 03FF1000#0840112200000001
(1788788733.205792) can0 03FF1001#0000000000000000
(1788788733.208871) can0 05FF4602#1110171017101610
(1788788733.216797) can0 03FF1603#0000D0DC00000000
(1788788733.218884) can0 05FF4603#171019101C101C10
(1788788733.226792) can0 03FF1605#0100000000000000
(1788788733.228884) can0 05FF4604#1A101B101D101E10
(1788788733.238892) can0 05FF4605#1A10000000000000
(1788788733.268795) can0 05FF4606#1D1D1C
(1788788733.278795) can0 05FF4607#1D1C1C
(1788788733.288795) can0 05FF4608#0019007C
(1788788733.300796) can0 03FF1000#0840112200000001
(1788788733.310798) can0 03FF1001#0000000000000000
(1788788733.311796) can0 05FF4609#030003D403CA00
(1788788733.321797) can0 03FF1603#0000D0DC00000000
(1788788733.331798) can0 03FF1605#0100000000000000
(1788788733.358042) can0 05FF4610#0000D147FFFFFFCA
(1788788733.405802) can0 03FF1000#0840112200000001
(1788788733.415802) can0 03FF1001#0000000000000000
(1788788733.426803) can0 03FF1603#0000D0DC00000000
(1788788733.436802) can0 03FF1605#0100000000000000
(1788788733.510808) can0 03FF1000#0840112200000001
(1788788733.520808) can0 03FF1001#0000000000000000
(1788788733.531813) can0 03FF1603#0000D0DC00000000
(1788788733.541811) can0 03FF1605#0100000000000000
(1788788733.597815) can0 02FF2602#7AF3FE1530CCE56B
(1788788733.597878) can0 02294609#0000000000000000
(1788788733.599818) can0 05124609#030003D403CA00
(1788788733.615816) can0 03FF1000#0840112200000001
(1788788733.618907) can0 05FF4610#0000D147FFFFFFCA
(1788788733.625813) can0 03FF1001#0000000000000000
(1788788733.636814) can0 03FF1603#0000D0DC00000000
(1788788733.646814) can0 03FF1605#0100000000000000
(1788788733.707821) can0 02203606#0101000100010000
(1788788733.717888) can0 02181606#0000000000030200
(1788788733.720817) can0 03FF1000#0840112200000001
(1788788733.720907) can0 03FF1605#0000000000000000
(1788788733.722818) can0 04FF3604#0004000300000100
(1788788733.747820) can0 02203606#0200000000000000
(1788788733.752820) can0 04FF3604#0004000300C80100
(1788788733.777825) can0 02181608#0500000001000000
(1788788733.807823) can0 02181609#0000000000000000
(1788788733.839824) can0 02488600#0000000000000000
(1788788733.867914) can0 02294500#
(1788788733.868825) can0 05124500#0500
(1788788733.887827) can0 03FF1001#0000000000000000
(1788788733.897828) can0 03FF1603#0000D0DC00000000
(1788788733.897951) can0 02FF2605#0000060907030501
(1788788733.907886) can0 03FF1605#0100000000000000
(1788788733.909967) can0 05FF4610#0000D147FFFFFFCA
(1788788733.918829) can0 1FF8B028#0000000000000000
(1788788733.928861) can0 03FF1000#0840112200000001
(1788788733.939832) can0 03FF1605#0000000000000000
(1788788733.949947) can0 03121606#0100000000000000
(1788788733.964967) can0 02FF2604#0000000000000000
(1788788733.987836) can0 02FF2704#0200000000000000
(1788788733.991878) can0 03FF1000#0840112200000001
(1788788734.017835) can0 0260B606#0100000000000000
(1788788734.047836) can0 02203607#0000000300000000
(1788788734.096886) can0 03FF1000#0840112200000001
(1788788734.097838) can0 02F82400#D503000000000000
(1788788734.158846) can0 02FF2602#24FBB07D0817A87F
(1788788734.187847) can0 02181606#0100190001030200
(1788788734.217845) can0 02203606#0100000100010000
(1788788734.227845) can0 03FF1000#0840112200000001
(1788788734.232845) can0 04FF3604#0003000300000000
(1788788734.238845) can0 03FF1001#0000000000000000
(1788788734.247846) can0 02181608#0500000001000000
(1788788734.248845) can0 03FF1603#0000D0DC00000000
(1788788734.259847) can0 03FF1605#0100000000000000
(1788788734.261066) can0 05FF4610#0000D147FFFFFFCA
(1788788734.262846) can0 04FF3604#0004000300C80000
(1788788734.269848) can0 03121606#0100000000000000
(1788788734.277848) can0 02181609#0000000000000000
(1788788734.292848) can0 04FF3604#0004000300C80000
(1788788734.307849) can0 02488600#0000000000000000
(1788788734.322850) can0 04FF3604#0003000300C80000
(1788788734.332851) can0 03FF1000#0840112200000001
(1788788734.338850) can0 02294501#
(1788788734.338918) can0 05124501#0103
(1788788734.343850) can0 03FF1001#0000000000000000
(1788788734.352851) can0 04FF3604#0004000300C80000
(1788788734.353851) can0 03FF1603#0000D0DC00000000
(1788788734.364852) can0 03FF1605#0100000000000000
(1788788734.367899) can0 02FF2605#0000060907030504
(1788788734.382854) can0 04FF3604#0003000300C80000
(1788788734.397942) can0 02FF2604#0000000000000000
(1788788734.401853) can0 05FF4001#0000000000000000
(1788788734.403853) can0 05FF4000#0000000000000000
(1788788734.412855) can0 04FF3604#0004000300C80000
(1788788734.427943) can0 02FF2704#0200000000000000
(1788788734.437856) can0 03FF1000#0840112200000001
(1788788734.442856) can0 04FF3604#0004000300C80000
(1788788734.448856) can0 03FF1001#0000000000000000
(1788788734.458856) can0 0260B606#0100000000000000
(1788788734.459856) can0 03FF1603#0000D0DC00000000
(1788788734.469860) can0 03FF1605#0100000000000000
(1788788734.472858) can0 04FF3604#0004000300C80000
(1788788734.483858) can0 05FF4602#1110171017101610
(1788788734.488044) can0 02203607#0000000300000000
(1788788734.493858) can0 05FF4603#171019101C101C10
(1788788734.502859) can0 04FF3604#0002000300C80000
(1788788734.503859) can0 05FF4604#1A101B101D101E10
(1788788734.513860) can0 05FF4605#1A10000000000000
(1788788734.518010) can0 02181606#0100190001030200
(1788788734.532861) can0 04FF3604#0004000300C80000
(1788788734.534861) can0 05FF4610#0000D147FFFFFFCA
(1788788734.542861) can0 03FF1000#0840112200000001
(1788788734.543861) can0 05FF4606#1D1D1C
(1788788734.550092) can0 02203606#0101000100010000
(1788788734.552984) can0 05FF4607#1D1C1C
(1788788734.553861) can0 03FF1001#0000000000000000
(1788788734.562862) can0 04FF3604#0004000300C80100
(1788788734.563125) can0 05FF4608#0019007C
(1788788734.563862) can0 03FF1603#0000D0DC00000000
(1788788734.573864) can0 05FF4609#030003D403CA00
(1788788734.574862) can0 03FF1605#0100000000000000
(1788788734.584863) can0 03121606#0000000000000000
(1788788734.592863) can0 04FF3604#0005000300C80100
(1788788734.622865) can0 04FF3604#0004000300C80100
(1788788734.632872) can0 02181608#0500000001000000
(1788788734.642869) can0 04FF3602#0000000000000000
(1788788734.647867) can0 03FF1000#0840112200000001
(1788788734.652867) can0 04FF3604#0004000300C80100
(1788788734.658867) can0 02181609#0000000000000000
(1788788734.658934) can0 03FF1001#0000000000000000
(1788788734.668872) can0 03FF1603#0000D0DC00000000
(1788788734.679869) can0 03FF1605#0100000000000000
(1788788734.682868) can0 04FF3604#0004000300C80100
(1788788734.688869) can0 02488600#0000000000000000
(1788788734.712871) can0 04FF3604#0005000300C80100
(1788788734.718113) can0 02191500#
(1788788734.723114) can0 05FF4400#00000001
(1788788734.731871) can0 03FF1500#000000C300000000
(1788788734.742871) can0 04FF3604#0004000300C80100
(1788788734.749872) can0 02FF2605#0000060907030505
(1788788734.752872) can0 03FF1000#0840112200000001
(1788788734.763874) can0 03FF1001#0000000000000000
(1788788734.772875) can0 04FF3604#0005000300C80100
(1788788734.773874) can0 05FF4600#0D0300900303
(1788788734.773928) can0 03FF1603#0000D0DC00000000
(1788788734.779908) can0 02FF2604#0000000000000000
(1788788734.784874) can0 03FF1605#0100000000000000
(1788788734.802876) can0 04FF3604#0004000300C80100
(1788788734.810875) can0 02FF2704#0200000000000000
(1788788734.823877) can0 05FF4610#0000D143FFFFFFB9
(1788788734.832876) can0 04FF3604#0006000300C80100
(1788788734.839877) can0 0260B606#0100000000000000
(1788788734.851878) can0 05FF4601#007300000000
(1788788734.857878) can0 03FF1000#0840112200000001
(1788788734.862878) can0 04FF3604#0005000400C80100
(1788788734.868878) can0 03FF1001#0000000000000000
(1788788734.869878) can0 02203607#0000000300000000
(1788788734.878879) can0 03FF1603#0000D0DC00000000
(1788788734.889880) can0 03FF1605#0100000000000000
(1788788734.892879) can0 04FF3604#0005000300C80100
(1788788734.922882) can0 04FF3604#0002000300C80100
(1788788734.952885) can0 04FF3604#0004000300C80100
(1788788734.962884) can0 03FF1000#0840112200000001
(1788788734.973889) can0 03FF1001#0000000000000000
(1788788734.982886) can0 04FF3604#0005000300C80100
(1788788734.983884) can0 03FF1603#0000D0DC00000000
(1788788734.994885) can0 03FF1605#0100000000000000
(1788788735.012886) can0 04FF3604#0003000300C80100
(1788788735.042887) can0 04FF3604#0002000300C80100
(1788788735.067891) can0 03FF1000#0840112200000001
(1788788735.072889) can0 04FF3604#0003000300C80100
(1788788735.078890) can0 03FF1001#0000000000000000
(1788788735.088890) can0 03FF1603#0000D0DC00000000
(1788788735.089890) can0 05FF4610#0000D143FFFFFFB9
(1788788735.099890) can0 03FF1605#0100000000000000
(1788788735.102890) can0 04FF3604#0006000300C80100
(1788788735.132893) can0 04FF3604#0005000300C80100
(1788788735.141899) can0 03FF1600#142B000104001319
(1788788735.142894) can0 04FF3602#0000000000000000
(1788788735.151895) can0 03FF1601#6E50000000000000
(1788788735.162895) can0 03FF1602#000005000000157C
(1788788735.162949) can0 04FF3604#0006000300C80100
(1788788735.172898) can0 03FF1604#0000000000000000
(1788788735.183896) can0 03FF1000#0840112200000001
(1788788735.192895) can0 04FF3604#0006000300C80100
(1788788735.193895) can0 03FF1001#0000000000000000
(1788788735.204896) can0 03FF1603#0000D0DC00000000
(1788788735.214897) can0 03FF1605#0100000000000000
(1788788735.222897) can0 04FF3604#0004000300C80100
(1788788735.250899) can0 02181606#0100190001030200
(1788788735.252898) can0 04FF3604#0004000300C80100
(1788788735.277901) can0 03FF1000#0840112200000001
(1788788735.281900) can0 02203606#0101000100010000
(1788788735.282899) can0 04FF3604#0006000300C80100
(1788788735.288900) can0 03FF1001#0000000000000000
(1788788735.298902) can0 03FF1603#0000D0DC00000000
(1788788735.309902) can0 03FF1605#0100000000000000
(1788788735.311901) can0 02181608#0500000001000000
(1788788735.312901) can0 04FF3604#0006000300C80100
(1788788735.319902) can0 03121606#0000000000000000
(1788788735.340146) can0 02181609#0000000000000000
(1788788735.342903) can0 04FF3604#0003000300C80100
(1788788735.363905) can0 05FF4610#0000D143FFFFFFB9
(1788788735.371056) can0 02488600#0000000000000000
(1788788735.372905) can0 04FF3604#0005000400C80100
(1788788735.382906) can0 03FF1000#0840112200000001
(1788788735.393906) can0 03FF1001#0000000000000000
(1788788735.400906) can0 02191501#
(1788788735.402907) can0 04FF3604#0003000300C80100
(1788788735.403906) can0 03FF1603#0000D0DC00000000
(1788788735.414908) can0 03FF1605#0100000000000000
(1788788735.424908) can0 03FF1501#0000004A00000000
(1788788735.432909) can0 04FF3604#0004000300C80100
(1788788735.448910) can0 05FF4001#0000000000000000
(1788788735.450909) can0 05FF4000#0000000000000000
(1788788735.462910) can0 04FF3604#0004000300C80100
(1788788735.487914) can0 03FF1000#0840112200000001
(1788788735.492911) can0 04FF3604#0004000300C80100
(1788788735.498912) can0 03FF1001#0000000000000000
(1788788735.508912) can0 03FF1603#0000D0DC00000000
(1788788735.519913) can0 03FF1605#0100000000000000
(1788788735.522913) can0 04FF3604#0006000300C80100
(1788788735.530913) can0 05FF4602#1110161016101610
(1788788735.540915) can0 05FF4603#171019101B101C10
(1788788735.550914) can0 05FF4604#1A101B101D101E10
(1788788735.552914) can0 04FF3604#0005000300C80100
(1788788735.560915) can0 05FF4605#1910000000000000
(1788788735.582917) can0 04FF3604#0004000300C80100
(1788788735.590917) can0 05FF4606#1D1D1C
(1788788735.592916) can0 03FF1000#0840112200000001
(1788788735.600917) can0 05FF4607#1D1B1C
(1788788735.603917) can0 03FF1001#0000000000000000
(1788788735.610918) can0 05FF4608#0019007C
(1788788735.612917) can0 04FF3604#0005000300C80100
(1788788735.613917) can0 03FF1603#0000D0DC00000000
(1788788735.620918) can0 05FF4609#030003D403CA00
(1788788735.624918) can0 03FF1605#0100000000000000
(1788788735.624973) can0 05FF4610#0000D143FFFFFFB9
(1788788735.642920) can0 04FF3602#0000000000000000
(1788788735.643924) can0 04FF3604#0005000300C80100
(1788788735.672925) can0 04FF3604#0004000300C80100
(1788788735.697923) can0 03FF1000#0840112200000001
(1788788735.702922) can0 04FF3604#0005000300C80100
(1788788735.708922) can0 03FF1001#0000000000000000
(1788788735.718924) can0 03FF1603#0000D0DC00000000
(1788788735.729924) can0 03FF1605#0100000000000000
(1788788735.732923) can0 04FF3604#0005000300C80100
(1788788735.751925) can0 02FF2605#0000060907030506
(1788788735.762926) can0 04FF3604#0004000300C80100
(1788788735.779929) can0 02FF2604#0000000000000000
(1788788735.792928) can0 04FF3604#0002000300C80100
(1788788735.802928) can0 03FF1000#0840112200000001
(1788788735.809928) can0 02FF2704#0200000000000000
(1788788735.813928) can0 03FF1001#0000000000000000
(1788788735.822928) can0 04FF3604#0005000300C80100
(1788788735.823928) can0 03FF1603#0000D0DC00000000
(1788788735.834930) can0 03FF1605#0100000000000000
(1788788735.839929) can0 0260B606#0100000000000000
(1788788735.852930) can0 04FF3604#0005000300C80100
(1788788735.869933) can0 02203607#0000000300000000
(1788788735.882933) can0 04FF3604#0005000300C80100
(1788788735.907933) can0 03FF1000#0840112200000001
(1788788735.912933) can0 04FF3604#0006000300C80100
(1788788735.913933) can0 05FF4610#0000D141FFFFFF9E
(1788788735.918935) can0 03FF1001#0000000000000000
(1788788735.928934) can0 03FF1603#0000D0DC00000000
(1788788735.939935) can0 03FF1605#0100000000000000
(1788788735.942934) can0 04FF3604#0004000300C80100
(1788788735.972941) can0 04FF3604#0004000300C80100
(1788788736.002939) can0 04FF3604#0004000300C80100
(1788788736.009939) can0 02181606#0100190001030200
(1788788736.012938) can0 03FF1000#0840112200000001
(1788788736.023939) can0 03FF1001#0000000000000000
(1788788736.032939) can0 04FF3604#0004000300C80100
(1788788736.033939) can0 03FF1603#0000D0DC00000000
(1788788736.039940) can0 02203606#0101000100010000
(1788788736.044940) can0 03FF1605#0100000000000000
(1788788736.062942) can0 04FF3604#0004000300C80100
(1788788736.079945) can0 02181608#0500000001000000
(1788788736.092943) can0 04FF3604#0004000300C80100
(1788788736.109945) can0 02181609#0000000000000000
(1788788736.117944) can0 03FF1000#0840112200000001
(1788788736.122944) can0 04FF3604#0006000300C80100
(1788788736.128945) can0 03FF1001#0000000000000000
(1788788736.138946) can0 03FF1603#0000D0DC00000000
(1788788736.139945) can0 02488600#0000000000000000
(1788788736.142945) can0 04FF3602#0000000000000000
(1788788736.149952) can0 03FF1605#0100000000000000
(1788788736.152946) can0 04FF3604#0004000300C80100
(1788788736.159948) can0 03121606#0000000000000000
(1788788736.169950) can0 02213500#
(1788788736.170947) can0 03FF1600#142B000104001319
(1788788736.177947) can0 04F93500#000000EB00000000
(1788788736.178947) can0 05FF4610#0000D141FFFFFF9E
(1788788736.180947) can0 03FF1601#6E50000000000000
(1788788736.182947) can0 04FF3604#0003000300C80100
(1788788736.191948) can0 03FF1602#000005000000157C
(1788788736.201949) can0 03FF1604#0000000000000000
(1788788736.212950) can0 04FF3604#0005000300C80100
(1788788736.222949) can0 03FF1000#0840112200000001
(1788788736.233951) can0 03FF1001#0000000000000000
(1788788736.242951) can0 04FF3604#0003000300C80100
(1788788736.243950) can0 03FF1603#0000D0DC00000000
(1788788736.254952) can0 03FF1605#0100000000000000
(1788788736.272954) can0 04FF3604#0005000300C80100
(1788788736.302954) can0 04FF3604#0004000300C80100
(1788788736.327955) can0 03FF1000#0840112200000001
(1788788736.332956) can0 04FF3604#0005000300C80100
(1788788736.338956) can0 03FF1001#0000000000000000
(1788788736.348956) can0 03FF1603#0000D0DC00000000
(1788788736.359957) can0 03FF1605#0100000000000000
(1788788736.362957) can0 04FF3604#0005000300C80100
(1788788736.392962) can0 04FF3604#0004000300C80100
(1788788736.422961) can0 04FF3604#0006000300C80100
(1788788736.432961) can0 03FF1000#0840112200000001
(1788788736.443961) can0 03FF1001#0000000000000000
(1788788736.451962) can0 05FF4610#0000D141FFFFFF9E
(1788788736.452961) can0 04FF3604#0006000400C80100
(1788788736.453961) can0 03FF1603#0000D0DC00000000
(1788788736.464963) can0 03FF1605#0100000000000000
(1788788736.482964) can0 04FF3604#0007000300C80100
(1788788736.494964) can0 05FF4001#0000000000000000
(1788788736.496963) can0 05FF4000#0000000000000000
(1788788736.512965) can0 04FF3604#0002000300C80100
(1788788736.537966) can0 03FF1000#0840112200000001
(1788788736.542966) can0 04FF3604#0007000400C80100
(1788788736.548966) can0 03FF1001#0000000000000000
(1788788736.558968) can0 03FF1603#0000D0DC00000000
(1788788736.569968) can0 03FF1605#0100000000000000
(1788788736.572968) can0 04FF3604#0004000300C80100
(1788788736.576967) can0 05FF4602#1110161016101610
(1788788736.586969) can0 05FF4603#171019101B101C10
(1788788736.596969) can0 05FF4604#1A101A101D101D10
(1788788736.602969) can0 04FF3604#0005000300C80100
(1788788736.606970) can0 05FF4605#1910000000000000
(1788788736.632972) can0 04FF3604#0003000300C80100
(1788788736.636971) can0 05FF4606#1D1D1C
(1788788736.642972) can0 04FF3602#0000000000000000
(1788788736.643977) can0 03FF1000#0840112200000001
(1788788736.646973) can0 05FF4607#1D1C1C
(1788788736.653982) can0 03FF1001#0000000000000000
(1788788736.656977) can0 05FF4608#0019007C
(1788788736.662978) can0 04FF3604#0007000300C80100
(1788788736.663974) can0 03FF1603#0000D0DC00000000
(1788788736.666974) can0 05FF4609#030003D403CA00
(1788788736.674977) can0 03FF1605#0100000000000000
(1788788736.692977) can0 04FF3604#0005000300C80100
(1788788736.713978) can0 05FF4610#0000D141FFFFFF9E
(1788788736.722977) can0 04FF3604#0006000300C80100
(1788788736.747978) can0 03FF1000#0840112200000001
(1788788736.752978) can0 04FF3604#0005000300C80100
(1788788736.758979) can0 03FF1001#0000000000000000
(1788788736.760979) can0 02FF2605#0000060907030507
(1788788736.768979) can0 03FF1603#0000D0DC00000000
(1788788736.779983) can0 03FF1605#0100000000000000
(1788788736.782983) can0 04FF3604#0004000300C80100
(1788788736.790982) can0 02FF2604#0000000000000000
(1788788736.812983) can0 04FF3604#0005000300C80100
(1788788736.820983) can0 02FF2704#0200000000000000
(1788788736.842984) can0 04FF3604#0005000300C80100
(1788788736.850984) can0 0260B606#0100000000000000
(1788788736.852984) can0 03FF1000#0840112200000001
(1788788736.863986) can0 03FF1001#0000000000000000
(1788788736.872988) can0 04FF3604#0005000300C80100
(1788788736.873987) can0 03FF1603#0000D0DC00000000
(1788788736.880985) can0 02203607#0000000300000000
(1788788736.884985) can0 03FF1605#0100000000000000
(1788788736.902986) can0 04FF3604#0004000300C80100
(1788788736.910986) can0 02181606#0100190001030200
(1788788736.932987) can0 04FF3604#0003000300C80100
(1788788736.940988) can0 02203606#0101000100010000
(1788788736.957989) can0 03FF1000#0840112200000001
(1788788736.962989) can0 04FF3604#0005000300C80100
(1788788736.968994) can0 03FF1001#0000000000000000
(1788788736.970993) can0 02181608#0500000001000000
(1788788736.978993) can0 03FF1603#0000D0DC00000000
(1788788736.989992) can0 03FF1605#0100000000000000
(1788788736.992992) can0 04FF3604#0007000300C80100
(1788788736.999992) can0 03121606#0000000000000000
(1788788737.000992) can0 02181609#0000000000000000
(1788788737.004992) can0 05FF4610#0000D142FFFFFFA3
(1788788737.022993) can0 04FF3604#0003000300C80100
(1788788737.030993) can0 02488600#0000000000000000
(1788788737.052994) can0 04FF3604#0005000300C80100
(1788788737.060191) can0 02213501#
(1788788737.062994) can0 03FF1000#0840112200000001
(1788788737.067995) can0 04F93501#0000000400000000
(1788788737.073999) can0 03FF1001#0000000000000000
(1788788737.082999) can0 04FF3604#0004000300C80100
(1788788737.083996) can0 03FF1603#0000D0DC00000000
(1788788737.095009) can0 03FF1605#0100000000000000
(1788788737.113002) can0 04FF3604#0006000300C80100
(1788788737.143000) can0 04FF3602#0000000000000000
(1788788737.143257) can0 04FF3604#0005000300C80100
(1788788737.158003) can0 03FF1600#142B000104001319
(1788788737.168001) can0 03FF1601#6E50000000000000
(1788788737.173003) can0 04FF3604#0003000300C80100
(1788788737.179003) can0 03FF1602#000005000000157C
(1788788737.189001) can0 03FF1604#0000000000000000
(1788788737.200002) can0 03FF1000#0840112200000001
(1788788737.203001) can0 04FF3604#0004000300C80100
(1788788737.210002) can0 03FF1001#0000000000000000
(1788788737.221003) can0 03FF1603#0000D0DC00000000
(1788788737.231003) can0 03FF1605#0100000000000000
(1788788737.233003) can0 04FF3604#0003000300C80100
(1788788737.263005) can0 04FF3604#0004000300C80100
(1788788737.266005) can0 05FF4610#0000D142FFFFFFA3
(1788788737.273008) can0 03FF1000#0840112200000001
(1788788737.284008) can0 03FF1001#0000000000000000
(1788788737.293007) can0 04FF3604#0005000300C80100
(1788788737.294006) can0 03FF1603#0000D0DC00000000
(1788788737.305010) can0 03FF1605#0100000000000000
(1788788737.323009) can0 04FF3604#0007000300C80100
(1788788737.353010) can0 04FF3604#0004000300C80100
(1788788737.378014) can0 03FF1000#0840112200000001
(1788788737.383014) can0 04FF3604#0006000300C80100
(1788788737.389011) can0 03FF1001#0000000000000000
(1788788737.399013) can0 03FF1603#0000D0DC00000000
(1788788737.410013) can0 03FF1605#0100000000000000
(1788788737.413012) can0 04FF3604#0005000400C80100
(1788788737.443015) can0 04FF3604#0005000300C80100
(1788788737.473019) can0 04FF3604#0005000300C80100
(1788788737.483019) can0 03FF1000#0840112200000001
(1788788737.494017) can0 03FF1001#0000000000000000
(1788788737.503017) can0 04FF3604#0008000300C80100
(1788788737.504017) can0 03FF1603#0000D0DC00000000
(1788788737.515018) can0 03FF1605#0100000000000000
(1788788737.531019) can0 02181606#0100190001030200
(1788788737.533018) can0 04FF3604#0006000300C80100
(1788788737.539165) can0 05FF4001#0000000000000000
(1788788737.540019) can0 05FF4610#0000D142FFFFFFA3
(1788788737.541019) can0 05FF4000#0000000000000000
(1788788737.561020) can0 02203606#0101000100010000
(1788788737.563020) can0 04FF3604#0005000300C80100
(1788788737.588024) can0 03FF1000#0840112200000001
(1788788737.591035) can0 02181608#0500000001000000
(1788788737.593022) can0 04FF3604#0004000300C80100
(1788788737.599024) can0 03FF1001#0000000000000000
(1788788737.609024) can0 03FF1603#0000D0DC00000000
(1788788737.620027) can0 03FF1605#0100000000000000
(1788788737.621024) can0 05FF4602#1110171017101610
(1788788737.622024) can0 02181609#0000000000000000
(1788788737.623023) can0 04FF3604#0002000300C80100
(1788788737.630024) can0 03121606#0000000000000000
(1788788737.631024) can0 05FF4603#171019101B101C10
(1788788737.641024) can0 05FF4604#1A101A101D101D10
(1788788737.643025) can0 04FF3400#000005DA00000000
(1788788737.643255) can0 04FF3602#0000000000000000
(1788788737.651026) can0 05FF4605#1810000000000000
(1788788737.652025) can0 02488600#0000000000000000
(1788788737.653024) can0 04FF3604#0004000400C80100
(1788788737.681030) can0 05FF4606#1D1D1C
(1788788737.681096) can0 02294502#
(1788788737.682027) can0 05124502#5250313353333541
(1788788737.683026) can0 04FF3604#0005000300C80100
(1788788737.691027) can0 05FF4607#1D1C1C
(1788788737.693028) can0 03FF1000#0840112200000001
(1788788737.701028) can0 05FF4608#0019007C
(1788788737.704027) can0 03FF1001#0000000000000000
(1788788737.711028) can0 05FF4609#030003D403CA00
(1788788737.713028) can0 04FF3604#0005000300C80100
(1788788737.714028) can0 03FF1603#0000D0DC00000000
(1788788737.725029) can0 03FF1605#0100000000000000
(1788788737.743031) can0 04FF3604#0004000300C80100
(1788788737.771231) can0 02FF2605#0000060907030508
(1788788737.773034) can0 04FF3604#0002000300C80100
(1788788737.798033) can0 03FF1000#0840112200000001
(1788788737.801056) can0 05FF4610#0000D142FFFFFFA3
(1788788737.802033) can0 02FF2604#0000000000000000
(1788788737.803033) can0 04FF3604#0002000300C80100
(1788788737.809033) can0 03FF1001#0000000000000000
(1788788737.819034) can0 03FF1603#0000D0DC00000000
(1788788737.830035) can0 03FF1605#0100000000000000
(1788788737.832034) can0 02FF2704#0200000000000000
(1788788737.833034) can0 04FF3604#0006000300C80100
(1788788737.861036) can0 03FF1400#0000000C00000000
(1788788737.862036) can0 0260B606#0100000000000000
(1788788737.863036) can0 04FF3604#0005000300C80100
(1788788737.892040) can0 02203607#0000000300000000
(1788788737.893040) can0 04FF3604#0006000300C80100
(1788788737.903039) can0 03FF1000#0840112200000001
(1788788737.914039) can0 03FF1001#0000000000000000
(1788788737.923040) can0 04FF3604#0007000300C80100
(1788788737.924040) can0 03FF1603#0000D0DC00000000
(1788788737.935040) can0 03FF1605#0100000000000000
(1788788737.953041) can0 04FF3604#0003000300C80100
(1788788737.983047) can0 04FF3604#0004000300C80100
(1788788738.008047) can0 03FF1000#0840112200000001
(1788788738.013044) can0 04FF3604#0003000300C80100
(1788788738.019044) can0 03FF1001#0000000000000000
(1788788738.029046) can0 03FF1603#0000D0DC00000000
(1788788738.040046) can0 03FF1605#0100000000000000
(1788788738.043045) can0 04FF3604#0005000300C80100
(1788788738.073050) can0 04FF3604#0003000300C80100
(1788788738.089249) can0 05FF4610#0000D141FFFFFFA3
(1788788738.103049) can0 04FF3604#0007000300C80100
(1788788738.113049) can0 03FF1000#0840112200000001
(1788788738.124050) can0 03FF1001#0000000000000000
(1788788738.133050) can0 04FF3604#0004000300C80100
(1788788738.134050) can0 03FF1603#0000D0DC00000000
(1788788738.143051) can0 04FF3602#0000000000000000
(1788788738.145052) can0 03FF1605#0100000000000000
(1788788738.163053) can0 04FF3604#0004000300C80100
(1788788738.166052) can0 03FF1600#142B000104001319
(1788788738.176056) can0 03FF1601#6E50000000000000
(1788788738.187056) can0 03FF1602#000005000000157C
(1788788738.193054) can0 04FF3604#0004000300C80100
(1788788738.197053) can0 03FF1604#0000000000000000
(1788788738.218056) can0 03FF1000#0840112200000001
(1788788738.223058) can0 04FF3604#0005000300C80100
(1788788738.229056) can0 03FF1001#0000000000000000
(1788788738.239056) can0 03FF1603#0000D0DC00000000
(1788788738.250057) can0 03FF1605#0100000000000000
(1788788738.253056) can0 04FF3604#0004000300C80100
(1788788738.283061) can0 04FF3604#0002000300C80100
(1788788738.294062) can0 02181606#0100190001030200
(1788788738.313060) can0 04FF3604#0006000300C80100
(1788788738.322060) can0 02203606#0101000100010000
(1788788738.323060) can0 03FF1000#0840112200000001
(1788788738.334061) can0 03FF1001#0000000000000000
(1788788738.343061) can0 04FF3604#0004000300C80100
(1788788738.344061) can0 03FF1603#0000D0DC00000000
(1788788738.353305) can0 02181608#0500000001000000
(1788788738.355062) can0 03FF1605#0100000000000000
(1788788738.363144) can0 05FF4610#0000D141FFFFFFA3
(1788788738.365062) can0 03121606#0000000000000000
(1788788738.373065) can0 04FF3604#0004000300C80100
(1788788738.384066) can0 02181609#0000000000000000
(1788788738.403065) can0 04FF3604#0005000300C80100
(1788788738.414065) can0 02488600#0000000000000000
(1788788738.428067) can0 03FF1000#0840112200000001
(1788788738.433066) can0 04FF3604#0005000300C80100
(1788788738.439067) can0 03FF1001#0000000000000000
(1788788738.442066) can0 02294503#
(1788788738.443171) can0 05124503#00150C0900000C62
(1788788738.449068) can0 03FF1603#0000D0DC00000000
(1788788738.460068) can0 03FF1605#0100000000000000
(1788788738.463068) can0 04FF3604#0003000300C80100
(1788788738.493074) can0 04FF3604#0004000300C80100
(1788788738.523074) can0 04FF3604#0006000300C80100
(1788788738.533073) can0 03FF1000#0840112200000001
(1788788738.544072) can0 03FF1001#0000000000000000
(1788788738.553072) can0 04FF3604#0003000300C80100
(1788788738.554073) can0 03FF1603#0000D0DC00000000
(1788788738.565073) can0 03FF1605#0100000000000000
(1788788738.580211) can0 05FF4001#0000000000000000
(1788788738.582204) can0 05FF4000#0000000000000000
(1788788738.583073) can0 04FF3604#0003000300C80100
(1788788738.613075) can0 04FF3604#0003000300C80100
(1788788738.624187) can0 05FF4610#0000D141FFFFFFA3
(1788788738.638078) can0 03FF1000#0840112200000001
(1788788738.643077) can0 04FF3602#0000000000000000
(1788788738.643248) can0 04FF3604#0005000300C80100
(1788788738.649084) can0 03FF1001#0000000000000000
(1788788738.659082) can0 03FF1603#0000D0DC00000000
(1788788738.662171) can0 05FF4602#1010161016101610
(1788788738.670079) can0 03FF1605#0100000000000000
(1788788738.672170) can0 05FF4603#171019101B101C10
(1788788738.673081) can0 04FF3604#0005000300C80100
(1788788738.682195) can0 05FF4604#1A101B101D101D10
(1788788738.692219) can0 05FF4605#1910000000000000
(1788788738.703081) can0 04FF3604#0003000300C80100
(1788788738.722082) can0 05FF4606#1D1D1C
(1788788738.732082) can0 05FF4607#1D1C1C
(1788788738.733082) can0 04FF3604#0007000300C80100
(1788788738.742083) can0 05FF4608#0019007C
(1788788738.743082) can0 03FF1000#0840112200000001
(1788788738.752175) can0 05FF4609#030003D403CA00
(1788788738.754083) can0 03FF1001#0000000000000000
(1788788738.763083) can0 04FF3604#0005000300C80100
(1788788738.764083) can0 03FF1603#0000D0DC00000000
(1788788738.775087) can0 03FF1605#0100000000000000
(1788788738.782199) can0 02FF2605#0000060907030509
(1788788738.793086) can0 04FF3604#0004000300C80100
(1788788738.812213) can0 02FF2604#0000000000000000
(1788788738.823086) can0 04FF3604#0004000300C80100
(1788788738.842262) can0 02FF2704#0200000000000000
(1788788738.848088) can0 03FF1000#0840112200000001
(1788788738.853088) can0 04FF3604#0004000300C80100
(1788788738.859088) can0 03FF1001#0000000000000000
(1788788738.869090) can0 03FF1603#0000D0DC00000000
(1788788738.872278) can0 0260B606#0100000000000000
(1788788738.880092) can0 03FF1605#0100000000000000
(1788788738.883090) can0 04FF3604#0005000400C80100
(1788788738.902306) can0 02203607#0000000300000000
(1788788738.912276) can0 05FF4610#0000D142FFFFFFA3
(1788788738.913091) can0 04FF3604#0005000300C80100
(1788788738.943094) can0 04FF3604#0004000300C80100
(1788788738.953094) can0 03FF1000#0840112200000001
(1788788738.964094) can0 03FF1001#0000000000000000
(1788788738.973099) can0 04FF3604#0006000300C80100
(1788788738.974097) can0 03FF1603#0000D0DC00000000
(1788788738.985095) can0 03FF1605#0100000000000000
(1788788739.003097) can0 04FF3604#0004000300C80100
(1788788739.033097) can0 04FF3604#0005000300C80100
(1788788739.053099) can0 02181606#0100190001030200
(1788788739.058099) can0 03FF1000#0840112200000001
(1788788739.063099) can0 04FF3604#0003000300C80100
(1788788739.069099) can0 03FF1001#0000000000000000
(1788788739.079103) can0 03FF1603#0000D0DC00000000
(1788788739.090103) can0 03FF1605#0100000000000000
(1788788739.093101) can0 04FF3604#0004000300C80100
(1788788739.103101) can0 02203606#0101000100010000
(1788788739.123103) can0 04FF3604#0004000300C80100
(1788788739.133103) can0 02181608#0500000001000000
(1788788739.143104) can0 04FF3602#0000000000000000
(1788788739.153109) can0 04FF3604#0003000300C80100
(1788788739.163108) can0 02181609#0000000000000000
(1788788739.163155) can0 03FF1000#0840112200000001
(1788788739.174108) can0 03FF1001#0000000000000000
(1788788739.178108) can0 05FF4610#0000D142FFFFFFA3
(1788788739.183106) can0 04FF3604#0006000300C80100
(1788788739.184105) can0 03FF1603#0000D0DC00000000
(1788788739.193106) can0 02488600#0000000000000000
(1788788739.195106) can0 03FF1605#0100000000000000
(1788788739.205106) can0 03121606#0000000000000000
(1788788739.213107) can0 04FF3604#0005000300C80100
(1788788739.215362) can0 03FF1600#142B000104001319
(1788788739.222362) can0 02294504#
(1788788739.223119) can0 05124504#1D
(1788788739.226107) can0 03FF1601#6E50000000000000
(1788788739.237108) can0 03FF1602#000005000000157C
(1788788739.243109) can0 04FF3604#0004000300C80100
(1788788739.247109) can0 03FF1604#0000000000000000
(1788788739.268110) can0 03FF1000#0840112200000001
(1788788739.273113) can0 04FF3604#0004000300C80100
(1788788739.279114) can0 03FF1001#0000000000000000
(1788788739.289111) can0 03FF1603#0000D0DC00000000
(1788788739.300112) can0 03FF1605#0100000000000000
(1788788739.303112) can0 04FF3604#0004000300C80100
(1788788739.333114) can0 04FF3604#0004000300C80100
(1788788739.363115) can0 04FF3604#0004000300C80100
(1788788739.373119) can0 03FF1000#0840112200000001
(1788788739.384120) can0 03FF1001#0000000000000000
(1788788739.393117) can0 04FF3604#0004000300C80100
(1788788739.394116) can0 03FF1603#0000D0DC00000000
(1788788739.405117) can0 03FF1605#0100000000000000
(1788788739.423119) can0 04FF3604#0003000300C80100
(1788788739.451120) can0 05FF4610#0000D142FFFFFFA3
(1788788739.453120) can0 04FF3604#0004000300C80100
(1788788739.478124) can0 03FF1000#0840112200000001
(1788788739.483124) can0 04FF3604#0006000300C80100
(1788788739.489122) can0 03FF1001#0000000000000000
(1788788739.499123) can0 03FF1603#0000D0DC00000000
(1788788739.510123) can0 03FF1605#0100000000000000
(1788788739.513122) can0 04FF3604#0003000300C80100
(1788788739.543125) can0 04FF3604#0005000300C80100
(1788788739.573129) can0 04FF3604#0005000300C80100
(1788788739.583130) can0 03FF1000#0840112200000001
(1788788739.593382) can0 03FF1001#0000000000000000
(1788788739.603127) can0 04FF3604#0005000300C80100
(1788788739.604127) can0 03FF1603#0000D0DC00000000
(1788788739.615128) can0 03FF1605#0100000000000000
(1788788739.625130) can0 05FF4001#0000000000000000
(1788788739.627129) can0 05FF4000#0000000000000000
(1788788739.633129) can0 04FF3604#0005000300C80100
(1788788739.643129) can0 04FF3602#0000000000000000
(1788788739.663136) can0 04FF3604#0007000300C80100
(1788788739.688136) can0 03FF1000#0840112200000001
(1788788739.693135) can0 04FF3604#0004000300C80100
(1788788739.698388) can0 03FF1001#0000000000000000
(1788788739.707133) can0 05FF4602#1110161016101610
(1788788739.709132) can0 03FF1603#0000D0DC00000000
(1788788739.712133) can0 05FF4610#0000D142FFFFFFA3
(1788788739.717133) can0 05FF4603#171019101B101C10
(1788788739.720133) can0 03FF1605#0100000000000000
(1788788739.723134) can0 04FF3604#0006000300C80100
(1788788739.727134) can0 05FF4604#1A101A101D101D10
(1788788739.737135) can0 05FF4605#1A10000000000000
(1788788739.753136) can0 04FF3604#0005000400C80100
(1788788739.768137) can0 05FF4606#1D1D1C
(1788788739.778139) can0 05FF4607#1D1C1C
(1788788739.783139) can0 04FF3604#0003000300C80100
(1788788739.788138) can0 05FF4608#0019007C
(1788788739.793138) can0 03FF1000#0840112200000001
(1788788739.794137) can0 02FF2605#0000060907030500
(1788788739.798138) can0 05FF4609#030003D403CA00
(1788788739.804138) can0 03FF1001#0000000000000000
(1788788739.813138) can0 04FF3604#0004000300C80100
(1788788739.814138) can0 03FF1603#0000D0DC00000000
(1788788739.823262) can0 02FF2604#0000000000000000
(1788788739.825139) can0 03FF1605#0100000000000000
(1788788739.843140) can0 04FF3604#0003000300C80100
(1788788739.853233) can0 02FF2704#0200000000000000
(1788788739.873145) can0 04FF3604#0005000300C80100
(1788788739.883251) can0 0260B606#0100000000000000
(1788788739.898144) can0 03FF1000#0840112200000001
(1788788739.903143) can0 04FF3604#0004000300C80100
(1788788739.909144) can0 03FF1001#0000000000000000
(1788788739.914144) can0 02203607#0000000300000000
(1788788739.919144) can0 03FF1603#0000D0DC00000000
(1788788739.929399) can0 03FF1605#0100000000000000
(1788788739.933145) can0 04FF3604#0002000300C80100
(1788788739.944145) can0 02181606#0100190001030200
(1788788739.963147) can0 04FF3604#0007000400C80100
(1788788739.973314) can0 02203606#0101000100010000
(1788788739.993151) can0 04FF3604#0003000300C80100
(1788788740.003150) can0 05FF4610#0000D141FFFFFFA9
(1788788740.003320) can0 03FF1000#0840112200000001
(1788788740.004148) can0 02181608#0500000001000000
(1788788740.014150) can0 03FF1001#0000000000000000
(1788788740.023151) can0 04FF3604#0004000300C80100
(1788788740.023205) can0 05FF4600#0D0300900303
(1788788740.024150) can0 03FF1603#0000D0DC00000000
(1788788740.034151) can0 02181609#0000000000000000
(1788788740.034426) can0 03FF1605#0100000000000000
(1788788740.045151) can0 03121606#0000000000000000
(1788788740.053151) can0 04FF3604#0005000300C80100
(1788788740.083157) can0 04FF3604#0004000300C80100
(1788788740.084156) can0 02488600#0000000000000000
(1788788740.108155) can0 03FF1000#0840112200000001
(1788788740.113155) can0 04FF3604#0005000300C80100
(1788788740.113251) can0 02191502#
(1788788740.119155) can0 03FF1001#0000000000000000
(1788788740.129155) can0 03FF1603#0000D0DC00000000
(1788788740.139411) can0 03FF1605#0100000000000000
(1788788740.143156) can0 04FF3602#0000000000000000
(1788788740.143235) can0 04FF3604#0003000300C80100
(1788788740.150162) can0 03FF1502#0100000000000000
(1788788740.173163) can0 04FF3604#0006000300C80100
(1788788740.181415) can0 03FF1600#142B000104001319
(1788788740.192159) can0 03FF1601#6E50000000000000
(1788788740.202414) can0 03FF1602#000005000000157C
(1788788740.203159) can0 04FF3604#0006000300C80100
(1788788740.213160) can0 03FF1604#0000000000000000
(1788788740.223381) can0 03FF1000#0840112200000001
(1788788740.233161) can0 04FF3604#0005000300C80100
(1788788740.234161) can0 03FF1001#0000000000000000
(1788788740.244399) can0 03FF1603#0000D0DC00000000
(1788788740.255162) can0 03FF1605#0100000000000000
(1788788740.263162) can0 04FF3604#0004000300C80100
(1788788740.266162) can0 05FF4610#0000D141FFFFFFA9
(1788788740.293167) can0 04FF3604#0004000300C80100
(1788788740.318167) can0 03FF1000#0840112200000001
(1788788740.323166) can0 04FF3604#0005000300C80100
(1788788740.328420) can0 03FF1001#0000000000000000
(1788788740.339166) can0 03FF1603#0000D0DC00000000
(1788788740.349422) can0 03FF1605#0100000000000000
(1788788740.353167) can0 04FF3604#0004000300C80100
(1788788740.383172) can0 04FF3604#0003000300C80100
(1788788740.413174) can0 04FF3604#0003000300C80100
(1788788740.423172) can0 03FF1000#0840112200000001
(1788788740.433415) can0 03FF1001#0000000000000000
(1788788740.443171) can0 04FF3604#0005000300C80100
(1788788740.444171) can0 03FF1603#0000D0DC00000000
(1788788740.454427) can0 03FF1605#0100000000000000
(1788788740.473173) can0 04FF3604#0004000300C80100
(1788788740.503179) can0 04FF3604#0006000300C80100
(1788788740.528180) can0 03FF1000#0840112200000001
(1788788740.533177) can0 04FF3604#0004000300C80100
(1788788740.539177) can0 03FF1001#0000000000000000
(1788788740.540177) can0 05FF4610#0000D141FFFFFFA9
(1788788740.549178) can0 03FF1603#0000D0DC00000000
(1788788740.559433) can0 03FF1605#0100000000000000
(1788788740.563178) can0 04FF3604#0005000300C80100
(1788788740.574401) can0 02181606#0100190001030200
(1788788740.593183) can0 04FF3604#0006000300C80100
(1788788740.604181) can0 02203606#0101000100010000
(1788788740.623182) can0 04FF3604#0006000300C80100
(1788788740.633182) can0 03FF1000#0840112200000001
(1788788740.636181) can0 02181608#0500000001000000
(1788788740.643182) can0 04FF3602#0000000000000000
(1788788740.643412) can0 03FF1001#0000000000000000
(1788788740.653185) can0 04FF3604#0005000300C80100
(1788788740.654183) can0 03FF1603#0000D0DC00000000
(1788788740.664184) can0 02181609#0000000000000000
(1788788740.665183) can0 03FF1605#0100000000000000
(1788788740.671184) can0 05FF4001#0000000000000000
(1788788740.673184) can0 05FF4000#0000000000000000
(1788788740.675186) can0 03121606#0000000000000000
(1788788740.683187) can0 04FF3604#0006000300C80100
(1788788740.694301) can0 02488600#0000000000000000
(1788788740.713186) can0 04FF3604#0004000300C80100
(1788788740.724186) can0 02191503#
(1788788740.738187) can0 03FF1000#0840112200000001
(1788788740.743187) can0 04FF3604#0003000300C80100
(1788788740.748437) can0 03FF1001#0000000000000000
(1788788740.753188) can0 05FF4602#1110161016101610
(1788788740.754188) can0 02F82400#D603000000000000
(1788788740.759188) can0 03FF1503#0100000000000000
(1788788740.763188) can0 05FF4603#171019101B101C10
(1788788740.769408) can0 03FF1603#0000D0DC00000000
(1788788740.773189) can0 04FF3604#0003000300C80100
(1788788740.773244) can0 05FF4604#1A101A101D101D10
(1788788740.780193) can0 03FF1605#0100000000000000
(1788788740.783192) can0 05FF4605#1910000000000000
(1788788740.784201) can0 02FF2602#885B24DD056ED467
(1788788740.801192) can0 05FF4610#0000D141FFFFFFA9
(1788788740.803191) can0 04FF3604#0005000300C80100
(1788788740.813191) can0 05FF4606#1D1D1C
(1788788740.814191) can0 02FF2605#0000060907030501
(1788788740.823192) can0 05FF4607#1D1C1C
(1788788740.833192) can0 04FF3604#0005000300C80100
(1788788740.833259) can0 05FF4608#0019007C
(1788788740.843194) can0 03FF1000#0840112200000001
(1788788740.843456) can0 05FF4609#030003D403CA00
(1788788740.844245) can0 02FF2604#0000000000000000
(1788788740.853436) can0 03FF1001#0000000000000000
(1788788740.863194) can0 04FF3604#0005000300C80100
(1788788740.864194) can0 03FF1603#0000D0DC00000000
(1788788740.874423) can0 03FF1605#0100000000000000
(1788788740.876417) can0 02FF2704#0200000000000000
(1788788740.893197) can0 04FF3604#0003000300C80100
(1788788740.904266) can0 0260B606#0100000000000000
(1788788740.923197) can0 04FF3604#0006000300C80100
(1788788740.934313) can0 02203607#0000000300000000
(1788788740.948198) can0 03FF1000#0840112200000001
(1788788740.953198) can0 04FF3604#0007000300C80100
(1788788740.958425) can0 03FF1001#0000000000000000
(1788788740.969199) can0 03FF1603#0000D0DC00000000
(1788788740.979447) can0 03FF1605#0100000000000000
(1788788740.983203) can0 04FF3604#0003000300C80100
(1788788741.013203) can0 04FF3604#0003000300C80100
(1788788741.043204) can0 04FF3604#0004000300C80100
(1788788741.053204) can0 03FF1000#0840112200000001
(1788788741.063425) can0 03FF1001#0000000000000000
(1788788741.073205) can0 04FF3604#0004000300C80100
(1788788741.074208) can0 03FF1603#0000D0DC00000000
(1788788741.084440) can0 03FF1605#0100000000000000
(1788788741.089206) can0 05FF4610#0000D13FFFFFFFA3
(1788788741.103207) can0 04FF3604#0003000300C80100
(1788788741.133209) can0 04FF3604#0003000300C80100
(1788788741.143209) can0 04FF3602#0000000000000000
(1788788741.158212) can0 03FF1000#0840112200000001
(1788788741.163210) can0 04FF3604#0006000300C80100
(1788788741.168452) can0 03FF1001#0000000000000000
(1788788741.179214) can0 03FF1603#0000D0DC00000000
(1788788741.189458) can0 03FF1605#0100000000000000
(1788788741.193211) can0 04FF3604#0006000300C80100
(1788788741.200211) can0 03FF1600#142B000104001319
(1788788741.210409) can0 03FF1601#6E50000000000000
(1788788741.221212) can0 03FF1602#000005000000157C
(1788788741.223212) can0 04FF3604#0004000300C80100
(1788788741.231434) can0 03FF1604#0000000000000000
(1788788741.253215) can0 04FF3604#0006000300C80100
(1788788741.263215) can0 03FF1000#0840112200000001
(1788788741.273435) can0 03FF1001#0000000000000000
(1788788741.283218) can0 04FF3604#0005000300C80100
(1788788741.284219) can0 03FF1603#0000D0DC00000000
(1788788741.294449) can0 03FF1605#0100000000000000
(1788788741.313219) can0 04FF3604#0005000300C80100
(1788788741.335220) can0 02181606#0100190001030200
(1788788741.343219) can0 04FF3604#0004000300C80100
(1788788741.363221) can0 05FF4610#0000D13FFFFFFFA3
(1788788741.365219) can0 02203606#0101000100010000
(1788788741.368220) can0 03FF1000#0840112200000001
(1788788741.373220) can0 04FF3604#0005000300C80100
(1788788741.378439) can0 03FF1001#0000000000000000
(1788788741.389224) can0 03FF1603#0000D0DC00000000
(1788788741.395223) can0 02181608#0500000001000000
(1788788741.399465) can0 03FF1605#0100000000000000
(1788788741.403222) can0 04FF3604#0003000300C80100
(1788788741.410223) can0 03121606#0000000000000000
(1788788741.425223) can0 02181609#0000000000000000
(1788788741.433224) can0 04FF3604#0003000300C80100
(1788788741.455225) can0 02488600#0000000000000000
(1788788741.463225) can0 04FF3604#0006000300C80100
(1788788741.473226) can0 03FF1000#0840112200000001
(1788788741.483437) can0 03FF1001#0000000000000000
(1788788741.485229) can0 02191504#
(1788788741.493228) can0 04FF3604#0006000300C80100
(1788788741.494227) can0 03FF1603#0000D0DC00000000
(1788788741.504437) can0 03FF1605#0100000000000000
(1788788741.515229) can0 03FF1504#0000001D00000000
(1788788741.523228) can0 04FF3604#0004000300C80100
(1788788741.553230) can0 04FF3604#0004000300C80100
(1788788741.578233) can0 03FF1000#0840112200000001
(1788788741.583234) can0 04FF3604#0005000300C80100
(1788788741.588440) can0 03FF1001#0000000000000000
(1788788741.599233) can0 03FF1603#0000D0DC00000000
(1788788741.609433) can0 03FF1605#0100000000000000
(1788788741.613233) can0 04FF3604#0003000300C80100
(1788788741.624234) can0 05FF4610#0000D13FFFFFFFA3
(1788788741.643235) can0 04FF3602#0000000000000000
(1788788741.643289) can0 04FF3604#0006000300C80100
(1788788741.673239) can0 04FF3604#0003000300C80100
(1788788741.683240) can0 03FF1000#0840112200000001
(1788788741.693446) can0 03FF1001#0000000000000000
(1788788741.703237) can0 04FF3604#0004000300C80100
(1788788741.704237) can0 03FF1603#0000D0DC00000000
(1788788741.713238) can0 05FF4001#0000000000000000
(1788788741.714446) can0 03FF1605#0100000000000000
(1788788741.715295) can0 05FF4000#0000000000000000
(1788788741.733240) can0 04FF3604#0005000300C80100
(1788788741.763241) can0 04FF3604#0003000300C80100
(1788788741.788244) can0 03FF1000#0840112200000001
(1788788741.793242) can0 04FF3604#0004000300C80100
(1788788741.795242) can0 05FF4602#1110161016101610
(1788788741.798427) can0 03FF1001#0000000000000000
(1788788741.805243) can0 05FF4603#171019101B101C10
(1788788741.809242) can0 03FF1603#0000D0DC00000000
(1788788741.815244) can0 02FF2605#0000060907030502
(1788788741.816243) can0 05FF4604#1A101A101C101D10
(1788788741.819497) can0 03FF1605#0100000000000000
(1788788741.823243) can0 04FF3604#0004000300C80100
(1788788741.825243) can0 05FF4605#1810000000000000
(1788788741.845246) can0 02FF2604#0000000000000000
(1788788741.853245) can0 04FF3604#0006000300C80100
(1788788741.855245) can0 05FF4606#1D1D1C
(1788788741.875247) can0 02FF2704#0200000000000000
(1788788741.883248) can0 04FF3604#0004000300C80100
(1788788741.892247) can0 05FF4607#1D1C1C
(1788788741.893247) can0 03FF1000#0840112200000001
(1788788741.903247) can0 05FF4608#0019007C
(1788788741.904247) can0 03FF1001#0000000000000000
(1788788741.905317) can0 0260B606#0100000000000000
(1788788741.913249) can0 04FF3604#0007000300C80100
(1788788741.913298) can0 05FF4609#030003D403CA00
(1788788741.914248) can0 03FF1603#0000D0DC00000000
(1788788741.914500) can0 05FF4610#0000D141FFFFFFA9
(1788788741.924445) can0 03FF1605#0100000000000000
(1788788741.936249) can0 02203607#0000000300000000
(1788788741.943250) can0 04FF3604#0003000300C80100
(1788788741.973257) can0 04FF3604#0003000300C80100
(1788788741.998257) can0 03FF1000#0840112200000001
(1788788742.003253) can0 04FF3604#0005000300C80100
(1788788742.008450) can0 03FF1001#0000000000000000
(1788788742.019255) can0 03FF1603#0000D0DC00000000
(1788788742.029451) can0 03FF1605#0100000000000000
(1788788742.033255) can0 04FF3604#0006000300C80100
(1788788742.063258) can0 04FF3604#0003000300C80100
(1788788742.093262) can0 04FF3604#0002000300C80100
(1788788742.095420) can0 02181606#0100190001030200
(1788788742.103258) can0 03FF1000#0840112200000001
(1788788742.113445) can0 03FF1001#0000000000000000
(1788788742.123260) can0 04FF3604#0003000300C80100
(1788788742.124259) can0 03FF1603#0000D0DC00000000
(1788788742.125497) can0 02203606#0101000100010000
(1788788742.134457) can0 03FF1605#0100000000000000
(1788788742.143261) can0 04FF3602#0000000000000000
(1788788742.153264) can0 04FF3604#0004000300C80100
(1788788742.155500) can0 02181608#0500000001000000
(1788788742.177333) can0 05FF4610#0000D141FFFFFFA9
(1788788742.183264) can0 04FF3604#0003000300C80100
(1788788742.186262) can0 02181609#0000000000000000
(1788788742.197448) can0 03FF1600#142B000104001319
(1788788742.208264) can0 03FF1601#6E50000000000000
(1788788742.213265) can0 04FF3604#0004000300C80100
(1788788742.216473) can0 02488600#0000000000000000
(1788788742.218422) can0 03FF1602#000005000000157C
(1788788742.229265) can0 03FF1604#0000000000000000
(1788788742.239451) can0 03FF1000#0840112200000001
(1788788742.243266) can0 04FF3604#0003000300C80100
(1788788742.246266) can0 02213502#
(1788788742.250266) can0 03FF1001#0000000000000000
(1788788742.253266) can0 04F93502#0000000000000000
(1788788742.260429) can0 03FF1603#0000D0DC00000000
(1788788742.271268) can0 03FF1605#0100000000000000
(1788788742.273267) can0 04FF3604#0006000300C80100
(1788788742.281454) can0 03121606#0000000000000000
(1788788742.303268) can0 04FF3604#0005000300C80100
(1788788742.313270) can0 03FF1000#0840112200000001
(1788788742.323432) can0 03FF1001#0000000000000000
(1788788742.333270) can0 04FF3604#0003000300C80100
(1788788742.334270) can0 03FF1603#0000D0DC00000000
(1788788742.344509) can0 03FF1605#0100000000000000
(1788788742.363273) can0 04FF3604#0006000300C80100
(1788788742.393275) can0 04FF3604#0002000300C80100
(1788788742.418275) can0 03FF1000#0840112200000001
(1788788742.423275) can0 04FF3604#0003000300C80100
(1788788742.428460) can0 03FF1001#0000000000000000
(1788788742.439277) can0 03FF1603#0000D0DC00000000
(1788788742.449463) can0 03FF1605#0100000000000000
(1788788742.451434) can0 05FF4610#0000D141FFFFFFA9
(1788788742.453276) can0 04FF3604#0006000300C80100
(1788788742.483280) can0 04FF3604#0004000300C80100
(1788788742.513280) can0 04FF3604#0004000300C80100
