(1788802205.466677) can0 03FF1000#0840112200000001
(1788802205.571700) can0 03FF1000#0840112200000001
(1788802205.676694) can0 03FF1000#0840112200000001
(1788802205.781690) can0 03FF1000#0840112200000001
(1788802205.886687) can0 03FF1000#0840112200000001
(1788802205.991690) can0 03FF1000#0840112200000001
(1788802206.096706) can0 03FF1000#0840112200000001
(1788802206.201713) can0 03FF1000#0840112200000001
(1788802206.306694) can0 03FF1000#0840112200000001
(1788802206.411695) can0 03FF1000#0840112200000001
(1788802206.516686) can0 03FF1000#0840112200000001
(1788802206.621714) can0 03FF1000#0840112200000001
(1788802206.726716) can0 03FF1000#0840112200000001
(1788802206.831722) can0 03FF1000#0840112200000001
(1788802206.936759) can0 03FF1000#0840112200000001
(1788802207.041709) can0 03FF1000#0840112200000001
(1788802207.146729) can0 03FF1000#0840112200000001
(1788802207.251729) can0 03FF1000#0840112200000001
(1788802207.356731) can0 03FF1000#0840112200000001
(1788802207.461767) can0 03FF1000#0840112200000001
(1788802207.566713) can0 03FF1000#0840112200000001
(1788802207.671731) can0 03FF1000#0840112200000001
(1788802207.776733) can0 03FF1000#0840112200000001
(1788802207.881729) can0 03FF1000#0840112200000001
(1788802207.986771) can0 03FF1000#0840112200000001
(1788802208.091728) can0 03FF1000#0840112200000001
(1788802208.196741) can0 03FF1000#0840112200000001
(1788802208.301737) can0 03FF1000#0840112200000001
(1788802208.406745) can0 03FF1000#0840112200000001
(1788802208.511727) can0 03FF1000#0840112200000001
(1788802208.616737) can0 03FF1000#0840112200000001
(1788802208.721751) can0 03FF1000#0840112200000001
(1788802208.826754) can0 03FF1000#0840112200000001
(1788802208.931750) can0 03FF1000#0840112200000001
(1788802209.036728) can0 03FF1000#0840112200000001
(1788802209.141746) can0 03FF1000#0840112200000001
(1788802209.246777) can0 03FF1000#0840112200000001
(1788802209.351768) can0 03FF1000#0840112200000001
(1788802209.388645) can0 04FF3400#0000022000000000
(1788802209.456750) can0 03FF1000#0840112200000001
(1788802209.561758) can0 03FF1000#0840112200000001
(1788802209.666762) can0 03FF1000#0840112200000001
(1788802209.771742) can0 03FF1000#0840112200000001
(1788802209.876774) can0 03FF1000#0840112200000001
(1788802209.981767) can0 03FF1000#0840112200000001
(1788802210.086773) can0 03FF1000#0840112200000001
(1788802210.191764) can0 03FF1000#0840112200000001
(1788802210.296819) can0 03FF1000#0840112200000001
(1788802210.401793) can0 03FF1000#0840112200000001
(1788802210.506787) can0 03FF1000#0840112200000001
(1788802210.611772) can0 03FF1000#0840112200000001
(1788802210.716769) can0 03FF1000#0840112200000001
(1788802210.821828) can0 03FF1000#0840112200000001
(1788802210.926798) can0 03FF1000#0840112200000001
(1788802211.031806) can0 03FF1000#0840112200000001
(1788802211.136782) can0 03FF1000#0840112200000001
(1788802211.241785) can0 03FF1000#0840112200000001
(1788802211.346819) can0 03FF1000#0840112200000001
(1788802211.451802) can0 03FF1000#0840112200000001
(1788802211.556817) can0 03FF1000#0840112200000001
(1788802211.661798) can0 03FF1000#0840112200000001
(1788802211.766801) can0 03FF1000#0840112200000001
(1788802211.871794) can0 03FF1000#0840112200000001
(1788802211.976840) can0 03FF1000#0840112200000001
(1788802212.081832) can0 03FF1000#0840112200000001
(1788802212.186800) can0 03FF1000#0840112200000001
(1788802212.291794) can0 03FF1000#0840112200000001
(1788802212.396804) can0 03FF1000#0840112200000001
(1788802212.501843) can0 03FF1000#0840112200000001
(1788802212.606832) can0 03FF1000#0840112200000001
(1788802212.711815) can0 03FF1000#0840112200000001
(1788802212.816822) can0 03FF1000#0840112200000001
(1788802212.921832) can0 03FF1000#0840112200000001
(1788802213.026843) can0 03FF1000#0840112200000001
(1788802213.131879) can0 03FF1000#0840112200000001
(1788802213.236842) can0 03FF1000#0840112200000001
(1788802213.341846) can0 03FF1000#0840112200000001
(1788802213.446858) can0 03FF1000#0840112200000001
(1788802213.551861) can0 03FF1000#0840112200000001
(1788802213.656898) can0 03FF1000#0840112200000001
(1788802213.761868) can0 03FF1000#0840112200000001
(1788802213.866874) can0 03FF1000#0840112200000001
(1788802213.971886) can0 03FF1000#0840112200000001
(1788802214.076887) can0 03FF1000#0840112200000001
(1788802214.181914) can0 03FF1000#0840112200000001
(1788802214.286896) can0 03FF1000#0840112200000001
(1788802214.391901) can0 03FF1000#0840112200000001
(1788802214.496913) can0 03FF1000#0840112200000001
(1788802214.601912) can0 03FF1000#0840112200000001
(1788802214.706917) can0 03FF1000#0840112200000001
(1788802214.811923) can0 03FF1000#0840112200000001
(1788802214.916932) can0 03FF1000#0840112200000001
(1788802215.021939) can0 03FF1000#0840112200000001
(1788802215.126942) can0 03FF1000#0840112200000001
(1788802215.231944) can0 03FF1000#0840112200000001
(1788802215.336949) can0 03FF1000#0840112200000001
(1788802215.441957) can0 03FF1000#0840112200000001
(1788802215.546968) can0 03FF1000#0840112200000001
(1788802215.651966) can0 03FF1000#0840112200000001
(1788802215.756972) can0 03FF1000#0840112200000001
(1788802215.861976) can0 03FF1000#0840112200000001
(1788802215.966984) can0 03FF1000#0840112200000001
(1788802216.071992) can0 03FF1000#0840112200000001
(1788802216.176994) can0 03FF1000#0840112200000001
(1788802216.246996) can0 02181606#0100120001030200
(1788802216.286998) can0 03FF1000#0840112200000001
(1788802216.296999) can0 03FF1001#0000000000000000
(1788802216.307999) can0 03FF1603#0000D03600000000
(1788802216.317999) can0 03FF1605#0100000000000000
(1788802216.319999) can0 05FF4610#0000D0A2FFFFFFDA
(1788802216.329000) can0 03121606#0100000000000000
(1788802216.357002) can0 02181606#0100120001030200
(1788802216.392004) can0 03FF1000#0840112200000001
(1788802216.402003) can0 03FF1001#0000000000000000
(1788802216.413005) can0 03FF1603#0000D03600000000
(1788802216.423005) can0 03FF1605#0100000000000000
(1788802216.434006) can0 03121606#0000000000000000
(1788802216.448006) can0 05FF4001#0000000000000000
(1788802216.450006) can0 05FF4000#0000000000000000
(1788802216.497014) can0 03FF1000#0840112200000001
(1788802216.507013) can0 03FF1001#0000000000000000
(1788802216.518009) can0 03FF1603#0000D03600000000
(1788802216.528010) can0 03FF1605#0100000000000000
(1788802216.530010) can0 05FF4602#07100D100D100C10
(1788802216.540010) can0 05FF4603#0D100A100E100E10
(1788802216.550012) can0 05FF4604#0B100C100F101110
(1788802216.560013) can0 05FF4605#0B10000000000000
(1788802216.581014) can0 05FF4610#0000D0A2FFFFFFDA
(1788802216.590013) can0 05FF4606#1E1E1E
(1788802216.600014) can0 05FF4607#1E1D1E
(1788802216.602014) can0 03FF1000#0840112200000001
(1788802216.610015) can0 05FF4608#0019007C
(1788802216.612014) can0 03FF1001#0000000000000000
(1788802216.620015) can0 05FF4609#010003CA03CA00
(1788802216.623015) can0 03FF1603#0000D03600000000
(1788802216.633016) can0 03FF1605#0100000000000000
(1788802216.707019) can0 03FF1000#0840112200000001
(1788802216.717019) can0 03FF1001#0000000000000000
(1788802216.728021) can0 03FF1603#0000D03600000000
(1788802216.738020) can0 03FF1605#0100000000000000
(1788802216.770023) can0 05FF4400#00000000
(1788802216.812025) can0 03FF1000#0840112200000001
(1788802216.820025) can0 05FF4600#0D0300900303
(1788802216.822024) can0 03FF1001#0000000000000000
(1788802216.832280) can0 03FF1603#0000D03600000000
(1788802216.842026) can0 05FF4610#0000D0A2FFFFFFDA
(1788802216.843026) can0 03FF1605#0100000000000000
(1788802216.868027) can0 02191602#0000000000000000
(1788802216.882032) can0 05FF4601#007300000000
(1788802216.917031) can0 03FF1000#0840112200000001
(1788802216.927031) can0 03FF1001#0000000000000000
(1788802216.938031) can0 03FF1603#0000D03600000000
(1788802216.948031) can0 03FF1605#0100000000000000
(1788802216.990034) can0 03FF1600#142B000104001312
(1788802217.001035) can0 03FF1601#6E50000000000000
(1788802217.011037) can0 03FF1602#000005000000157C
(1788802217.022037) can0 03FF1604#0000000000000000
(1788802217.032036) can0 03FF1000#0840112200000001
(1788802217.043036) can0 03FF1001#0000000000000000
(1788802217.053037) can0 03FF1603#0000D03600000000
(1788802217.064038) can0 03FF1605#0100000000000000
(1788802217.127041) can0 03FF1000#0840112200000001
(1788802217.137042) can0 03FF1001#0000000000000000
(1788802217.143041) can0 05FF4610#0000D0A0FFFFFFC4
(1788802217.147296) can0 03FF1603#0000D03600000000
(1788802217.158043) can0 03FF1605#0100000000000000
(1788802217.232047) can0 03FF1000#0840112200000001
(1788802217.242047) can0 03FF1001#0000000000000000
(1788802217.252301) can0 03FF1603#0000D03600000000
(1788802217.263048) can0 03FF1605#0100000000000000
(1788802217.337053) can0 03FF1000#0840112200000001
(1788802217.347052) can0 03FF1001#0000000000000000
(1788802217.357295) can0 03FF1603#0000D03600000000
(1788802217.368053) can0 03FF1605#0100000000000000
(1788802217.405057) can0 05FF4610#0000D0A0FFFFFFC4
(1788802217.442057) can0 03FF1000#0840112200000001
(1788802217.452057) can0 03FF1001#0000000000000000
(1788802217.462290) can0 03FF1603#0000D03600000000
(1788802217.473058) can0 03FF1605#0100000000000000
(1788802217.490060) can0 05FF4001#0000000000000000
(1788802217.492059) can0 05FF4000#0000000000000000
(1788802217.547063) can0 03FF1000#0840112200000001
(1788802217.557064) can0 03FF1001#0000000000000000
(1788802217.567319) can0 03FF1603#0000D03600000000
(1788802217.573064) can0 05FF4602#07100C100D100C10
(1788802217.578063) can0 03FF1605#0100000000000000
(1788802217.583064) can0 05FF4603#0D100A100E100E10
(1788802217.593065) can0 05FF4604#0B100C100F101010
(1788802217.603065) can0 05FF4605#0B10000000000000
(1788802217.633067) can0 05FF4606#1E1E1E
(1788802217.644067) can0 05FF4607#1E1D1E
(1788802217.652068) can0 03FF1000#0840112200000001
(1788802217.654067) can0 05FF4608#0019007C
(1788802217.662069) can0 03FF1001#0000000000000000
(1788802217.665068) can0 05FF4609#010003CA03CA00
(1788802217.668068) can0 05FF4610#0000D0A0FFFFFFC4
(1788802217.672311) can0 03FF1603#0000D03600000000
(1788802217.683070) can0 03FF1605#0100000000000000
(1788802217.757074) can0 03FF1000#0840112200000001
(1788802217.767074) can0 03FF1001#0000000000000000
(1788802217.778074) can0 03FF1603#0000D03600000000
(1788802217.788075) can0 03FF1605#0100000000000000
(1788802217.861333) can0 03FF1000#0840112200000001
(1788802217.872079) can0 03FF1001#0000000000000000
(1788802217.882311) can0 03FF1603#0000D03600000000
(1788802217.889080) can0 02FF2602#A48BF01D379F3F37
(1788802217.889141) can0 02294609#0000000000000000
(1788802217.891080) can0 05124609#030003CA03CA00
(1788802217.893080) can0 03FF1605#0100000000000000
(1788802217.941084) can0 05FF4610#0000D0A0FFFFFFC4
(1788802217.967083) can0 03FF1000#0840112200000001
(1788802217.977085) can0 03FF1001#0000000000000000
(1788802217.988085) can0 03FF1603#0000D03600000000
(1788802217.998085) can0 03FF1605#0100000000000000
(1788802218.008318) can0 03FF1600#142B000104001312
(1788802218.019087) can0 03FF1601#6E50000000000000
(1788802218.029284) can0 03FF1602#000005000000157C
(1788802218.040087) can0 03FF1604#0000000000000000
(1788802218.072090) can0 03FF1000#0840112200000001
(1788802218.082092) can0 03FF1001#0000000000000000
(1788802218.092323) can0 03FF1603#0000D03600000000
(1788802218.103091) can0 03FF1605#0100000000000000
(1788802218.176350) can0 03FF1000#0840112200000001
(1788802218.187096) can0 03FF1001#0000000000000000
(1788802218.197327) can0 03FF1603#0000D03600000000
(1788802218.208097) can0 03FF1605#0100000000000000
(1788802218.229097) can0 05FF4610#0000D0A2FFFFFFCF
(1788802218.281343) can0 03FF1000#0840112200000001
(1788802218.292101) can0 03FF1001#0000000000000000
(1788802218.302316) can0 03FF1603#0000D03600000000
(1788802218.313103) can0 03FF1605#0100000000000000
(1788802218.387106) can0 03FF1000#0840112200000001
(1788802218.397106) can0 03FF1001#0000000000000000
(1788802218.400106) can0 02FF2602#67EB1F4511C1F69F
(1788802218.400174) can0 02294609#0000000000000000
(1788802218.402106) can0 05124609#030003CA03CA00
(1788802218.407314) can0 03FF1603#0000D03600000000
(1788802218.418108) can0 03FF1605#0100000000000000
(1788802218.491111) can0 05FF4610#0000D0A2FFFFFFCF
(1788802218.491375) can0 03FF1000#0840112200000001
(1788802218.502112) can0 03FF1001#0000000000000000
(1788802218.509111) can0 02203606#0101000100010000
(1788802218.512332) can0 03FF1603#0000D03600000000
(1788802218.518298) can0 04FF3604#0004000300000100
(1788802218.523113) can0 03FF1605#0100000000000000
(1788802218.533113) can0 05FF4001#0000000000000000
(1788802218.535113) can0 05FF4000#0000000000000000
(1788802218.548313) can0 04FF3604#0005000300000100
(1788802218.557114) can0 02181606#0000000000030200
(1788802218.565115) can0 03FF1605#0000000000000000
(1788802218.578313) can0 04FF3604#0005000300000100
(1788802218.579117) can0 02203606#0200000000000000
(1788802218.609119) can0 02181608#0500000001000000
(1788802218.639119) can0 02181609#0000000000000000
(1788802218.669121) can0 02488600#0000000000000000
(1788802218.720122) can0 02294500#
(1788802218.721122) can0 05124500#0500
(1788802218.732124) can0 1FF8B028#0000000000000000
(1788802218.742124) can0 03FF1000#0840112200000001
(1788802218.749355) can0 02FF2605#0000060907070004
(1788802218.753124) can0 03FF1605#0000000000000000
(1788802218.763125) can0 03121606#0100000000000000
(1788802218.779126) can0 02FF2604#0000000000000000
(1788802218.809382) can0 02FF2704#0200000000000000
(1788802218.837129) can0 03FF1000#0840112200000001
(1788802218.839193) can0 0260B606#0100000000000000
(1788802218.869165) can0 02203607#0000000300000000
(1788802218.899238) can0 02F82400#0500000000000000
(1788802218.929205) can0 02FF2602#E543B5FD3F1279AB
(1788802218.942134) can0 03FF1000#0840112200000001
(1788802218.959262) can0 02181606#0100120001030200
(1788802218.991137) can0 02203606#0100000100010000
(1788802218.998298) can0 04FF3604#0004000300000000
(1788802219.009369) can0 03FF1600#142B000104001312
(1788802219.019346) can0 02181608#0500000001000000
(1788802219.020138) can0 03FF1601#6E50000000000000
(1788802219.028300) can0 04FF3604#0003000300000000
(1788802219.030330) can0 03FF1602#000005000000157C
(1788802219.041140) can0 03FF1604#0000000000000000
(1788802219.049383) can0 02181609#0000000000000000
(1788802219.051394) can0 03FF1000#0840112200000001
(1788802219.058286) can0 04FF3604#0003000300C80000
(1788802219.062140) can0 03FF1001#0000000000000000
(1788802219.072384) can0 03FF1603#0000D03600000000
(1788802219.080141) can0 02488600#0000000000000000
(1788802219.083143) can0 03FF1605#0100000000000000
(1788802219.085142) can0 05FF4610#0000D0A2FFFFFFCF
(1788802219.088305) can0 04FF3604#0003000300C80000
(1788802219.093352) can0 03121606#0100000000000000
(1788802219.109143) can0 02294501#
(1788802219.110143) can0 05124501#0103
(1788802219.118294) can0 04FF3604#0004000300C80000
(1788802219.140145) can0 02FF2605#0000060907070006
(1788802219.148291) can0 04FF3604#0003000300C80000
(1788802219.156365) can0 03FF1000#0840112200000001
(1788802219.167146) can0 03FF1001#0000000000000000
(1788802219.170145) can0 02FF2604#0000000000000000
(1788802219.177354) can0 03FF1603#0000D03600000000
(1788802219.178319) can0 04FF3604#0003000300C80000
(1788802219.188147) can0 03FF1605#0100000000000000
(1788802219.208310) can0 04FF3604#0003000300C80000
(1788802219.215148) can0 05FF4001#0000000000000000
(1788802219.217147) can0 05FF4000#0000000000000000
(1788802219.238288) can0 04FF3604#0003000300C80000
(1788802219.240149) can0 02FF2704#0200000000000000
(1788802219.261354) can0 03FF1000#0840112200000001
(1788802219.268301) can0 04FF3604#0003000300C80000
(1788802219.272150) can0 0260B606#0100000000000000
(1788802219.272205) can0 03FF1001#0000000000000000
(1788802219.282360) can0 03FF1603#0000D03600000000
(1788802219.293152) can0 03FF1605#0100000000000000
(1788802219.297152) can0 05FF4602#07100D100D100C10
(1788802219.298291) can0 04FF3604#0003000300C80000
(1788802219.305299) can0 02203607#0000000300000000
(1788802219.307152) can0 05FF4603#0D100A100E100E10
(1788802219.317153) can0 05FF4604#0B100C100F101110
(1788802219.327153) can0 05FF4605#0B10000000000000
(1788802219.328287) can0 04FF3604#0003000300C80000
(1788802219.332154) can0 02181606#0100120001030200
(1788802219.348155) can0 05FF4610#0000D0A2FFFFFFDA
(1788802219.358155) can0 05FF4606#1E1E1E
(1788802219.358291) can0 04FF3604#0004000300C80000
(1788802219.360155) can0 02203606#0101000100010000
(1788802219.366376) can0 03FF1000#0840112200000001
(1788802219.368155) can0 05FF4607#1E1D1E
(1788802219.377156) can0 03FF1001#0000000000000000
(1788802219.378156) can0 05FF4608#0019007C
(1788802219.387344) can0 03FF1603#0000D03600000000
(1788802219.388157) can0 05FF4609#030003CA03CA00
(1788802219.389156) can0 04FF3400#0000022100000000
(1788802219.389213) can0 04FF3602#0000000000000000
(1788802219.390157) can0 04FF3603#0100000000000000
(1788802219.391156) can0 02181608#0500000001000000
(1788802219.393307) can0 04FF3604#0005000300C80100
(1788802219.398158) can0 03FF1605#0100000000000000
(1788802219.408366) can0 03121606#0000000000000000
(1788802219.418298) can0 04FF3604#0004000300C80100
(1788802219.421158) can0 02181609#0000000000000000
(1788802219.448287) can0 04FF3604#0004000300C80100
(1788802219.451160) can0 02488600#0000000000000000
(1788802219.471369) can0 03FF1000#0840112200000001
(1788802219.478283) can0 04FF3604#0005000300C80100
(1788802219.482161) can0 02191500#
(1788802219.482216) can0 03FF1001#0000000000000000
(1788802219.492335) can0 03FF1603#0000D03600000000
(1788802219.503162) can0 03FF1605#0100000000000000
(1788802219.508301) can0 04FF3604#0004000300C80100
(1788802219.513359) can0 03FF1500#000000C300000000
(1788802219.538304) can0 04FF3604#0004000300C80100
(1788802219.539165) can0 05FF4400#00000001
(1788802219.541164) can0 02FF2605#0000060907070007
(1788802219.568294) can0 04FF3604#0005000300C80100
(1788802219.571212) can0 02FF2604#0000000000000000
(1788802219.576381) can0 03FF1000#0840112200000001
(1788802219.587168) can0 03FF1001#0000000000000000
(1788802219.589169) can0 05FF4600#0D0300900303
(1788802219.597389) can0 03FF1603#0000D03600000000
(1788802219.598289) can0 04FF3604#0004000300C80100
(1788802219.608170) can0 03FF1605#0100000000000000
(1788802219.611169) can0 05FF4610#0000D0A2FFFFFFDA
(1788802219.613319) can0 02FF2704#0200000000000000
(1788802219.628293) can0 04FF3604#0006000300C80100
(1788802219.640172) can0 05FF4601#007300000000
(1788802219.641170) can0 0260B606#0100000000000000
(1788802219.658287) can0 04FF3604#0005000300C80100
(1788802219.672295) can0 02203607#0000000300000000
(1788802219.681381) can0 03FF1000#0840112200000001
(1788802219.688291) can0 04FF3604#0004000300C80100
(1788802219.692172) can0 03FF1001#0000000000000000
(1788802219.702372) can0 03FF1603#0000D03600000000
(1788802219.713174) can0 03FF1605#0100000000000000
(1788802219.718301) can0 04FF3604#0004000300C80100
(1788802219.748303) can0 04FF3604#0004000300C80100
(1788802219.778288) can0 04FF3604#0004000300C80100
(1788802219.786375) can0 03FF1000#0840112200000001
(1788802219.797179) can0 03FF1001#0000000000000000
(1788802219.807365) can0 03FF1603#0000D03600000000
(1788802219.808289) can0 04FF3604#0002000300C80100
(1788802219.818180) can0 03FF1605#0100000000000000
(1788802219.838297) can0 04FF3604#0004000300C80100
(1788802219.868285) can0 04FF3604#0005000300C80100
(1788802219.886186) can0 05FF4610#0000D0A2FFFFFFDA
(1788802219.888298) can0 04FF3602#0000000000000000
(1788802219.891368) can0 03FF1000#0840112200000001
(1788802219.898287) can0 04FF3604#0005000300C80100
(1788802219.902183) can0 03FF1001#0000000000000000
(1788802219.912357) can0 03FF1603#0000D03600000000
(1788802219.923185) can0 03FF1605#0100000000000000
(1788802219.928288) can0 04FF3604#0003000300C80100
(1788802219.958286) can0 04FF3604#0006000300C80100
(1788802219.988304) can0 04FF3604#0006000300C80100
(1788802219.996408) can0 03FF1000#0840112200000001
(1788802220.007188) can0 03FF1001#0000000000000000
(1788802220.017386) can0 03FF1603#0000D03600000000
(1788802220.018281) can0 04FF3604#0004000300C80100
(1788802220.028189) can0 03FF1605#0100000000000000
(1788802220.038364) can0 03FF1600#142B000104001312
(1788802220.048279) can0 04FF3604#0003000300C80100
(1788802220.049191) can0 03FF1601#6E50000000000000
(1788802220.052307) can0 02181606#0100120001030200
(1788802220.059355) can0 03FF1602#000005000000157C
(1788802220.070192) can0 03FF1604#0000000000000000
(1788802220.078296) can0 04FF3604#0005000300C80100
(1788802220.081192) can0 02203606#0101000100010000
(1788802220.102194) can0 03FF1000#0840112200000001
(1788802220.108277) can0 04FF3604#0005000300C80100
(1788802220.112195) can0 03FF1001#0000000000000000
(1788802220.113194) can0 02181608#0500000001000000
(1788802220.122358) can0 03FF1603#0000D03600000000
(1788802220.133196) can0 03FF1605#0100000000000000
(1788802220.138300) can0 04FF3604#0005000300C80100
(1788802220.141392) can0 02181609#0000000000000000
(1788802220.143358) can0 03121606#0000000000000000
(1788802220.168297) can0 04FF3604#0006000300C80100
(1788802220.171324) can0 02488600#0000000000000000
(1788802220.174197) can0 05FF4610#0000D09DFFFFFF9E
(1788802220.198291) can0 04FF3604#0003000300C80100
(1788802220.201198) can0 02191501#
(1788802220.206395) can0 03FF1000#0840112200000001
(1788802220.217200) can0 03FF1001#0000000000000000
(1788802220.227362) can0 03FF1603#0000D03600000000
(1788802220.228288) can0 04FF3604#0006000300C80100
(1788802220.238201) can0 03FF1605#0100000000000000
(1788802220.248363) can0 03FF1501#0000004A00000000
(1788802220.258283) can0 04FF3604#0007000300C80100
(1788802220.259201) can0 05FF4001#0000000000000000
(1788802220.261201) can0 05FF4000#0000000000000000
(1788802220.288296) can0 04FF3604#0004000300C80100
(1788802220.311378) can0 03FF1000#0840112200000001
(1788802220.318286) can0 04FF3604#0005000300C80100
(1788802220.322205) can0 03FF1001#0000000000000000
(1788802220.332378) can0 03FF1603#0000D03600000000
(1788802220.341206) can0 05FF4602#06100C100D100C10
(1788802220.343206) can0 03FF1605#0100000000000000
(1788802220.348275) can0 04FF3604#0006000300C80100
(1788802220.351206) can0 05FF4603#0C100A100D100E10
(1788802220.361207) can0 05FF4604#0B100C100F101010
(1788802220.371208) can0 05FF4605#0B10000000000000
(1788802220.378278) can0 04FF3604#0004000300C80100
(1788802220.388290) can0 04FF3602#0000000000000000
(1788802220.401209) can0 05FF4606#1E1E1E
(1788802220.408279) can0 04FF3604#0007000400C80100
(1788802220.411209) can0 05FF4607#1E1D1E
(1788802220.416383) can0 03FF1000#0840112200000001
(1788802220.421210) can0 05FF4608#0019007C
(1788802220.427211) can0 03FF1001#0000000000000000
(1788802220.431211) can0 05FF4609#030003CA03CA00
(1788802220.435211) can0 05FF4610#0000D09DFFFFFF9E
(1788802220.437361) can0 03FF1603#0000D03600000000
(1788802220.438275) can0 04FF3604#0007000300C80100
(1788802220.448212) can0 03FF1605#0100000000000000
(1788802220.468293) can0 04FF3604#0005000300C80100
(1788802220.498284) can0 04FF3604#0004000300C80100
(1788802220.521378) can0 03FF1000#0840112200000001
(1788802220.528297) can0 04FF3604#0007000300C80100
(1788802220.532216) can0 03FF1001#0000000000000000
(1788802220.542355) can0 03FF1603#0000D03600000000
(1788802220.551217) can0 02FF2605#0000060907070008
(1788802220.553216) can0 03FF1605#0100000000000000
(1788802220.558275) can0 04FF3604#0007000300C80100
(1788802220.581219) can0 02FF2604#0000000000000000
(1788802220.588272) can0 04FF3604#0004000300C80100
(1788802220.611220) can0 02FF2704#0200000000000000
(1788802220.618280) can0 04FF3604#0005000300C80100
(1788802220.626452) can0 03FF1000#0840112200000001
(1788802220.637221) can0 03FF1001#0000000000000000
(1788802220.641221) can0 0260B606#0100000000000000
(1788802220.647372) can0 03FF1603#0000D03600000000
(1788802220.648302) can0 04FF3604#0006000300C80100
(1788802220.658223) can0 03FF1605#0100000000000000
(1788802220.671222) can0 02203607#0000000300000000
(1788802220.678281) can0 04FF3604#0003000300C80100
(1788802220.698224) can0 05FF4610#0000D09DFFFFFF9E
(1788802220.708277) can0 04FF3604#0004000300C80100
(1788802220.731399) can0 03FF1000#0840112200000001
(1788802220.738284) can0 04FF3604#0005000300C80100
(1788802220.742226) can0 03FF1001#0000000000000000
(1788802220.752388) can0 03FF1603#0000D03600000000
(1788802220.763228) can0 03FF1605#0100000000000000
(1788802220.768285) can0 04FF3604#0003000300C80100
(1788802220.798264) can0 04FF3604#0003000300C80100
(1788802220.813230) can0 02181606#0100120001030200
(1788802220.828301) can0 04FF3604#0005000300C80100
(1788802220.836388) can0 03FF1000#0840112200000001
(1788802220.843232) can0 02203606#0101000100010000
(1788802220.847231) can0 03FF1001#0000000000000000
(1788802220.857370) can0 03FF1603#0000D03600000000
(1788802220.858290) can0 04FF3604#0006000300C80100
(1788802220.868233) can0 03FF1605#0100000000000000
(1788802220.871233) can0 02181608#0500000001000000
(1788802220.878361) can0 03121606#0000000000000000
(1788802220.888305) can0 04FF3602#0000000000000000
(1788802220.889233) can0 04FF3604#0004000300C80100
(1788802220.902235) can0 02181609#0000000000000000
(1788802220.918294) can0 04FF3604#0004000400C80100
(1788802220.931236) can0 02488600#0000000000000000
(1788802220.941394) can0 03FF1000#0840112200000001
(1788802220.948283) can0 04FF3604#0004000300C80100
(1788802220.952237) can0 03FF1001#0000000000000000
(1788802220.961387) can0 02213500#
(1788802220.962376) can0 03FF1603#0000D03600000000
(1788802220.968272) can0 04F93500#000000EB00000000
(1788802220.973238) can0 03FF1605#0100000000000000
(1788802220.977238) can0 05FF4610#0000D09DFFFFFF9E
(1788802220.978291) can0 04FF3604#0004000300C80100
(1788802221.008286) can0 04FF3604#0005000300C80100
(1788802221.025392) can0 03FF1600#142B000104001312
(1788802221.036241) can0 03FF1601#6E50000000000000
(1788802221.038271) can0 04FF3604#0006000300C80100
(1788802221.046392) can0 03FF1602#000005000000157C
(1788802221.057243) can0 03FF1604#0000000000000000
(1788802221.067371) can0 03FF1000#0840112200000001
(1788802221.068277) can0 04FF3604#0004000300C80100
(1788802221.078244) can0 03FF1001#0000000000000000
(1788802221.088395) can0 03FF1603#0000D03600000000
(1788802221.098280) can0 04FF3604#0004000300C80100
(1788802221.099244) can0 03FF1605#0100000000000000
(1788802221.128281) can0 04FF3604#0003000400C80100
(1788802221.151424) can0 03FF1000#0840112200000001
(1788802221.158271) can0 04FF3604#0003000300C80100
(1788802221.162248) can0 03FF1001#0000000000000000
(1788802221.172375) can0 03FF1603#0000D03600000000
(1788802221.183249) can0 03FF1605#0100000000000000
(1788802221.188284) can0 04FF3604#0006000300C80100
(1788802221.218274) can0 04FF3604#0006000300C80100
(1788802221.248276) can0 04FF3604#0002000300C80100
(1788802221.256426) can0 03FF1000#0840112200000001
(1788802221.265254) can0 05FF4610#0000D09EFFFFFFA3
(1788802221.267253) can0 03FF1001#0000000000000000
(1788802221.277393) can0 03FF1603#0000D03600000000
(1788802221.278276) can0 04FF3604#0004000300C80100
(1788802221.288254) can0 03FF1605#0100000000000000
(1788802221.307255) can0 05FF4001#0000000000000000
(1788802221.308290) can0 04FF3604#0004000400C80100
(1788802221.309255) can0 05FF4000#0000000000000000
(1788802221.338269) can0 04FF3604#0004000300C80100
(1788802221.361408) can0 03FF1000#0840112200000001
(1788802221.368282) can0 04FF3604#0005000300C80100
(1788802221.372258) can0 03FF1001#0000000000000000
(1788802221.382399) can0 03FF1603#0000D03600000000
(1788802221.388279) can0 04FF3602#0000000000000000
(1788802221.389259) can0 05FF4602#07100C100D100C10
(1788802221.393260) can0 03FF1605#0100000000000000
(1788802221.398399) can0 04FF3604#0004000300C80100
(1788802221.399260) can0 05FF4603#0C100A100D100E10
(1788802221.409261) can0 05FF4604#0B100C100F101010
(1788802221.419262) can0 05FF4605#0B10000000000000
(1788802221.428274) can0 04FF3604#0005000300C80100
(1788802221.449263) can0 05FF4606#1E1E1E
(1788802221.458275) can0 04FF3604#0005000300C80100
(1788802221.459263) can0 05FF4607#1E1D1E
(1788802221.466402) can0 03FF1000#0840112200000001
(1788802221.469263) can0 05FF4608#0019007C
(1788802221.477264) can0 03FF1001#0000000000000000
(1788802221.479264) can0 05FF4609#030003CA03CA00
(1788802221.487393) can0 03FF1603#0000D03600000000
(1788802221.488264) can0 04FF3604#0005000300C80100
(1788802221.498265) can0 03FF1605#0100000000000000
(1788802221.518266) can0 04FF3604#0004000300C80100
(1788802221.526267) can0 05FF4610#0000D09EFFFFFFA3
(1788802221.548268) can0 04FF3604#0003000300C80100
(1788802221.571443) can0 03FF1000#0840112200000001
(1788802221.574269) can0 02FF2605#0000060907070009
(1788802221.578269) can0 04FF3604#0004000300C80100
(1788802221.582269) can0 03FF1001#0000000000000000
(1788802221.592374) can0 03FF1603#0000D03600000000
(1788802221.602271) can0 02FF2604#0000000000000000
(1788802221.603270) can0 03FF1605#0100000000000000
(1788802221.608277) can0 04FF3604#0006000300C80100
(1788802221.632273) can0 02FF2704#0200000000000000
(1788802221.638275) can0 04FF3604#0004000300C80100
(1788802221.662277) can0 0260B606#0100000000000000
(1788802221.668274) can0 04FF3604#0004000300C80100
(1788802221.676436) can0 03FF1000#0840112200000001
(1788802221.687275) can0 03FF1001#0000000000000000
(1788802221.692275) can0 02203607#0000000300000000
(1788802221.697363) can0 03FF1603#0000D03600000000
(1788802221.698275) can0 04FF3604#0004000300C80100
(1788802221.708277) can0 03FF1605#0100000000000000
(1788802221.722277) can0 02181606#0100120001030200
(1788802221.728276) can0 04FF3604#0003000300C80100
(1788802221.752278) can0 02203606#0101000100010000
(1788802221.758279) can0 04FF3604#0004000300C80100
(1788802221.781420) can0 03FF1000#0840112200000001
(1788802221.782280) can0 02181608#0500000001000000
(1788802221.788280) can0 04FF3604#0005000300C80100
(1788802221.789280) can0 05FF4610#0000D09EFFFFFFA3
(1788802221.792280) can0 03FF1001#0000000000000000
(1788802221.802404) can0 03FF1603#0000D03600000000
(1788802221.812282) can0 02181609#0000000000000000
(1788802221.813281) can0 03FF1605#0100000000000000
(1788802221.818282) can0 04FF3604#0004000300C80100
(1788802221.823416) can0 03121606#0000000000000000
(1788802221.842283) can0 02488600#0000000000000000
(1788802221.848283) can0 04FF3604#0004000300C80100
(1788802221.872286) can0 02213501#
(1788802221.878285) can0 04F93501#0000000400000000
(1788802221.879285) can0 04FF3604#0003000300C80100
(1788802221.886424) can0 03FF1000#0840112200000001
(1788802221.888285) can0 04FF3602#0000000000000000
(1788802221.897286) can0 03FF1001#0000000000000000
(1788802221.907402) can0 03FF1603#0000D03600000000
(1788802221.908286) can0 04FF3604#0004000300C80100
(1788802221.918287) can0 03FF1605#0100000000000000
(1788802221.938287) can0 04FF3604#0004000300C80100
(1788802221.968290) can0 04FF3604#0002000300C80100
(1788802221.991407) can0 03FF1000#0840112200000001
(1788802221.998291) can0 04FF3604#0004000300C80100
(1788802222.002291) can0 03FF1001#0000000000000000
(1788802222.012395) can0 03FF1603#0000D03600000000
(1788802222.023293) can0 03FF1605#0100000000000000
(1788802222.028292) can0 04FF3604#0004000300C80100
(1788802222.033415) can0 03FF1600#142B000104001312
(1788802222.044294) can0 03FF1601#6E50000000000000
(1788802222.054399) can0 03FF1602#000005000000157C
(1788802222.058294) can0 04FF3604#0004000300C80100
(1788802222.065294) can0 03FF1604#0000000000000000
(1788802222.087295) can0 05FF4610#0000D09DFFFFFFA3
(1788802222.088295) can0 04FF3604#0004000300C80100
(1788802222.096424) can0 03FF1000#0840112200000001
(1788802222.107297) can0 03FF1001#0000000000000000
(1788802222.117378) can0 03FF1603#0000D03600000000
(1788802222.118297) can0 04FF3604#0004000300C80100
(1788802222.128298) can0 03FF1605#0100000000000000
(1788802222.148299) can0 04FF3604#0005000300C80100
(1788802222.178303) can0 04FF3604#0004000300C80100
(1788802222.201441) can0 03FF1000#0840112200000001
(1788802222.208302) can0 04FF3604#0005000300C80100
(1788802222.212301) can0 03FF1001#0000000000000000
(1788802222.222396) can0 03FF1603#0000D03600000000
(1788802222.233303) can0 03FF1605#0100000000000000
(1788802222.238303) can0 04FF3604#0004000300C80100
(1788802222.268305) can0 04FF3604#0003000300C80100
(1788802222.298307) can0 04FF3604#0004000300C80100
(1788802222.306434) can0 03FF1000#0840112200000001
(1788802222.317307) can0 03FF1001#0000000000000000
(1788802222.327396) can0 03FF1603#0000D03600000000
(1788802222.328307) can0 04FF3604#0003000400C80100
(1788802222.338308) can0 03FF1605#0100000000000000
(1788802222.343308) can0 02181606#0100120001030200
(1788802222.349308) can0 05FF4001#0000000000000000
(1788802222.350309) can0 05FF4610#0000D09DFFFFFFA3
(1788802222.351309) can0 05FF4000#0000000000000000
(1788802222.358309) can0 04FF3604#0003000300C80100
(1788802222.373311) can0 02203606#0101000100010000
(1788802222.388311) can0 04FF3602#0000000000000000
(1788802222.389311) can0 04FF3604#0002000300C80100
(1788802222.403312) can0 02181608#0500000001000000
(1788802222.411423) can0 03FF1000#0840112200000001
(1788802222.418313) can0 04FF3604#0005000300C80100
(1788802222.422312) can0 03FF1001#0000000000000000
(1788802222.431314) can0 05FF4602#07100C100D100C10
(1788802222.432459) can0 03FF1603#0000D03600000000
(1788802222.433313) can0 02181609#0000000000000000
(1788802222.441314) can0 05FF4603#0C100A100D100E10
(1788802222.443313) can0 03FF1605#0100000000000000
(1788802222.448314) can0 04FF3604#0005000300C80100
(1788802222.451314) can0 05FF4604#0B100C100F101010
(1788802222.453395) can0 03121606#0000000000000000
(1788802222.461315) can0 05FF4605#0A10000000000000
(1788802222.463314) can0 02488600#0000000000000000
(1788802222.478316) can0 04FF3604#0005000300C80100
(1788802222.491317) can0 05FF4606#1E1E1E
(1788802222.493316) can0 02294502#
(1788802222.494323) can0 05124502#5250313353333541
(1788802222.501316) can0 05FF4607#1E1D1E
(1788802222.508317) can0 04FF3604#0004000300C80100
(1788802222.511317) can0 05FF4608#0019007C
(1788802222.516421) can0 03FF1000#0840112200000001
(1788802222.521318) can0 05FF4609#030003CA03CA00
(1788802222.527319) can0 03FF1001#0000000000000000
(1788802222.537411) can0 03FF1603#0000D03600000000
(1788802222.538318) can0 04FF3604#0004000300C80100
(1788802222.548320) can0 03FF1605#0100000000000000
(1788802222.568320) can0 04FF3604#0003000300C80100
(1788802222.573528) can0 02FF2605#0000060907070000
(1788802222.598322) can0 04FF3604#0006000300C80100
(1788802222.603321) can0 02FF2604#0000000000000000
(1788802222.611323) can0 05FF4610#0000D09DFFFFFFA3
(1788802222.621473) can0 03FF1000#0840112200000001
(1788802222.628324) can0 04FF3604#0002000300C80100
(1788802222.632323) can0 03FF1001#0000000000000000
(1788802222.633323) can0 02FF2704#0200000000000000
(1788802222.642405) can0 03FF1603#0000D03600000000
(1788802222.653324) can0 03FF1605#0100000000000000
(1788802222.658326) can0 04FF3604#0003000300C80100
(1788802222.663395) can0 0260B606#0100000000000000
(1788802222.688328) can0 04FF3604#0002000300C80100
(1788802222.693327) can0 02203607#0000000300000000
(1788802222.718328) can0 04FF3604#0003000300C80100
(1788802222.726468) can0 03FF1000#0840112200000001
(1788802222.737329) can0 03FF1001#0000000000000000
(1788802222.747388) can0 03FF1603#0000D03600000000
(1788802222.748329) can0 04FF3604#0006000300C80100
(1788802222.758330) can0 03FF1605#0100000000000000
(1788802222.778331) can0 04FF3604#0005000300C80100
(1788802222.808333) can0 04FF3604#0003000300C80100
(1788802222.831461) can0 03FF1000#0840112200000001
(1788802222.838335) can0 04FF3604#0003000300C80100
(1788802222.842334) can0 03FF1001#0000000000000000
(1788802222.852411) can0 03FF1603#0000D03600000000
(1788802222.863337) can0 03FF1605#0100000000000000
(1788802222.868335) can0 04FF3604#0005000300C80100
(1788802222.885337) can0 05FF4610#0000D09DFFFFFFA3
(1788802222.888338) can0 04FF3602#0000000000000000
(1788802222.898337) can0 04FF3604#0004000400C80100
(1788802222.928340) can0 04FF3604#0003000300C80100
(1788802222.936444) can0 03FF1000#0840112200000001
(1788802222.947340) can0 03FF1001#0000000000000000
(1788802222.957421) can0 03FF1603#0000D03600000000
(1788802222.958340) can0 04FF3604#0005000300C80100
(1788802222.968340) can0 03FF1605#0100000000000000
(1788802222.988342) can0 04FF3604#0005000300C80100
(1788802223.018343) can0 04FF3604#0003000300C80100
(1788802223.041460) can0 03FF1000#0840112200000001
(1788802223.048345) can0 04FF3604#0004000300C80100
(1788802223.052345) can0 03FF1001#0000000000000000
(1788802223.062428) can0 03FF1600#142B000104001312
(1788802223.073347) can0 03FF1601#6E50000000000000
(1788802223.078347) can0 04FF3604#0006000300C80100
(1788802223.083411) can0 03FF1602#000005000000157C
(1788802223.094347) can0 03FF1603#0000D03600000000
(1788802223.103371) can0 02181606#0100120001030200
(1788802223.104440) can0 03FF1604#0000000000000000
(1788802223.108347) can0 04FF3604#0004000300C80100
(1788802223.115348) can0 03FF1605#0100000000000000
(1788802223.133350) can0 02203606#0101000100010000
(1788802223.138350) can0 04FF3604#0002000300C80100
(1788802223.146478) can0 03FF1000#0840112200000001
(1788802223.157350) can0 03FF1001#0000000000000000
(1788802223.163400) can0 02181608#0500000001000000
(1788802223.167421) can0 03FF1400#0000000700000000
(1788802223.168351) can0 04FF3604#0004000300C80100
(1788802223.176387) can0 05FF4610#0000D09DFFFFFFA3
(1788802223.178351) can0 03FF1603#0000D03600000000
(1788802223.188428) can0 03FF1605#0100000000000000
(1788802223.193433) can0 02181609#0000000000000000
(1788802223.198354) can0 04FF3604#0005000300C80100
(1788802223.199352) can0 03121606#0000000000000000
(1788802223.223448) can0 02488600#0000000000000000
(1788802223.228354) can0 04FF3604#0006000300C80100
(1788802223.251472) can0 03FF1000#0840112200000001
(1788802223.255506) can0 02294503#
(1788802223.256373) can0 05124503#00150C0900000C62
(1788802223.258355) can0 04FF3604#0004000300C80100
(1788802223.262356) can0 03FF1001#0000000000000000
(1788802223.272426) can0 03FF1603#0000D03600000000
(1788802223.283358) can0 03FF1605#0100000000000000
(1788802223.288357) can0 04FF3604#0003000300C80100
(1788802223.318358) can0 04FF3604#0006000300C80100
(1788802223.348360) can0 04FF3604#0004000300C80100
(1788802223.356465) can0 03FF1000#0840112200000001
(1788802223.367361) can0 03FF1001#0000000000000000
(1788802223.377431) can0 03FF1603#0000D03600000000
(1788802223.378361) can0 04FF3604#0005000300C80100
(1788802223.388364) can0 03FF1605#0100000000000000
(1788802223.388545) can0 04FF3602#0000000000000000
(1788802223.394571) can0 05FF4001#0000000000000000
(1788802223.396397) can0 05FF4000#0000000000000000
(1788802223.408363) can0 04FF3604#0004000300C80100
(1788802223.438366) can0 04FF3604#0002000300C80100
(1788802223.439365) can0 05FF4610#0000D09DFFFFFFA3
(1788802223.461482) can0 03FF1000#0840112200000001
(1788802223.468366) can0 04FF3604#0003000300C80100
(1788802223.472366) can0 03FF1001#0000000000000000
(1788802223.476401) can0 05FF4602#06100C100D100C10
(1788802223.482437) can0 03FF1603#0000D03600000000
(1788802223.486397) can0 05FF4603#0C100A100D100E10
(1788802223.493368) can0 03FF1605#0100000000000000
(1788802223.496402) can0 05FF4604#0B100C1010101010
(1788802223.498368) can0 04FF3604#0005000300C80100
(1788802223.506399) can0 05FF4605#0A10000000000000
(1788802223.528370) can0 04FF3604#0006000300C80100
(1788802223.536370) can0 05FF4606#1E1E1E
(1788802223.546370) can0 05FF4607#1E1D1E
(1788802223.556371) can0 05FF4608#0019007C
(1788802223.558371) can0 04FF3604#0003000300C80100
(1788802223.566395) can0 05FF4609#030003CA03CA00
(1788802223.567371) can0 03FF1000#0840112200000001
(1788802223.577372) can0 03FF1001#0000000000000000
(1788802223.584372) can0 02FF2605#0000060907070001
(1788802223.587430) can0 03FF1603#0000D03600000000
(1788802223.588372) can0 04FF3604#0004000300C80100
(1788802223.598374) can0 03FF1605#0100000000000000
(1788802223.614375) can0 02FF2604#0000000000000000
(1788802223.618374) can0 04FF3604#0005000300C80100
(1788802223.644375) can0 02FF2704#0200000000000000
(1788802223.648376) can0 04FF3604#0004000300C80100
(1788802223.671458) can0 03FF1000#0840112200000001
(1788802223.674379) can0 0260B606#0100000000000000
(1788802223.678377) can0 04FF3604#0004000300C80100
(1788802223.682377) can0 03FF1001#0000000000000000
(1788802223.692436) can0 03FF1603#0000D03600000000
(1788802223.699461) can0 05FF4610#0000D09DFFFFFFA3
(1788802223.703379) can0 03FF1605#0100000000000000
(1788802223.704378) can0 02203607#0000000300000000
(1788802223.708379) can0 04FF3604#0006000300C80100
(1788802223.738381) can0 04FF3604#0006000300C80100
(1788802223.768382) can0 04FF3604#0006000300C80100
(1788802223.776475) can0 03FF1000#0840112200000001
(1788802223.787383) can0 03FF1001#0000000000000000
(1788802223.797441) can0 03FF1603#0000D03600000000
(1788802223.798383) can0 04FF3604#0004000300C80100
(1788802223.808384) can0 03FF1605#0100000000000000
(1788802223.828386) can0 04FF3604#0006000300C80100
(1788802223.858387) can0 04FF3604#0003000300C80100
(1788802223.864386) can0 02181606#0100120001030200
(1788802223.881464) can0 03FF1000#0840112200000001
(1788802223.888389) can0 04FF3602#0000000000000000
(1788802223.889388) can0 04FF3604#0006000300C80100
(1788802223.892388) can0 03FF1001#0000000000000000
(1788802223.894388) can0 02203606#0101000100010000
(1788802223.902447) can0 03FF1603#0000D03600000000
(1788802223.913389) can0 03FF1605#0100000000000000
(1788802223.918390) can0 04FF3604#0004000400C80100
(1788802223.923431) can0 03121606#0000000000000000
(1788802223.924390) can0 02181608#0500000001000000
(1788802223.948392) can0 04FF3604#0005000300C80100
(1788802223.954391) can0 02181609#0000000000000000
(1788802223.973528) can0 05FF4610#0000D09DFFFFFFA3
(1788802223.978393) can0 04FF3604#0003000300C80100
(1788802223.984393) can0 02488600#0000000000000000
(1788802223.986485) can0 03FF1000#0840112200000001
(1788802223.997394) can0 03FF1001#0000000000000000
(1788802224.007441) can0 03FF1603#0000D03600000000
(1788802224.008394) can0 04FF3604#0005000300C80100
(1788802224.014394) can0 02294504#
(1788802224.014444) can0 05124504#1D
(1788802224.018395) can0 03FF1605#0100000000000000
(1788802224.038396) can0 04FF3604#0005000300C80100
(1788802224.049454) can0 03FF1600#142B000104001312
(1788802224.060398) can0 03FF1601#6E50000000000000
(1788802224.068397) can0 04FF3604#0005000400C80100
(1788802224.070444) can0 03FF1602#000005000000157C
(1788802224.081399) can0 03FF1604#0000000000000000
(1788802224.091457) can0 03FF1000#0840112200000001
(1788802224.098399) can0 04FF3604#0004000300C80100
(1788802224.102399) can0 03FF1001#0000000000000000
(1788802224.112470) can0 03FF1603#0000D03600000000
(1788802224.123400) can0 03FF1605#0100000000000000
(1788802224.128400) can0 04FF3604#0005000300C80100
(1788802224.158402) can0 04FF3604#0005000300C80100
(1788802224.188405) can0 04FF3604#0002000300C80100
(1788802224.196494) can0 03FF1000#0840112200000001
(1788802224.207405) can0 03FF1001#0000000000000000
(1788802224.217440) can0 03FF1603#0000D03600000000
(1788802224.218405) can0 04FF3604#0005000300C80100
(1788802224.228407) can0 03FF1605#0100000000000000
(1788802224.248406) can0 04FF3604#0004000300C80100
(1788802224.262582) can0 05FF4610#0000D09DFFFFFFA3
(1788802224.278408) can0 04FF3604#0002000300C80100
(1788802224.301497) can0 03FF1000#0840112200000001
(1788802224.308410) can0 04FF3604#0004000300C80100
(1788802224.312410) can0 03FF1001#0000000000000000
(1788802224.322456) can0 03FF1603#0000D03600000000
(1788802224.333411) can0 03FF1605#0100000000000000
(1788802224.338411) can0 04FF3604#0006000300C80100
(1788802224.368413) can0 04FF3604#0004000300C80100
(1788802224.388413) can0 04FF3602#0000000000000000
(1788802224.398415) can0 04FF3604#0004000300C80100
(1788802224.406484) can0 03FF1000#0840112200000001
(1788802224.417415) can0 03FF1001#0000000000000000
(1788802224.427451) can0 03FF1603#0000D03600000000
(1788802224.428415) can0 04FF3604#0003000300C80100
(1788802224.436637) can0 05FF4001#0000000000000000
(1788802224.438416) can0 03FF1605#0100000000000000
(1788802224.439416) can0 05FF4000#0000000000000000
(1788802224.458417) can0 04FF3604#0006000300C80100
(1788802224.488420) can0 04FF3604#0005000300C80100
(1788802224.511479) can0 03FF1000#0840112200000001
(1788802224.518421) can0 04FF3604#0005000300C80100
(1788802224.519640) can0 05FF4602#07100C100D100C10
(1788802224.522420) can0 03FF1001#0000000000000000
(1788802224.525652) can0 05FF4610#0000D09DFFFFFFA3
(1788802224.530641) can0 05FF4603#0C100A100D100E10
(1788802224.532451) can0 03FF1603#0000D03600000000
(1788802224.540654) can0 05FF4604#0B100C100F101010
(1788802224.543421) can0 03FF1605#0100000000000000
(1788802224.548421) can0 04FF3604#0005000300C80100
(1788802224.550660) can0 05FF4605#0A10000000000000
(1788802224.578424) can0 04FF3604#0006000300C80100
(1788802224.580470) can0 05FF4606#1E1E1E
(1788802224.590471) can0 05FF4607#1E1D1E
(1788802224.595424) can0 02FF2605#0000060907070002
(1788802224.600517) can0 05FF4608#0019007C
(1788802224.608425) can0 04FF3604#0005000300C80100
(1788802224.610633) can0 05FF4609#030003CA03CA00
(1788802224.616478) can0 03FF1000#0840112200000001
(1788802224.625426) can0 02FF2604#0000000000000000
(1788802224.627427) can0 03FF1001#0000000000000000
(1788802224.637451) can0 03FF1603#0000D03600000000
(1788802224.638427) can0 04FF3604#0003000300C80100
(1788802224.648427) can0 03FF1605#0100000000000000
(1788802224.655427) can0 02FF2704#0200000000000000
(1788802224.668429) can0 04FF3604#0006000300C80100
(1788802224.685430) can0 0260B606#0100000000000000
(1788802224.698430) can0 04FF3604#0004000300C80100
(1788802224.715434) can0 02203607#0000000300000000
(1788802224.721477) can0 03FF1000#0840112200000001
(1788802224.728431) can0 04FF3604#0005000300C80100
(1788802224.732431) can0 03FF1001#0000000000000000
(1788802224.742432) can0 03FF1603#0000D03600000000
(1788802224.745432) can0 02181606#0100120001030200
(1788802224.753432) can0 03FF1605#0100000000000000
(1788802224.758433) can0 04FF3604#0004000300C80100
(1788802224.775561) can0 02203606#0101000100010000
(1788802224.787435) can0 05FF4610#0000D09DFFFFFFA3
(1788802224.788434) can0 04FF3604#0004000300C80100
(1788802224.805435) can0 02181608#0500000001000000
(1788802224.806654) can0 05FF4600#0D0300900303
(1788802224.818436) can0 04FF3604#0004000300C80100
(1788802224.826489) can0 03FF1000#0840112200000001
(1788802224.835437) can0 02181609#0000000000000000
(1788802224.837437) can0 03FF1001#0000000000000000
(1788802224.847461) can0 03FF1603#0000D03600000000
(1788802224.848437) can0 04FF3604#0005000300C80100
(1788802224.858438) can0 03FF1605#0100000000000000
(1788802224.865438) can0 02488600#0000000000000000
(1788802224.868473) can0 03121606#0000000000000000
(1788802224.878439) can0 04FF3604#0004000300C80100
(1788802224.888446) can0 04FF3602#0000000000000000
(1788802224.895442) can0 02191502#
(1788802224.908441) can0 04FF3604#0004000300C80100
(1788802224.910470) can0 03FF1502#0100000000000000
(1788802224.931501) can0 03FF1000#0840112200000001
(1788802224.938443) can0 04FF3604#0007000300C80100
(1788802224.942443) can0 03FF1001#0000000000000000
(1788802224.952461) can0 03FF1603#0000D03600000000
(1788802224.963444) can0 03FF1605#0100000000000000
(1788802224.968444) can0 04FF3604#0005000300C80100
(1788802224.998446) can0 04FF3604#0003000300C80100
(1788802225.028446) can0 04FF3604#0002000300C80100
(1788802225.036471) can0 03FF1000#0840112200000001
(1788802225.047448) can0 03FF1001#0000000000000000
(1788802225.057473) can0 03FF1603#0000D03600000000
(1788802225.058448) can0 04FF3604#0003000300C80100
(1788802225.068449) can0 03FF1605#0100000000000000
(1788802225.078449) can0 03FF1600#142B000104001312
(1788802225.086450) can0 05FF4610#0000D09AFFFFFFA3
(1788802225.088450) can0 04FF3604#0005000300C80100
(1788802225.089450) can0 03FF1601#6E50000000000000
(1788802225.099464) can0 03FF1602#000005000000157C
(1788802225.110451) can0 03FF1604#0000000000000000
(1788802225.118452) can0 04FF3604#0004000300C80100
(1788802225.141488) can0 03FF1000#0840112200000001
(1788802225.148453) can0 04FF3604#0005000300C80100
(1788802225.152453) can0 03FF1001#0000000000000000
(1788802225.162461) can0 03FF1603#0000D03600000000
(1788802225.173455) can0 03FF1605#0100000000000000
(1788802225.178454) can0 04FF3604#0004000300C80100
(1788802225.208456) can0 04FF3604#0006000300C80100
(1788802225.238460) can0 04FF3604#0004000300C80100
(1788802225.246493) can0 03FF1000#0840112200000001
(1788802225.257459) can0 03FF1001#0000000000000000
(1788802225.267494) can0 03FF1603#0000D03600000000
(1788802225.268459) can0 04FF3604#0004000300C80100
(1788802225.278461) can0 03FF1605#0100000000000000
(1788802225.298461) can0 04FF3604#0004000300C80100
(1788802225.328462) can0 04FF3604#0005000300C80100
(1788802225.349464) can0 05FF4610#0000D09AFFFFFFA3
(1788802225.351509) can0 03FF1000#0840112200000001
(1788802225.358463) can0 04FF3604#0003000400C80100
(1788802225.362464) can0 03FF1001#0000000000000000
(1788802225.372465) can0 03FF1603#0000D03600000000
(1788802225.383466) can0 03FF1605#0100000000000000
(1788802225.386465) can0 02181606#0100120001030200
(1788802225.388465) can0 04FF3602#0000000000000000
(1788802225.389466) can0 04FF3604#0008000300C80100
(1788802225.415572) can0 02203606#0101000100010000
(1788802225.418467) can0 04FF3604#0005000300C80100
(1788802225.446469) can0 02181608#0500000001000000
(1788802225.448468) can0 04FF3604#0003000300C80100
(1788802225.456503) can0 03FF1000#0840112200000001
(1788802225.467469) can0 03FF1001#0000000000000000
(1788802225.475666) can0 02181609#0000000000000000
(1788802225.477476) can0 03FF1603#0000D03600000000
(1788802225.478469) can0 04FF3604#0007000300C80100
(1788802225.482470) can0 05FF4001#0000000000000000
(1788802225.485470) can0 05FF4000#0000000000000000
(1788802225.488470) can0 03FF1605#0100000000000000
(1788802225.498471) can0 03121606#0000000000000000
(1788802225.506564) can0 02488600#0000000000000000
(1788802225.508471) can0 04FF3604#0007000300C80100
(1788802225.535473) can0 02191503#
(1788802225.538473) can0 04FF3604#0006000300C80100
(1788802225.551474) can0 03FF1503#0100000000000000
(1788802225.561480) can0 03FF1000#0840112200000001
(1788802225.565509) can0 05FF4602#06100C100C100C10
(1788802225.568474) can0 04FF3604#0004000300C80100
(1788802225.572474) can0 03FF1001#0000000000000000
(1788802225.575474) can0 05FF4603#0C100A100D100E10
(1788802225.582487) can0 03FF1603#0000D03600000000
(1788802225.585475) can0 05FF4604#0A100C100F101010
(1788802225.593476) can0 03FF1605#0100000000000000
(1788802225.595475) can0 05FF4605#0A10000000000000
(1788802225.598475) can0 04FF3604#0003000300C80100
(1788802225.606477) can0 02FF2605#0000060907070003
(1788802225.613476) can0 05FF4610#0000D09AFFFFFFA3
(1788802225.625478) can0 05FF4606#1E1E1E
(1788802225.628477) can0 04FF3604#0008000300C80100
(1788802225.635478) can0 05FF4607#1E1D1E
(1788802225.636477) can0 02FF2604#0000000000000000
(1788802225.645479) can0 05FF4608#0019007C
(1788802225.655478) can0 05FF4609#030003CA03CA00
(1788802225.658479) can0 04FF3604#0006000400C80100
(1788802225.666480) can0 02FF2704#0200000000000000
(1788802225.667479) can0 03FF1000#0840112200000001
(1788802225.677480) can0 03FF1001#0000000000000000
(1788802225.687481) can0 03FF1603#0000D03600000000
(1788802225.688480) can0 04FF3604#0005000300C80100
(1788802225.697482) can0 0260B606#0100000000000000
(1788802225.698481) can0 03FF1605#0100000000000000
(1788802225.718482) can0 04FF3604#0004000300C80100
(1788802225.727659) can0 02203607#0000000300000000
(1788802225.748486) can0 04FF3604#0004000300C80100
(1788802225.771510) can0 03FF1000#0840112200000001
(1788802225.778485) can0 04FF3604#0007000300C80100
(1788802225.782485) can0 03FF1001#0000000000000000
(1788802225.792505) can0 03FF1603#0000D03600000000
(1788802225.803486) can0 03FF1605#0100000000000000
(1788802225.808486) can0 04FF3604#0004000300C80100
(1788802225.838489) can0 04FF3604#0005000300C80100
(1788802225.868490) can0 04FF3604#0001000300C80100
(1788802225.876537) can0 03FF1000#0840112200000001
(1788802225.887490) can0 03FF1001#0000000000000000
(1788802225.888490) can0 04FF3602#0000000000000000
(1788802225.889491) can0 05FF4610#0000D09AFFFFFFA3
(1788802225.897492) can0 03FF1603#0000D03600000000
(1788802225.898491) can0 04FF3604#0005000300C80100
(1788802225.908492) can0 03FF1605#0100000000000000
(1788802225.928492) can0 04FF3604#0005000300C80100
(1788802225.958495) can0 04FF3604#0004000300C80100
(1788802225.981507) can0 03FF1000#0840112200000001
(1788802225.988496) can0 04FF3604#0005000300C80100
(1788802225.992496) can0 03FF1001#0000000000000000
(1788802226.002497) can0 03FF1603#0000D03600000000
(1788802226.013498) can0 03FF1605#0100000000000000
(1788802226.018498) can0 04FF3604#0005000300C80100
(1788802226.048500) can0 04FF3604#0004000300C80100
(1788802226.065526) can0 03FF1600#142B000104001312
(1788802226.076501) can0 03FF1601#6E50000000000000
(1788802226.078500) can0 04FF3604#0004000300C80100
(1788802226.086502) can0 03FF1602#000005000000157C
(1788802226.097502) can0 03FF1604#0000000000000000
(1788802226.107502) can0 03FF1000#0840112200000001
(1788802226.108502) can0 04FF3604#0003000300C80100
(1788802226.118503) can0 03FF1001#0000000000000000
(1788802226.128504) can0 03FF1603#0000D03600000000
(1788802226.138504) can0 04FF3604#0004000300C80100
(1788802226.139503) can0 03FF1605#0100000000000000
(1788802226.147505) can0 02181606#0100120001030200
(1788802226.168506) can0 04FF3604#0004000300C80100
(1788802226.176506) can0 02203606#0101000100010000
(1788802226.178506) can0 05FF4610#0000D09CFFFFFFA3
(1788802226.191507) can0 03FF1000#0840112200000001
(1788802226.198507) can0 04FF3604#0003000300C80100
(1788802226.202507) can0 03FF1001#0000000000000000
(1788802226.206507) can0 02181608#0500000001000000
(1788802226.212507) can0 03FF1603#0000D03600000000
(1788802226.223508) can0 03FF1605#0100000000000000
(1788802226.228511) can0 04FF3604#0004000300C80100
(1788802226.233509) can0 03121606#0000000000000000
(1788802226.236509) can0 02181609#0000000000000000
(1788802226.258511) can0 04FF3604#0005000300C80100
(1788802226.266510) can0 02488600#0000000000000000
(1788802226.288513) can0 04FF3604#0005000300C80100
(1788802226.296512) can0 03FF1000#0840112200000001
(1788802226.296787) can0 02191504#
(1788802226.307512) can0 03FF1001#0000000000000000
(1788802226.317513) can0 03FF1603#0000D03600000000
(1788802226.318513) can0 04FF3604#0004000300C80100
(1788802226.326548) can0 02F82400#0600000000000000
(1788802226.328513) can0 03FF1605#0100000000000000
(1788802226.338515) can0 03FF1504#0000001D00000000
(1788802226.348515) can0 04FF3604#0002000300C80100
(1788802226.356514) can0 02FF2602#CAE3A6750742E02F
(1788802226.378517) can0 04FF3604#0003000300C80100
(1788802226.388517) can0 04FF3602#0000000000000000
(1788802226.401536) can0 03FF1000#0840112200000001
(1788802226.408517) can0 04FF3604#0004000300C80100
(1788802226.412518) can0 03FF1001#0000000000000000
(1788802226.422519) can0 03FF1603#0000D03600000000
(1788802226.433518) can0 03FF1605#0100000000000000
(1788802226.438520) can0 04FF3604#0007000300C80100
(1788802226.442519) can0 05FF4610#0000D09CFFFFFFA3
(1788802226.468520) can0 04FF3604#0004000300C80100
(1788802226.498523) can0 04FF3604#0004000300C80100
(1788802226.506534) can0 03FF1000#0840112200000001
(1788802226.517524) can0 03FF1001#0000000000000000
(1788802226.527524) can0 03FF1603#0000D03600000000
(1788802226.528523) can0 04FF3604#0006000300C80100
(1788802226.530523) can0 05FF4001#0000000000000000
(1788802226.532524) can0 05FF4000#0000000000000000
(1788802226.538524) can0 03FF1605#0100000000000000
(1788802226.558525) can0 04FF3604#0004000400C80100
(1788802226.588528) can0 04FF3604#0005000300C80100
(1788802226.611529) can0 03FF1000#0840112200000001
(1788802226.612528) can0 05FF4602#06100C100D100C10
(1788802226.617528) can0 02FF2605#0000060907070004
(1788802226.618528) can0 04FF3604#0004000300C80100
(1788802226.622528) can0 03FF1001#0000000000000000
(1788802226.623528) can0 05FF4603#0C100A100D100E10
(1788802226.632529) can0 03FF1603#0000D03600000000
(1788802226.633529) can0 05FF4604#0B100C100F101010
(1788802226.643530) can0 03FF1605#0100000000000000
(1788802226.643607) can0 05FF4605#0A10000000000000
(1788802226.647530) can0 02FF2604#0000000000000000
(1788802226.648529) can0 04FF3604#0005000300C80100
(1788802226.673532) can0 05FF4606#1E1E1E
(1788802226.677531) can0 02FF2704#0200000000000000
(1788802226.678531) can0 04FF3604#0005000400C80100
(1788802226.683531) can0 05FF4607#1E1D1E
(1788802226.693533) can0 05FF4608#0019007C
(1788802226.703533) can0 05FF4609#030003CA03CA00
(1788802226.704533) can0 05FF4610#0000D09CFFFFFFA3
(1788802226.707602) can0 0260B606#0100000000000000
(1788802226.708533) can0 04FF3604#0004000300C80100
(1788802226.716534) can0 03FF1000#0840112200000001
(1788802226.727536) can0 03FF1001#0000000000000000
(1788802226.737536) can0 02203607#0000000300000000
(1788802226.737590) can0 03FF1603#0000D03600000000
(1788802226.738535) can0 04FF3604#0006000300C80100
(1788802226.748536) can0 03FF1605#0100000000000000
(1788802226.768536) can0 04FF3604#0004000300C80100
(1788802226.798539) can0 04FF3604#0002000300C80100
(1788802226.821586) can0 03FF1000#0840112200000001
(1788802226.828539) can0 04FF3604#0006000300C80100
(1788802226.832539) can0 03FF1001#0000000000000000
(1788802226.842541) can0 03FF1603#0000D03600000000
(1788802226.853543) can0 03FF1605#0100000000000000
(1788802226.858540) can0 04FF3604#0004000300C80100
(1788802226.888542) can0 04FF3602#0000000000000000
(1788802226.888817) can0 04FF3604#0005000300C80100
(1788802226.907546) can0 02181606#0100120001030200
(1788802226.918545) can0 04FF3604#0003000300C80100
(1788802226.926545) can0 03FF1000#0840112200000001
(1788802226.937545) can0 03FF1001#0000000000000000
(1788802226.937611) can0 02203606#0101000100010000
(1788802226.947545) can0 03FF1603#0000D03600000000
(1788802226.948545) can0 04FF3604#0004000400C80100
(1788802226.958546) can0 03FF1605#0100000000000000
(1788802226.967546) can0 02181608#0500000001000000
(1788802226.968546) can0 03121606#0000000000000000
(1788802226.977548) can0 05FF4610#0000D09CFFFFFFA3
(1788802226.978547) can0 04FF3604#0003000300C80100
(1788802226.997549) can0 02181609#0000000000000000
(1788802227.008549) can0 04FF3604#0006000300C80100
(1788802227.027550) can0 02488600#0000000000000000
(1788802227.031549) can0 03FF1000#0840112200000001
(1788802227.038550) can0 04FF3604#0003000300C80100
(1788802227.042550) can0 03FF1001#0000000000000000
(1788802227.052552) can0 03FF1603#0000D03600000000
(1788802227.063552) can0 03FF1605#0100000000000000
(1788802227.068551) can0 04FF3604#0004000300C80100
(1788802227.073558) can0 03FF1600#142B000104001312
(1788802227.077552) can0 02213502#
(1788802227.083553) can0 04F93502#0000000000000000
(1788802227.084552) can0 03FF1601#6E50000000000000
(1788802227.094553) can0 03FF1602#000005000000157C
(1788802227.098552) can0 04FF3604#0005000300C80100
(1788802227.105553) can0 03FF1604#0000000000000000
(1788802227.128555) can0 04FF3604#0003000300C80100
(1788802227.136555) can0 03FF1000#0840112200000001
(1788802227.147556) can0 03FF1001#0000000000000000
(1788802227.157556) can0 03FF1603#0000D03600000000
(1788802227.158556) can0 04FF3604#0005000300C80100
(1788802227.168557) can0 03FF1605#0100000000000000
(1788802227.188558) can0 04FF3604#0006000300C80100
(1788802227.218560) can0 04FF3604#0006000300C80100
(1788802227.241560) can0 03FF1000#0840112200000001
(1788802227.248562) can0 04FF3604#0004000300C80100
(1788802227.252562) can0 03FF1001#0000000000000000
(1788802227.262563) can0 03FF1603#0000D03600000000
(1788802227.266562) can0 05FF4610#0000D09BFFFFFFA3
(1788802227.273562) can0 03FF1605#0100000000000000
(1788802227.278563) can0 04FF3604#0004000300C80100
(1788802227.308564) can0 04FF3604#0006000300C80100
(1788802227.338565) can0 04FF3604#0003000300C80100
(1788802227.346566) can0 03FF1000#0840112200000001
(1788802227.357566) can0 03FF1001#0000000000000000
(1788802227.367568) can0 03FF1603#0000D03600000000
(1788802227.368566) can0 04FF3604#0005000300C80100
(1788802227.378568) can0 03FF1605#0100000000000000
(1788802227.388568) can0 04FF3602#0000000000000000
(1788802227.398570) can0 04FF3604#0006000400C80100
(1788802227.428571) can0 04FF3604#0005000300C80100
(1788802227.451571) can0 03FF1000#0840112200000001
(1788802227.458571) can0 04FF3604#0002000300C80100
(1788802227.462571) can0 03FF1001#0000000000000000
(1788802227.472572) can0 03FF1603#0000D03600000000
(1788802227.483574) can0 03FF1605#0100000000000000
(1788802227.488573) can0 04FF3604#0006000300C80100
(1788802227.518575) can0 04FF3604#0003000300C80100
(1788802227.529576) can0 05FF4610#0000D09BFFFFFFA3
(1788802227.548577) can0 04FF3604#0004000300C80100
(1788802227.556577) can0 03FF1000#0840112200000001
(1788802227.567577) can0 03FF1001#0000000000000000
(1788802227.574578) can0 05FF4001#0000000000000000
(1788802227.576577) can0 05FF4000#0000000000000000
(1788802227.577577) can0 03FF1603#0000D03600000000
(1788802227.578577) can0 04FF3604#0006000300C80100
(1788802227.588578) can0 03FF1605#0100000000000000
(1788802227.608580) can0 04FF3604#0004000300C80100
(1788802227.627720) can0 02FF2605#0000060907070005
(1788802227.638581) can0 04FF3604#0005000300C80100
(1788802227.657582) can0 05FF4602#06100C100C100C10
(1788802227.658581) can0 02FF2604#0000000000000000
(1788802227.661581) can0 03FF1000#0840112200000001
(1788802227.667583) can0 05FF4603#0C100A100D100E10
(1788802227.668582) can0 04FF3604#0006000300C80100
(1788802227.672582) can0 03FF1001#0000000000000000
(1788802227.677584) can0 05FF4604#0B100C100F101010
(1788802227.682583) can0 03FF1603#0000D03600000000
(1788802227.688583) can0 02FF2704#0200000000000000
(1788802227.688634) can0 05FF4605#0A10000000000000
(1788802227.693583) can0 03FF1605#0100000000000000
(1788802227.698585) can0 04FF3604#0004000300C80100
(1788802227.717805) can0 0260B606#0100000000000000
(1788802227.718585) can0 05FF4606#1E1E1E
(1788802227.728585) can0 04FF3604#0005000300C80100
(1788802227.728652) can0 05FF4607#1E1D1E
(1788802227.738585) can0 05FF4608#0019007C
(1788802227.748588) can0 02203607#0000000300000000
(1788802227.748642) can0 05FF4609#030003CA03CA00
(1788802227.758590) can0 04FF3604#0005000400C80100
(1788802227.766588) can0 03FF1000#0840112200000001
(1788802227.777589) can0 03FF1001#0000000000000000
(1788802227.778588) can0 02181606#0100120001030200
(1788802227.787589) can0 03FF1603#0000D03600000000
(1788802227.788588) can0 04FF3604#0005000300C80100
(1788802227.792589) can0 05FF4610#0000D09BFFFFFFA3
(1788802227.798589) can0 03FF1605#0100000000000000
(1788802227.808590) can0 02203606#0101000100010000
(1788802227.818591) can0 04FF3604#0005000300C80100
(1788802227.838591) can0 02181608#0500000001000000
(1788802227.848592) can0 04FF3604#0005000300C80100
(1788802227.868593) can0 02181609#0000000000000000
(1788802227.871593) can0 03FF1000#0840112200000001
(1788802227.878594) can0 04FF3604#0003000300C80100
(1788802227.882593) can0 03FF1001#0000000000000000
(1788802227.888595) can0 04FF3602#0000000000000000
(1788802227.892594) can0 03FF1603#0000D03600000000
(1788802227.898595) can0 02488600#0000000000000000
(1788802227.903595) can0 03FF1605#0100000000000000
(1788802227.908595) can0 04FF3604#0004000300C80100
(1788802227.913595) can0 03121606#0000000000000000
(1788802227.927770) can0 02213503#
(1788802227.938596) can0 04F93503#0000000000000000
(1788802227.938797) can0 04FF3604#0006000400C80100
(1788802227.968599) can0 04FF3604#0004000300C80100
(1788802227.976598) can0 03FF1000#0840112200000001
(1788802227.987598) can0 03FF1001#0000000000000000
(1788802227.997600) can0 03FF1603#0000D03600000000
(1788802227.998599) can0 04FF3604#0004000300C80100
(1788802228.008600) can0 03FF1605#0100000000000000
(1788802228.028601) can0 04FF3604#0004000300C80100
(1788802228.058604) can0 04FF3604#0004000400C80100
(1788802228.066603) can0 05FF4610#0000D09BFFFFFFA3
(1788802228.081604) can0 03FF1000#0840112200000001
(1788802228.088604) can0 04FF3604#0003000300C80100
(1788802228.092604) can0 03FF1001#0000000000000000
(1788802228.102605) can0 03FF1600#142B000104001312
(1788802228.113605) can0 03FF1601#6E50000000000000
(1788802228.118606) can0 04FF3604#0005000400C80100
(1788802228.123605) can0 03FF1602#000005000000157C
(1788802228.134607) can0 03FF1603#0000D03600000000
(1788802228.144607) can0 03FF1604#0000000000000000
(1788802228.148607) can0 04FF3604#0003000300C80100
(1788802228.155607) can0 03FF1605#0100000000000000
(1788802228.178609) can0 04FF3604#0005000300C80100
(1788802228.186609) can0 03FF1000#0840112200000001
(1788802228.197610) can0 03FF1001#0000000000000000
(1788802228.207610) can0 03FF1603#0000D03600000000
(1788802228.208610) can0 04FF3604#0004000300C80100
(1788802228.218611) can0 03FF1605#0100000000000000
(1788802228.238611) can0 04FF3604#0005000300C80100
(1788802228.268614) can0 04FF3604#0004000300C80100
(1788802228.291617) can0 03FF1000#0840112200000001
(1788802228.298615) can0 04FF3604#0004000300C80100
(1788802228.302615) can0 03FF1001#0000000000000000
(1788802228.312615) can0 03FF1603#0000D03600000000
(1788802228.323616) can0 03FF1605#0100000000000000
(1788802228.328617) can0 04FF3604#0005000300C80100
(1788802228.356618) can0 05FF4610#0000D09DFFFFFFA3
(1788802228.358618) can0 04FF3604#0004000300C80100
(1788802228.388619) can0 04FF3602#0000000000000000
(1788802228.388814) can0 04FF3604#0002000300C80100
(1788802228.396620) can0 03FF1000#0840112200000001
(1788802228.407620) can0 03FF1001#0000000000000000
(1788802228.417620) can0 03FF1603#0000D03600000000
(1788802228.418621) can0 04FF3604#0006000300C80100
(1788802228.428621) can0 03FF1605#0100000000000000
(1788802228.428676) can0 02181606#0100120001030200
(1788802228.448623) can0 04FF3604#0004000300C80100
(1788802228.458623) can0 02203606#0101000100010000
(1788802228.478625) can0 04FF3604#0003000300C80100
(1788802228.488694) can0 02181608#0500000001000000
(1788802228.501626) can0 03FF1000#0840112200000001
(1788802228.508626) can0 04FF3604#0004000300C80100
(1788802228.512626) can0 03FF1001#0000000000000000
(1788802228.518661) can0 02181609#0000000000000000
(1788802228.522626) can0 03FF1603#0000D03600000000
(1788802228.533628) can0 03FF1605#0100000000000000
(1788802228.538627) can0 04FF3604#0006000300C80100
(1788802228.543627) can0 03121606#0000000000000000
(1788802228.548681) can0 02488600#0000000000000000
(1788802228.568629) can0 04FF3604#0003000300C80100
(1788802228.578653) can0 02213504#
(1788802228.588629) can0 04F93504#0000000000000000
(1788802228.598631) can0 04FF3604#0004000400C80100
(1788802228.606631) can0 03FF1000#0840112200000001
(1788802228.617631) can0 03FF1001#0000000000000000
(1788802228.619631) can0 05FF4610#0000D09DFFFFFFA3
(1788802228.621631) can0 05FF4001#0000000000000000
(1788802228.623632) can0 05FF4000#0000000000000000
(1788802228.627631) can0 03FF1603#0000D03600000000
(1788802228.628638) can0 04FF3604#0005000300C80100
(1788802228.638638) can0 03FF1605#0100000000000000
(1788802228.639635) can0 02FF2605#0000060907070006
(1788802228.658636) can0 04FF3604#0004000300C80100
(1788802228.668809) can0 02FF2604#0000000000000000
(1788802228.688637) can0 04FF3604#0006000300C80100
(1788802228.698869) can0 02FF2704#0200000000000000
(1788802228.704637) can0 05FF4602#07100C100D100C10
(1788802228.711638) can0 03FF1000#0840112200000001
(1788802228.714638) can0 05FF4603#0C100A100D100E10
(1788802228.718638) can0 04FF3604#0005000300C80100
(1788802228.722638) can0 03FF1001#0000000000000000
(1788802228.724638) can0 05FF4604#0B100C100F101010
(1788802228.729638) can0 0260B606#0100000000000000
(1788802228.732639) can0 03FF1603#0000D03600000000
(1788802228.734638) can0 05FF4605#0A10000000000000
(1788802228.743639) can0 03FF1605#0100000000000000
(1788802228.748639) can0 04FF3604#0004000300C80100
(1788802228.758872) can0 02203607#0000000300000000
(1788802228.764640) can0 05FF4606#1E1E1E
(1788802228.774641) can0 05FF4607#1E1D1E
(1788802228.778647) can0 04FF3604#0005000300C80100
(1788802228.784645) can0 05FF4608#0019007C
(1788802228.794643) can0 05FF4609#030003CA03CA00
(1788802228.808643) can0 04FF3604#0004000300C80100
(1788802228.816643) can0 03FF1000#0840112200000001
(1788802228.827644) can0 03FF1001#0000000000000000
(1788802228.837644) can0 03FF1603#0000D03600000000
(1788802228.838644) can0 04FF3604#0004000300C80100
(1788802228.848645) can0 03FF1605#0100000000000000
(1788802228.868646) can0 04FF3604#0006000400C80100
(1788802228.888647) can0 04FF3602#0000000000000000
(1788802228.894651) can0 05FF4610#0000D09DFFFFFFA3
(1788802228.898650) can0 04FF3604#0005000300C80100
(1788802228.921649) can0 03FF1000#0840112200000001
(1788802228.928650) can0 04FF3604#0003000300C80100
(1788802228.932649) can0 03FF1001#0000000000000000
(1788802228.942649) can0 03FF1603#0000D03600000000
(1788802228.953651) can0 03FF1605#0100000000000000
(1788802228.958650) can0 04FF3604#0004000300C80100
(1788802228.988652) can0 04FF3604#0004000300C80100
(1788802229.018653) can0 04FF3604#0005000300C80100
(1788802229.026655) can0 03FF1000#0840112200000001
(1788802229.037655) can0 03FF1001#0000000000000000
(1788802229.047656) can0 03FF1603#0000D03600000000
(1788802229.048655) can0 04FF3604#0003000300C80100
(1788802229.058658) can0 03FF1605#0100000000000000
(1788802229.078660) can0 04FF3604#0004000300C80100
(1788802229.089657) can0 03FF1600#142B000104001312
(1788802229.100658) can0 03FF1601#6E50000000000000
(1788802229.108659) can0 04FF3604#0004000300C80100
(1788802229.110658) can0 03FF1602#000005000000157C
(1788802229.121658) can0 03FF1604#0000000000000000
(1788802229.131660) can0 03FF1000#0840112200000001
(1788802229.138660) can0 04FF3604#0006000300C80100
(1788802229.142659) can0 03FF1001#0000000000000000
(1788802229.152661) can0 03FF1603#0000D03600000000
(1788802229.163662) can0 03FF1605#0100000000000000
(1788802229.168662) can0 04FF3604#0004000300C80100
(1788802229.183663) can0 05FF4610#0000D09EFFFFFFA3
(1788802229.189662) can0 02181606#0100120001030200
(1788802229.198663) can0 04FF3604#0005000300C80100
(1788802229.219663) can0 02203606#0101000100010000
(1788802229.228665) can0 04FF3604#0005000300C80100
(1788802229.236665) can0 03FF1000#0840112200000001
(1788802229.247665) can0 03FF1001#0000000000000000
(1788802229.250665) can0 02181608#0500000001000000
(1788802229.257666) can0 03FF1603#0000D03600000000
(1788802229.258665) can0 04FF3604#0006000300C80100
(1788802229.268666) can0 03FF1605#0100000000000000
(1788802229.278666) can0 03121606#0000000000000000
(1788802229.279671) can0 02181609#0000000000000000
(1788802229.288671) can0 04FF3604#0005000300C80100
(1788802229.318668) can0 04FF3604#0005000300C80100
(1788802229.339670) can0 02488600#0000000000000000
(1788802229.341670) can0 03FF1000#0840112200000001
(1788802229.348670) can0 04FF3604#0005000300C80100
(1788802229.352670) can0 03FF1001#0000000000000000
(1788802229.362671) can0 03FF1603#0000D03600000000
(1788802229.369671) can0 02213600#
(1788802229.373671) can0 03FF1605#0100000000000000
(1788802229.378673) can0 04FF3604#0006000300C80100
(1788802229.388672) can0 04FF3400#0000022200000000
(1788802229.388797) can0 04FF3602#0000000000000000
(1788802229.408677) can0 04FF3604#0004000300C80100
(1788802229.438679) can0 04FF3604#0005000400C80100
(1788802229.446676) can0 03FF1000#0840112200000001
(1788802229.447676) can0 05FF4610#0000D09EFFFFFFA9
(1788802229.457677) can0 03FF1001#0000000000000000
(1788802229.467677) can0 03FF1603#0000D03600000000
(1788802229.468676) can0 04FF3604#0003000300C80100
(1788802229.478678) can0 03FF1605#0100000000000000
(1788802229.498678) can0 04FF3604#0006000300C80100
(1788802229.528680) can0 04FF3604#0007000300C80100
(1788802229.551682) can0 03FF1000#0840112200000001
(1788802229.558682) can0 04FF3604#0005000300C80100
(1788802229.562681) can0 03FF1001#0000000000000000
(1788802229.572682) can0 03FF1603#0000D03600000000
(1788802229.583682) can0 03FF1605#0100000000000000
(1788802229.588683) can0 04FF3604#0003000300C80100
(1788802229.618685) can0 04FF3604#0003000300C80100
(1788802229.648686) can0 04FF3604#0003000300C80100
(1788802229.656687) can0 03FF1000#0840112200000001
(1788802229.659732) can0 02FF2605#0000060907070007
(1788802229.667687) can0 03FF1001#0000000000000000
(1788802229.669687) can0 05FF4001#0000000000000000
(1788802229.671687) can0 05FF4000#0000000000000000
(1788802229.677687) can0 03FF1603#0000D03600000000
(1788802229.678687) can0 04FF3604#0004000300C80100
(1788802229.688688) can0 03FF1605#0100000000000000
(1788802229.689815) can0 02FF2604#0000000000000000
(1788802229.708689) can0 04FF3604#0004000300C80100
(1788802229.710689) can0 05FF4610#0000D09EFFFFFFA9
(1788802229.719800) can0 02FF2704#0200000000000000
(1788802229.738691) can0 04FF3604#0005000300C80100
(1788802229.749819) can0 0260B606#0100000000000000
(1788802229.751691) can0 05FF4602#07100C100D100C10
(1788802229.761691) can0 03FF1000#0840112200000001
(1788802229.762692) can0 05FF4603#0D100A100D100E10
(1788802229.768692) can0 04FF3604#0006000300C80100
(1788802229.771692) can0 05FF4604#0B100C100F101010
(1788802229.772691) can0 03FF1001#0000000000000000
(1788802229.779936) can0 02203607#0000000300000000
(1788802229.781698) can0 05FF4605#0A10000000000000
(1788802229.782696) can0 03FF1603#0000D03600000000
(1788802229.793694) can0 03FF1605#0100000000000000
(1788802229.798694) can0 04FF3604#0003000300C80100
(1788802229.811694) can0 05FF4606#1E1E1E
(1788802229.821695) can0 05FF4607#1E1D1E
(1788802229.828695) can0 04FF3604#0004000300C80100
(1788802229.831695) can0 05FF4608#0019007C
(1788802229.841695) can0 05FF4609#030003CA03CA00
(1788802229.858697) can0 04FF3604#0004000300C80100
(1788802229.866698) can0 03FF1000#0840112200000001
(1788802229.877697) can0 03FF1001#0000000000000000
(1788802229.887698) can0 03FF1603#0000D03600000000
(1788802229.888698) can0 04FF3602#0000000000000000
(1788802229.888783) can0 04FF3604#0005000300C80100
(1788802229.898702) can0 03FF1605#0100000000000000
(1788802229.918703) can0 04FF3604#0005000300C80100
(1788802229.948702) can0 04FF3604#0006000300C80100
(1788802229.950701) can0 02181606#0100120001030200
(1788802229.971702) can0 03FF1000#0840112200000001
(1788802229.978704) can0 04FF3604#0006000300C80100
(1788802229.980703) can0 02203606#0101000100010000
(1788802229.982703) can0 03FF1001#0000000000000000
(1788802229.983703) can0 05FF4610#0000D09EFFFFFFA9
(1788802229.992704) can0 03FF1603#0000D03600000000
(1788802229.994703) can0 05FF4400#00000002
(1788802230.003705) can0 03FF1605#0100000000000000
(1788802230.008705) can0 04FF3604#0004000300C80100
(1788802230.010704) can0 02181608#0500000001000000
(1788802230.013705) can0 03121606#0000000000000000
(1788802230.038706) can0 04FF3604#0005000300C80100
(1788802230.040706) can0 02181609#0000000000000000
(1788802230.046707) can0 05FF4600#0D0300900303
(1788802230.068711) can0 04FF3604#0003000300C80100
(1788802230.076711) can0 03FF1000#0840112200000001
(1788802230.087709) can0 03FF1001#0000000000000000
(1788802230.091709) can0 02488600#0000000000000000
(1788802230.095708) can0 05FF4601#007300000000
(1788802230.097709) can0 03FF1603#0000D03600000000
(1788802230.098709) can0 04FF3604#0005000300C80100
(1788802230.108710) can0 03FF1605#0100000000000000
(1788802230.118711) can0 03FF1600#142B000104001312
(1788802230.119953) can0 02213601#
(1788802230.128711) can0 04FF3604#0005000300C80100
(1788802230.129711) can0 03FF1601#6E50000000000000
(1788802230.139711) can0 03FF1602#000005000000157C
(1788802230.150711) can0 03FF1604#0000000000000000
(1788802230.158712) can0 04FF3604#0007000300C80100
(1788802230.181714) can0 03FF1000#0840112200000001
(1788802230.188713) can0 04FF3604#0003000300C80100
(1788802230.192714) can0 03FF1001#0000000000000000
(1788802230.202715) can0 03FF1603#0000D03600000000
(1788802230.213715) can0 03FF1605#0100000000000000
(1788802230.218715) can0 04FF3604#0005000300C80100
(1788802230.248716) can0 04FF3604#0004000300C80100
(1788802230.273718) can0 05FF4610#0000D09BFFFFFF98
(1788802230.278718) can0 04FF3604#0005000300C80100
(1788802230.286719) can0 03FF1000#0840112200000001
(1788802230.297724) can0 03FF1001#0000000000000000
(1788802230.307724) can0 03FF1603#0000D03600000000
(1788802230.308720) can0 04FF3604#0006000400C80100
(1788802230.318720) can0 03FF1605#0100000000000000
(1788802230.338722) can0 04FF3604#0005000300C80100
(1788802230.368723) can0 04FF3604#0005000300C80100
(1788802230.388725) can0 04FF3602#0000000000000000
(1788802230.391725) can0 03FF1000#0840112200000001
(1788802230.398728) can0 04FF3604#0004000300C80100
(1788802230.402727) can0 03FF1001#0000000000000000
(1788802230.412725) can0 03FF1603#0000D03600000000
(1788802230.423726) can0 03FF1605#0100000000000000
(1788802230.428726) can0 04FF3604#0006000300C80100
(1788802230.458729) can0 04FF3604#0004000300C80100
(1788802230.488730) can0 04FF3604#0004000300C80100
(1788802230.496729) can0 03FF1000#0840112200000001
(1788802230.507731) can0 03FF1001#0000000000000000
(1788802230.517731) can0 03FF1603#0000D03600000000
(1788802230.518731) can0 04FF3604#0004000300C80100
(1788802230.528731) can0 03FF1605#0100000000000000
(1788802230.535790) can0 05FF4610#0000D09BFFFFFF98
(1788802230.548732) can0 04FF3604#0005000300C80100
(1788802230.578735) can0 04FF3604#0003000300C80100
(1788802230.601739) can0 03FF1000#0840112200000001
(1788802230.608735) can0 04FF3604#0006000400C80100
(1788802230.612735) can0 03FF1001#0000000000000000
(1788802230.622736) can0 03FF1603#0000D03600000000
(1788802230.633737) can0 03FF1605#0100000000000000
(1788802230.638737) can0 04FF3604#0005000300C80100
(1788802230.660738) can0 02FF2605#0000060907070008
(1788802230.668739) can0 04FF3604#0006000400C80100
(1788802230.690740) can0 02FF2604#0000000000000000
(1788802230.698740) can0 04FF3604#0004000300C80100
(1788802230.706741) can0 03FF1000#0840112200000001
(1788802230.713740) can0 05FF4001#0000000000000000
(1788802230.715828) can0 05FF4000#0000000000000000
(1788802230.717744) can0 03FF1001#0000000000000000
(1788802230.720869) can0 02FF2704#0200000000000000
(1788802230.727742) can0 03FF1603#0000D03600000000
(1788802230.728741) can0 04FF3604#0004000300C80100
(1788802230.738743) can0 03FF1605#0100000000000000
(1788802230.750812) can0 0260B606#0100000000000000
(1788802230.758744) can0 04FF3604#0005000300C80100
(1788802230.783745) can0 02203607#0000000300000000
(1788802230.788744) can0 04FF3604#0004000300C80100
(1788802230.795818) can0 05FF4602#06100C100C100C10
(1788802230.797752) can0 05FF4610#0000D09BFFFFFF98
(1788802230.805800) can0 05FF4603#0C100A100D100E10
(1788802230.810920) can0 02181606#0100120001030200
(1788802230.811745) can0 03FF1000#0840112200000001
(1788802230.815815) can0 05FF4604#0B100C100F101010
(1788802230.818745) can0 04FF3604#0004000300C80100
(1788802230.822746) can0 03FF1001#0000000000000000
(1788802230.825827) can0 05FF4605#0A10000000000000
(1788802230.832746) can0 03FF1603#0000D03600000000
(1788802230.840920) can0 02203606#0101000100010000
(1788802230.843747) can0 03FF1605#0100000000000000
(1788802230.848747) can0 04FF3604#0005000300C80100
(1788802230.855748) can0 05FF4606#1E1E1E
(1788802230.870884) can0 02181608#0500000001000000
(1788802230.877945) can0 05FF4607#1E1D1E
(1788802230.878749) can0 04FF3604#0003000300C80100
(1788802230.887750) can0 05FF4608#0019007C
(1788802230.888751) can0 04FF3602#0000000000000000
(1788802230.897760) can0 05FF4609#030003CA03CA00
(1788802230.901755) can0 02181609#0000000000000000
(1788802230.908751) can0 04FF3604#0006000400C80100
(1788802230.916751) can0 03FF1000#0840112200000001
(1788802230.927753) can0 03FF1001#0000000000000000
(1788802230.931752) can0 02488600#0000000000000000
(1788802230.937753) can0 03FF1603#0000D03600000000
(1788802230.938752) can0 04FF3604#0003000300C80100
(1788802230.948753) can0 03FF1605#0100000000000000
(1788802230.958753) can0 03121606#0000000000000000
(1788802230.962788) can0 02294611#
(1788802230.963753) can0 05124611#0061368C000034E5
(1788802230.968753) can0 04FF3604#0004000300C80100
(1788802230.998756) can0 04FF3604#0005000300C80100
(1788802231.021757) can0 03FF1000#0840112200000001
(1788802231.028756) can0 04FF3604#0005000300C80100
(1788802231.032757) can0 03FF1001#0000000000000000
(1788802231.042757) can0 03FF1603#0000D03600000000
(1788802231.053758) can0 03FF1605#0100000000000000
(1788802231.058761) can0 04FF3604#0005000300C80100
(1788802231.070761) can0 05FF4610#0000D09BFFFFFF98
(1788802231.088761) can0 04FF3604#0005000300C80100
(1788802231.105762) can0 03FF1600#142B000104001312
(1788802231.116762) can0 03FF1601#6E50000000000000
(1788802231.118761) can0 04FF3604#0006000300C80100
(1788802231.126762) can0 03FF1602#000005000000157C
(1788802231.137763) can0 03FF1604#0000000000000000
(1788802231.147763) can0 03FF1000#0840112200000001
(1788802231.148763) can0 04FF3604#0003000400C80100
(1788802231.158764) can0 03FF1001#0000000000000000
(1788802231.168765) can0 03FF1603#0000D03600000000
(1788802231.178764) can0 04FF3604#0004000300C80100
(1788802231.179764) can0 03FF1605#0100000000000000
(1788802231.208767) can0 04FF3604#0004000300C80100
(1788802231.231768) can0 03FF1000#0840112200000001
(1788802231.238768) can0 04FF3604#0004000300C80100
(1788802231.242768) can0 03FF1001#0000000000000000
(1788802231.252768) can0 03FF1603#0000D03600000000
(1788802231.263769) can0 03FF1605#0100000000000000
(1788802231.268769) can0 04FF3604#0007000300C80100
(1788802231.298771) can0 04FF3604#0004000400C80100
(1788802231.328776) can0 04FF3604#0005000300C80100
(1788802231.336776) can0 03FF1000#0840112200000001
(1788802231.347774) can0 03FF1001#0000000000000000
(1788802231.357776) can0 03FF1603#0000D03600000000
(1788802231.358774) can0 04FF3604#0005000300C80100
(1788802231.358829) can0 05FF4610#0000D09CFFFFFFA3
(1788802231.368774) can0 03FF1605#0100000000000000
(1788802231.388776) can0 04FF3602#0000000000000000
(1788802231.388831) can0 04FF3604#0004000300C80100
(1788802231.418780) can0 04FF3604#0005000300C80100
(1788802231.441782) can0 03FF1000#0840112200000001
(1788802231.448778) can0 04FF3604#0007000300C80100
(1788802231.452778) can0 03FF1001#0000000000000000
(1788802231.462780) can0 03FF1603#0000D03600000000
(1788802231.471784) can0 02181606#0100120001030200
(1788802231.473782) can0 03FF1605#0100000000000000
(1788802231.478780) can0 04FF3604#0004000300C80100
(1788802231.501782) can0 02203606#0101000100010000
(1788802231.508782) can0 04FF3604#0004000300C80100
(1788802231.531783) can0 02181608#0500000001000000
(1788802231.538784) can0 04FF3604#0005000300C80100
(1788802231.546784) can0 03FF1000#0840112200000001
(1788802231.557785) can0 03FF1001#0000000000000000
(1788802231.562784) can0 02181609#0000000000000000
(1788802231.567784) can0 03FF1603#0000D03600000000
(1788802231.568784) can0 04FF3604#0005000300C80100
(1788802231.578785) can0 03FF1605#0100000000000000
(1788802231.588787) can0 03121606#0000000000000000
(1788802231.591786) can0 02488600#0000000000000000
(1788802231.598786) can0 04FF3604#0004000300C80100
(1788802231.620788) can0 05FF4610#0000D09CFFFFFFA3
(1788802231.621787) can0 02294612#
(1788802231.622787) can0 05124612#0000000000000000
(1788802231.628787) can0 04FF3604#0007000300C80100
(1788802231.651789) can0 03FF1000#0840112200000001
(1788802231.658790) can0 04FF3604#0005000300C80100
(1788802231.662789) can0 03FF1001#0000000000000000
(1788802231.672791) can0 02FF2605#0000060907070009
(1788802231.672967) can0 03FF1603#0000D03600000000
(1788802231.683791) can0 03FF1605#0100000000000000
(1788802231.688791) can0 04FF3604#0005000300C80100
(1788802231.701792) can0 02FF2604#0000000000000000
(1788802231.718793) can0 04FF3604#0003000300C80100
(1788802231.731794) can0 02FF2704#0200000000000000
(1788802231.748795) can0 04FF3604#0003000300C80100
(1788802231.754794) can0 05FF4001#0000000000000000
(1788802231.756794) can0 03FF1000#0840112200000001
(1788802231.757794) can0 05FF4000#0000000000000000
(1788802231.762794) can0 0260B606#0100000000000000
(1788802231.767794) can0 03FF1001#0000000000000000
(1788802231.777795) can0 03FF1603#0000D03600000000
(1788802231.778795) can0 04FF3604#0006000300C80100
(1788802231.788797) can0 03FF1605#0100000000000000
(1788802231.791911) can0 02203607#0000000300000000
(1788802231.808797) can0 04FF3604#0003000300C80100
(1788802231.836827) can0 05FF4602#07100C100C100C10
(1788802231.838801) can0 04FF3604#0005000300C80100
(1788802231.846800) can0 05FF4603#0C100A100D100E10
(1788802231.857801) can0 05FF4604#0B100C100F101010
(1788802231.861802) can0 03FF1000#0840112200000001
(1788802231.868801) can0 04FF3604#0006000400C80100
(1788802231.872800) can0 03FF1001#0000000000000000
(1788802231.879819) can0 05FF4605#0A10000000000000
(1788802231.882801) can0 03FF1603#0000D03600000000
(1788802231.888801) can0 04FF3602#0000000000000000
(1788802231.893802) can0 03FF1605#0100000000000000
(1788802231.894820) can0 05FF4610#0000D09CFFFFFFA3
(1788802231.898805) can0 04FF3604#0005000300C80100
(1788802231.909805) can0 05FF4606#1E1E1E
(1788802231.919803) can0 05FF4607#1E1D1E
(1788802231.928804) can0 04FF3604#0004000300C80100
(1788802231.929803) can0 05FF4608#0019007C
(1788802231.939804) can0 05FF4609#030003CA03CA00
(1788802231.958804) can0 04FF3604#0004000300C80100
(1788802231.966805) can0 03FF1000#0840112200000001
(1788802231.977806) can0 03FF1001#0000000000000000
(1788802231.987807) can0 03FF1603#0000D03600000000
(1788802231.988807) can0 04FF3604#0006000300C80100
(1788802231.998807) can0 03FF1605#0100000000000000
(1788802232.018808) can0 04FF3604#0005000300C80100
(1788802232.048810) can0 04FF3604#0004000300C80100
(1788802232.071814) can0 03FF1000#0840112200000001
(1788802232.078814) can0 04FF3604#0004000300C80100
(1788802232.082811) can0 03FF1001#0000000000000000
(1788802232.092812) can0 03FF1603#0000D03600000000
(1788802232.103813) can0 03FF1605#0100000000000000
(1788802232.108813) can0 04FF3604#0004000300C80100
(1788802232.113813) can0 03FF1600#142B000104001312
(1788802232.124814) can0 03FF1601#6E50000000000000
(1788802232.134814) can0 03FF1602#000005000000157C
(1788802232.138814) can0 04FF3604#0005000300C80100
(1788802232.145815) can0 03FF1604#0000000000000000
(1788802232.168815) can0 04FF3604#0004000300C80100
(1788802232.176816) can0 03FF1000#0840112200000001
(1788802232.180840) can0 05FF4610#0000D09DFFFFFFA3
(1788802232.187817) can0 03FF1001#0000000000000000
(1788802232.197818) can0 03FF1603#0000D03600000000
(1788802232.198817) can0 04FF3604#0004000300C80100
(1788802232.208818) can0 03FF1605#0100000000000000
(1788802232.228819) can0 04FF3604#0004000300C80100
(1788802232.232818) can0 02181606#0100120001030200
(1788802232.258819) can0 04FF3604#0006000300C80100
(1788802232.262820) can0 02203606#0101000100010000
(1788802232.281821) can0 03FF1000#0840112200000001
(1788802232.288822) can0 04FF3604#0006000300C80100
(1788802232.292821) can0 03FF1001#0000000000000000
(1788802232.292888) can0 02181608#0500000001000000
(1788802232.302823) can0 03FF1603#0000D03600000000
(1788802232.313824) can0 03FF1605#0100000000000000
(1788802232.318827) can0 04FF3604#0001000300C80100
(1788802232.322827) can0 02181609#0000000000000000
(1788802232.323824) can0 03121606#0000000000000000
(1788802232.348826) can0 04FF3604#0005000300C80100
(1788802232.352825) can0 02488600#0000000000000000
(1788802232.378827) can0 04FF3604#0006000300C80100
(1788802232.382826) can0 02294613#
(1788802232.382916) can0 05124613#0000000000000000
(1788802232.386826) can0 03FF1000#0840112200000001
(1788802232.388826) can0 04FF3602#0000000000000000
(1788802232.397828) can0 03FF1001#0000000000000000
(1788802232.407831) can0 03FF1603#0000D03600000000
(1788802232.408831) can0 04FF3604#0005000300C80100
(1788802232.418829) can0 03FF1605#0100000000000000
(1788802232.438830) can0 04FF3604#0007000400C80100
(1788802232.443888) can0 05FF4610#0000D09DFFFFFFA3
(1788802232.468831) can0 04FF3604#0006000300C80100
(1788802232.491833) can0 03FF1000#0840112200000001
(1788802232.498833) can0 04FF3604#0006000300C80100
(1788802232.502833) can0 03FF1001#0000000000000000
(1788802232.512833) can0 03FF1603#0000D03600000000
(1788802232.523833) can0 03FF1605#0100000000000000
(1788802232.528833) can0 04FF3604#0005000300C80100
(1788802232.558835) can0 04FF3604#0004000300C80100
(1788802232.588838) can0 04FF3604#0005000300C80100
(1788802232.596838) can0 03FF1000#0840112200000001
(1788802232.607838) can0 03FF1001#0000000000000000
(1788802232.617839) can0 03FF1603#0000D03600000000
(1788802232.618838) can0 04FF3604#0004000300C80100
(1788802232.628839) can0 03FF1605#0100000000000000
(1788802232.648841) can0 04FF3604#0006000300C80100
(1788802232.678842) can0 04FF3604#0005000300C80100
(1788802232.683842) can0 02FF2605#0000060907070000
(1788802232.701844) can0 03FF1000#0840112200000001
(1788802232.704912) can0 05FF4610#0000D09DFFFFFFA3
(1788802232.708843) can0 04FF3604#0003000300C80100
(1788802232.712843) can0 03FF1001#0000000000000000
(1788802232.712893) can0 02FF2604#0000000000000000
(1788802232.722845) can0 03FF1603#0000D03600000000
(1788802232.733845) can0 03FF1605#0100000000000000
(1788802232.738845) can0 04FF3604#0003000300C80100
(1788802232.742845) can0 02FF2704#0200000000000000
(1788802232.768847) can0 04FF3604#0007000300C80100
(1788802232.772846) can0 0260B606#0100000000000000
(1788802232.796848) can0 05FF4001#0000000000000000
(1788802232.797952) can0 05FF4000#0000000000000000
(1788802232.798848) can0 04FF3604#0006000300C80100
(1788802232.803848) can0 02203607#0000000300000000
(1788802232.806848) can0 03FF1000#0840112200000001
(1788802232.817849) can0 03FF1001#0000000000000000
(1788802232.827854) can0 03FF1603#0000D03600000000
(1788802232.828853) can0 04FF3604#0004000300C80100
(1788802232.838851) can0 03FF1605#0100000000000000
(1788802232.858852) can0 04FF3604#0004000300C80100
(1788802232.888854) can0 04FF3602#0000000000000000
(1788802232.888909) can0 04FF3604#0002000300C80100
(1788802232.889922) can0 05FF4602#07100C100D100C10
(1788802232.899926) can0 05FF4603#0C100A100D100E10
(1788802232.909925) can0 05FF4604#0B100C100F101010
(1788802232.911854) can0 03FF1000#0840112200000001
(1788802232.918855) can0 04FF3604#0006000300C80100
(1788802232.919935) can0 05FF4605#0A10000000000000
(1788802232.922854) can0 03FF1001#0000000000000000
(1788802232.932855) can0 03FF1603#0000D03600000000
(1788802232.943859) can0 03FF1605#0100000000000000
(1788802232.948859) can0 04FF3604#0005000300C80100
(1788802232.949857) can0 05FF4606#1E1E1E
(1788802232.959857) can0 05FF4607#1E1D1E
(1788802232.969858) can0 05FF4608#0019007C
(1788802232.977951) can0 05FF4610#0000D09DFFFFFFA3
(1788802232.978857) can0 04FF3604#0006000300C80100
(1788802232.979915) can0 05FF4609#030003CA03CA00
(1788802232.993003) can0 02181606#0100120001030200
(1788802233.008859) can0 04FF3604#0004000300C80100
(1788802233.016860) can0 03FF1000#0840112200000001
(1788802233.023033) can0 02203606#0101000100010000
(1788802233.027860) can0 03FF1001#0000000000000000
(1788802233.037860) can0 03FF1603#0000D03600000000
(1788802233.038860) can0 04FF3604#0004000300C80100
(1788802233.048861) can0 03FF1605#0100000000000000
(1788802233.058865) can0 03121606#0000000000000000
(1788802233.068864) can0 04FF3604#0005000300C80100
(1788802233.073863) can0 02181608#0500000001000000
(1788802233.098864) can0 04FF3604#0004000300C80100
(1788802233.103864) can0 02181609#0000000000000000
(1788802233.121865) can0 03FF1000#0840112200000001
(1788802233.128865) can0 04FF3604#0006000300C80100
(1788802233.132865) can0 03FF1001#0000000000000000
(1788802233.133865) can0 02488600#0000000000000000
(1788802233.142866) can0 03FF1600#142B000104001312
(1788802233.153866) can0 03FF1601#6E50000000000000
(1788802233.158866) can0 04FF3604#0004000300C80100
(1788802233.162901) can0 02294614#
(1788802233.163866) can0 03FF1602#000005000000157C
(1788802233.174867) can0 03FF1603#0000D03600000000
(1788802233.180983) can0 05124614#10100B1007000009
(1788802233.184868) can0 03FF1604#0000000000000000
(1788802233.188868) can0 04FF3604#0002000300C80100
(1788802233.195869) can0 03FF1605#0100000000000000
(1788802233.205869) can0 03FF1400#0000000800000000
(1788802233.218870) can0 04FF3604#0004000300C80100
(1788802233.226871) can0 03FF1000#0840112200000001
(1788802233.237870) can0 03FF1001#0000000000000000
(1788802233.247872) can0 03FF1603#0000D03600000000
(1788802233.248871) can0 04FF3604#0004000300C80100
(1788802233.258872) can0 03FF1605#0100000000000000
(1788802233.265872) can0 05FF4610#0000D09CFFFFFFA3
(1788802233.278873) can0 04FF3604#0003000300C80100
(1788802233.308875) can0 04FF3604#0006000300C80100
(1788802233.331875) can0 03FF1000#0840112200000001
(1788802233.338881) can0 04FF3604#0004000300C80100
(1788802233.342878) can0 03FF1001#0000000000000000
(1788802233.352877) can0 03FF1603#0000D03600000000
(1788802233.363878) can0 03FF1605#0100000000000000
(1788802233.368877) can0 04FF3604#0004000300C80100
(1788802233.388878) can0 04FF3602#0000000000000000
(1788802233.398882) can0 04FF3604#0005000300C80100
(1788802233.428885) can0 04FF3604#0005000300C80100
(1788802233.436884) can0 03FF1000#0840112200000001
(1788802233.447882) can0 03FF1001#0000000000000000
(1788802233.457883) can0 03FF1603#0000D03600000000
(1788802233.458881) can0 04FF3604#0005000300C80100
(1788802233.468882) can0 03FF1605#0100000000000000
(1788802233.488883) can0 04FF3604#0005000300C80100
(1788802233.518136) can0 04FF3604#0004000300C80100
(1788802233.528025) can0 05FF4610#0000D09CFFFFFFA3
(1788802233.541887) can0 03FF1000#0840112200000001
(1788802233.548141) can0 04FF3604#0004000300C80100
(1788802233.552887) can0 03FF1001#0000000000000000
(1788802233.562887) can0 03FF1603#0000D03600000000
(1788802233.573143) can0 03FF1605#0100000000000000
(1788802233.578889) can0 04FF3604#0003000300C80100
(1788802233.608890) can0 04FF3604#0004000300C80100
(1788802233.638146) can0 04FF3604#0005000300C80100
(1788802233.646892) can0 03FF1000#0840112200000001
(1788802233.657892) can0 03FF1001#0000000000000000
(1788802233.667892) can0 03FF1603#0000D03600000000
(1788802233.668892) can0 04FF3604#0005000300C80100
(1788802233.678125) can0 03FF1605#0100000000000000
(1788802233.693894) can0 02FF2605#0000060907070001
(1788802233.698894) can0 04FF3604#0006000300C80100
(1788802233.723896) can0 02FF2604#0000000000000000
(1788802233.728150) can0 04FF3604#0005000300C80100
(1788802233.751898) can0 03FF1000#0840112200000001
(1788802233.753897) can0 02FF2704#0200000000000000
(1788802233.758152) can0 04FF3604#0005000300C80100
(1788802233.762898) can0 03FF1001#0000000000000000
(1788802233.772898) can0 03FF1603#0000D03600000000
(1788802233.783899) can0 03FF1605#0100000000000000
(1788802233.784898) can0 0260B606#0100000000000000
(1788802233.788153) can0 04FF3604#0005000300C80100
(1788802233.789095) can0 05FF4610#0000D09CFFFFFFA3
(1788802233.813900) can0 02203607#0000000300000000
(1788802233.818143) can0 04FF3604#0003000300C80100
(1788802233.837121) can0 05FF4001#0000000000000000
(1788802233.839137) can0 05FF4000#0000000000000000
(1788802233.844905) can0 02181606#0100120001030200
(1788802233.848145) can0 04FF3604#0005000300C80100
(1788802233.856902) can0 03FF1000#0840112200000001
(1788802233.867903) can0 03FF1001#0000000000000000
(1788802233.873903) can0 02203606#0101000100010000
(1788802233.877903) can0 03FF1603#0000D03600000000
(1788802233.878903) can0 04FF3604#0005000400C80100
(1788802233.888158) can0 03FF1605#0100000000000000
(1788802233.898906) can0 03121606#0000000000000000
(1788802233.903954) can0 02181608#0500000001000000
(1788802233.908150) can0 04FF3604#0003000300C80100
(1788802233.931092) can0 05FF4602#07100C100D100C10
(1788802233.933936) can0 02181609#0000000000000000
(1788802233.938149) can0 04FF3604#0004000300C80100
(1788802233.941091) can0 05FF4603#0C100A100D100E10
(1788802233.951093) can0 05FF4604#0B100C100F101010
(1788802233.961123) can0 05FF4605#0910000000000000
(1788802233.961907) can0 03FF1000#0840112200000001
(1788802233.964035) can0 02488600#0000000000000000
(1788802233.968151) can0 04FF3604#0005000300C80100
(1788802233.972163) can0 03FF1001#0000000000000000
(1788802233.982909) can0 03FF1603#0000D03600000000
(1788802233.990909) can0 05FF4606#1E1E1E
(1788802233.993151) can0 03FF1605#0100000000000000
(1788802233.993910) can0 02294615#
(1788802233.995025) can0 05124615#1E011E010000
(1788802233.998152) can0 04FF3604#0006000300C80100
(1788802234.000921) can0 05FF4607#1E1D1E
(1788802234.010952) can0 05FF4608#0019007C
(1788802234.021085) can0 05FF4609#030003CA03CA00
(1788802234.028131) can0 04FF3604#0003000300C80100
(1788802234.058172) can0 04FF3604#0006000300C80100
(1788802234.062124) can0 05FF4610#0000D09CFFFFFFA3
(1788802234.066914) can0 03FF1000#0840112200000001
(1788802234.077146) can0 03FF1001#0000000000000000
(1788802234.087914) can0 03FF1603#0000D03600000000
(1788802234.088914) can0 04FF3604#0005000300C80100
(1788802234.098147) can0 03FF1605#0100000000000000
(1788802234.118148) can0 04FF3604#0006000300C80100
(1788802234.129917) can0 03FF1600#142B000104001312
(1788802234.140143) can0 03FF1601#6E50000000000000
(1788802234.148149) can0 04FF3604#0005000300C80100
(1788802234.150918) can0 03FF1602#000005000000157C
(1788802234.161139) can0 03FF1604#0000000000000000
(1788802234.171918) can0 03FF1000#0840112200000001
(1788802234.178150) can0 04FF3604#0004000300C80100
(1788802234.182162) can0 03FF1001#0000000000000000
(1788802234.192919) can0 03FF1603#0000D03600000000
(1788802234.203159) can0 03FF1605#0100000000000000
(1788802234.208140) can0 04FF3604#0005000300C80100
(1788802234.238142) can0 04FF3604#0002000300C80100
(1788802234.268132) can0 04FF3604#0005000300C80100
(1788802234.276925) can0 03FF1000#0840112200000001
(1788802234.287925) can0 03FF1001#0000000000000000
(1788802234.297926) can0 03FF1603#0000D03600000000
(1788802234.298925) can0 04FF3604#0006000300C80100
(1788802234.308926) can0 03FF1605#0100000000000000
(1788802234.328135) can0 04FF3604#0004000300C80100
(1788802234.350137) can0 05FF4610#0000D09CFFFFFFA3
(1788802234.358141) can0 04FF3604#0005000300C80100
(1788802234.381932) can0 03FF1000#0840112200000001
(1788802234.388173) can0 04FF3602#0000000000000000
(1788802234.388929) can0 04FF3604#0003000300C80100
(1788802234.392185) can0 03FF1001#0000000000000000
(1788802234.402933) can0 03FF1603#0000D03600000000
(1788802234.413176) can0 03FF1605#0100000000000000
(1788802234.418140) can0 04FF3604#0005000300C80100
(1788802234.448142) can0 04FF3604#0005000300C80100
(1788802234.478132) can0 04FF3604#0005000300C80100
(1788802234.486936) can0 03FF1000#0840112200000001
(1788802234.497178) can0 03FF1001#0000000000000000
(1788802234.507937) can0 03FF1603#0000D03600000000
(1788802234.508936) can0 04FF3604#0005000300C80100
(1788802234.514936) can0 02181606#0100120001030200
(1788802234.518180) can0 03FF1605#0100000000000000
(1788802234.538135) can0 04FF3604#0004000300C80100
(1788802234.545939) can0 02203606#0101000100010000
(1788802234.568159) can0 04FF3604#0005000300C80100
(1788802234.574940) can0 02181608#0500000001000000
(1788802234.591940) can0 03FF1000#0840112200000001
(1788802234.598126) can0 04FF3604#0004000300C80100
(1788802234.602183) can0 03FF1001#0000000000000000
(1788802234.604941) can0 02181609#0000000000000000
(1788802234.611173) can0 05FF4610#0000D09CFFFFFFA3
(1788802234.612941) can0 03FF1603#0000D03600000000
(1788802234.623174) can0 03FF1605#0100000000000000
(1788802234.628162) can0 04FF3604#0006000300C80100
(1788802234.633943) can0 03121606#0000000000000000
(1788802234.634942) can0 02488600#0000000000000000
(1788802234.658141) can0 04FF3604#0005000300C80100
(1788802234.664944) can0 02294616#
(1788802234.665172) can0 05124616#00000000000030C6
(1788802234.688130) can0 04FF3604#0003000300C80100
(1788802234.696946) can0 03FF1000#0840112200000001
(1788802234.705947) can0 02FF2605#0000060907070002
(1788802234.707189) can0 03FF1001#0000000000000000
(1788802234.717946) can0 03FF1603#0000D03600000000
(1788802234.718947) can0 04FF3604#0003000300C80100
(1788802234.728179) can0 03FF1605#0100000000000000
(1788802234.734948) can0 02FF2604#0000000000000000
(1788802234.748129) can0 04FF3604#0004000300C80100
(1788802234.764950) can0 02FF2704#0200000000000000
(1788802234.778135) can0 04FF3604#0006000400C80100
(1788802234.794951) can0 0260B606#0100000000000000
(1788802234.801951) can0 03FF1000#0840112200000001
(1788802234.808136) can0 04FF3604#0005000300C80100
(1788802234.812183) can0 03FF1001#0000000000000000
(1788802234.822952) can0 03FF1603#0000D03600000000
(1788802234.825051) can0 02203607#0000000300000000
(1788802234.833197) can0 03FF1605#0100000000000000
(1788802234.838126) can0 04FF3604#0004000300C80100
(1788802234.868128) can0 04FF3604#0005000300C80100
