(1788959184.183831) can0 02294503#0000000000000000
(1788959184.185609) can0 05124503#001702150000019A
(1788959184.188851) can0 02294503#0000000000000000
(1788959184.190608) can0 05124503#001702150000019A
(1788959184.193863) can0 02294503#0000000000000000
(1788959184.195608) can0 05124503#001702150000019A
(1788959184.198863) can0 02294503#0000000000000000
(1788959184.200609) can0 05124503#001702150000019A
(1788959184.204609) can0 02294503#0000000000000000
(1788959184.205609) can0 05124503#001702150000019A
(1788959184.284649) can0 03FF1000#0000112200000001
(1788959184.296675) can0 02181606#0100190001030200
(1788959184.396624) can0 03FF1000#0000112200000001
(1788959184.406626) can0 03FF1001#0000000000000000
(1788959184.407624) can0 02181606#0100190001030200
(1788959184.417625) can0 03FF1603#0000D9BE00000000
(1788959184.427626) can0 03FF1605#0100000000000000
(1788959184.429682) can0 05FF4610#0000CE7AFFFFFFF0
(1788959184.438626) can0 03121606#0100000000000000
(1788959184.479630) can0 08F97603#0101000000000000
(1788959184.501631) can0 03FF1000#0000112200000001
(1788959184.511631) can0 03FF1001#0000000000000000
(1788959184.517636) can0 02181606#0100190001030200
(1788959184.522633) can0 03FF1603#0000D9BE00000000
(1788959184.532634) can0 03FF1605#0100000000000000
(1788959184.543635) can0 03121606#0000000000000000
(1788959184.557635) can0 05FF4001#0000000000000000
(1788959184.559635) can0 05FF4000#0000000000000000
(1788959184.606639) can0 03FF1000#0000112200000001
(1788959184.616640) can0 03FF1001#0000000000000000
(1788959184.627640) can0 03FF1603#0000D9BE00000000
(1788959184.637640) can0 03FF1605#0100000000000000
(1788959184.640641) can0 05FF4602#E40FE60FE30FE20F
(1788959184.648642) can0 03121606#0000000000000000
(1788959184.649641) can0 05FF4603#E00FE50FE00FE10F
(1788959184.659642) can0 05FF4604#E00FE10FE30FE40F
(1788959184.669643) can0 05FF4605#DD0F000000000000
(1788959184.690650) can0 05FF4610#0000CE7AFFFFFFF0
(1788959184.699645) can0 05FF4606#151514
(1788959184.709646) can0 05FF4607#141615
(1788959184.711646) can0 03FF1000#0000112200000001
(1788959184.719648) can0 05FF4608#0019007C
(1788959184.721647) can0 03FF1001#0000000000000000
(1788959184.729648) can0 05FF4609#0100037003B600
(1788959184.732647) can0 03FF1603#0000D9BE00000000
(1788959184.742648) can0 03FF1605#0100000000000000
(1788959184.780652) can0 08F97603#0101000000000000
(1788959184.816654) can0 03FF1000#0000112200000001
(1788959184.826655) can0 03FF1001#0000000000000000
(1788959184.837655) can0 03FF1603#0000D9BE00000000
(1788959184.847656) can0 03FF1605#0100000000000000
(1788959184.878800) can0 05FF4400#00000000
(1788959184.921664) can0 03FF1000#0000112200000001
(1788959184.929790) can0 05FF4600#0D0400C00303
(1788959184.931662) can0 03FF1001#0000000000000000
(1788959184.942663) can0 03FF1603#0000D9BE00000000
(1788959184.950838) can0 05FF4610#0000CE7AFFFFFFF0
(1788959184.952663) can0 03FF1605#0100000000000000
(1788959184.978736) can0 05FF4601#006600000000
(1788959185.026670) can0 03FF1000#0000112200000001
(1788959185.027669) can0 02191602#0000000000000000
(1788959185.036669) can0 03FF1001#0000000000000000
(1788959185.047672) can0 03FF1603#0000D9BE00000000
(1788959185.057671) can0 03FF1605#0100000000000000
(1788959185.080900) can0 08F97603#0101000000000000
(1788959185.131678) can0 03FF1000#0000112200000001
(1788959185.141679) can0 03FF1001#0000000000000000
(1788959185.152678) can0 03FF1603#0000D9BE00000000
(1788959185.162679) can0 03FF1605#0100000000000000
(1788959185.183683) can0 03FF1600#142B000104001319
(1788959185.194683) can0 03FF1601#6E50000000000000
(1788959185.204682) can0 03FF1602#075A850000001324
(1788959185.215682) can0 03FF1604#0000000000000000
(1788959185.236684) can0 03FF1000#0000112200000001
(1788959185.239684) can0 05FF4610#0000CE73FFFFFFBE
(1788959185.246685) can0 03FF1001#0000000000000000
(1788959185.257686) can0 03FF1603#0000D9BE00000000
(1788959185.267687) can0 03FF1605#0100000000000000
(1788959185.341692) can0 03FF1000#0000112200000001
(1788959185.351693) can0 03FF1001#0000000000000000
(1788959185.362694) can0 03FF1603#0000D9BE00000000
(1788959185.372694) can0 03FF1605#0100000000000000
(1788959185.446701) can0 03FF1000#0000112200000001
(1788959185.456702) can0 03FF1001#0000000000000000
(1788959185.467701) can0 03FF1603#0000D9BE00000000
(1788959185.477702) can0 03FF1605#0100000000000000
(1788959185.501704) can0 05FF4610#0000CE73FFFFFFBE
(1788959185.551710) can0 03FF1000#0000112200000001
(1788959185.561708) can0 03FF1001#0000000000000000
(1788959185.572709) can0 03FF1603#0000D9BE00000000
(1788959185.582709) can0 03FF1605#0100000000000000
(1788959185.587709) can0 05FF4001#0000000000000000
(1788959185.589710) can0 05FF4000#0000000000000000
(1788959185.656715) can0 03FF1000#0000112200000001
(1788959185.666715) can0 03FF1001#0000000000000000
(1788959185.669855) can0 05FF4602#E30FE60FE20FE10F
(1788959185.677717) can0 03FF1603#0000D9BE00000000
(1788959185.679855) can0 05FF4603#DF0FE50FE00FE10F
(1788959185.687720) can0 03FF1605#0100000000000000
(1788959185.689845) can0 05FF4604#DF0FE00FE30FE40F
(1788959185.699841) can0 05FF4605#DC0F000000000000
(1788959185.729720) can0 05FF4606#151514
(1788959185.739721) can0 05FF4607#141615
(1788959185.749723) can0 05FF4608#0019007C
(1788959185.759723) can0 05FF4609#0100037003B600
(1788959185.761722) can0 03FF1000#0000112200000001
(1788959185.763746) can0 05FF4610#0000CE73FFFFFFBE
(1788959185.771724) can0 03FF1001#0000000000000000
(1788959185.782724) can0 03FF1603#0000D9BE00000000
(1788959185.792725) can0 03FF1605#0100000000000000
(1788959185.866733) can0 03FF1000#0000112200000001
(1788959185.876732) can0 03FF1001#0000000000000000
(1788959185.887731) can0 03FF1603#0000D9BE00000000
(1788959185.897733) can0 03FF1605#0100000000000000
(1788959185.971739) can0 03FF1000#0000112200000001
(1788959185.981740) can0 03FF1001#0000000000000000
(1788959185.992740) can0 03FF1603#0000D9BE00000000
(1788959186.002740) can0 03FF1605#0100000000000000
(1788959186.025742) can0 05FF4610#0000CE73FFFFFFBE
(1788959186.048744) can0 02FF2602#EEA9714D3418A013
(1788959186.049743) can0 02294609#0000000000000000
(1788959186.050743) can0 05124609#0300037003B600
(1788959186.076746) can0 03FF1000#0000112200000001
(1788959186.086746) can0 03FF1001#0000000000000000
(1788959186.097747) can0 03FF1603#0000D9BE00000000
(1788959186.107748) can0 03FF1605#0100000000000000
(1788959186.181753) can0 03FF1000#0000112200000001
(1788959186.191756) can0 03FF1001#0000000000000000
(1788959186.202756) can0 03FF1603#0000D9BE00000000
(1788959186.212755) can0 03FF1605#0100000000000000
(1788959186.223756) can0 03FF1600#142B000104001319
(1788959186.233756) can0 03FF1601#6E50000000000000
(1788959186.244007) can0 03FF1602#075A850000001324
(1788959186.254759) can0 03FF1604#0000000000000000
(1788959186.286760) can0 03FF1000#0000112200000001
(1788959186.296762) can0 03FF1001#0000000000000000
(1788959186.307012) can0 03FF1603#0000D9BE00000000
(1788959186.313959) can0 05FF4610#0000CE71FFFFFFB9
(1788959186.317763) can0 03FF1605#0100000000000000
(1788959186.391769) can0 03FF1000#0000112200000001
(1788959186.401769) can0 03FF1001#0000000000000000
(1788959186.412024) can0 03FF1603#0000D9BE00000000
(1788959186.422771) can0 03FF1605#0100000000000000
(1788959186.496778) can0 03FF1000#0000112200000001
(1788959186.506778) can0 03FF1001#0000000000000000
(1788959186.517035) can0 03FF1603#0000D9BE00000000
(1788959186.527779) can0 03FF1605#0100000000000000
(1788959186.559037) can0 02FF2602#EEA9714D3418A013
(1788959186.559780) can0 02294609#0000000000000000
(1788959186.561780) can0 05124609#0300037003B600
(1788959186.574783) can0 05FF4610#0000CE71FFFFFFB9
(1788959186.601784) can0 03FF1000#0000112200000001
(1788959186.611784) can0 03FF1001#0000000000000000
(1788959186.616784) can0 05FF4001#0000000000000000
(1788959186.618784) can0 05FF4000#0000000000000000
(1788959186.622016) can0 03FF1603#0000D9BE00000000
(1788959186.632786) can0 03FF1605#0100000000000000
(1788959186.669789) can0 02203606#0101000100000000
(1788959186.675789) can0 04FF3602#0000000000000000
(1788959186.678847) can0 13B76400#01
(1788959186.679789) can0 02181606#0000000000030200
(1788959186.685792) can0 03FF1605#0000000000000000
(1788959186.695790) can0 04FF3604#0003000300000100
(1788959186.701791) can0 13B76400#01
(1788959186.709792) can0 02203606#0200000000000000
(1788959186.739793) can0 02181608#0500000001000000
(1788959186.769801) can0 02181609#0000000000000000
(1788959186.799799) can0 02488600#0000000000000000
(1788959186.848890) can0 02294500#
(1788959186.849951) can0 05124500#0500
(1788959186.879808) can0 02FF2605#0000060909030604
(1788959186.883804) can0 1FF8B028#0000000000000000
(1788959186.893804) can0 03FF1000#0000112200000001
(1788959186.903806) can0 03FF1605#0000000000000000
(1788959186.909806) can0 02FF2604#0000000000000000
(1788959186.914806) can0 03121606#0100000000000000
(1788959186.939807) can0 02FF2704#0200000000000000
(1788959186.969811) can0 0260B606#0000000000000000
(1788959186.979811) can0 13B76400#01
(1788959186.987812) can0 03FF1000#0000112200000001
(1788959186.999813) can0 02203607#0000000300000000
(1788959187.029816) can0 02F82400#C38D000000000000
(1788959187.061818) can0 02FF2602#2159B2051DA5DD4F
(1788959187.091818) can0 02181606#0100190001030200
(1788959187.092819) can0 03FF1000#0000112200000001
(1788959187.121821) can0 02203606#0100000100000000
(1788959187.145824) can0 04FF3604#0003000300000000
(1788959187.151846) can0 02181608#0500000001000000
(1788959187.175826) can0 04FF3602#0000000000000000
(1788959187.176825) can0 04FF3604#0004000300000000
(1788959187.179825) can0 02181609#0000000000000000
(1788959187.194830) can0 03FF1000#0000112200000001
(1788959187.204828) can0 03FF1001#0000000000000000
(1788959187.205827) can0 04FF3604#0003000300000000
(1788959187.209908) can0 02488600#0000000000000000
(1788959187.215059) can0 03FF1603#0000D9BE00000000
(1788959187.225829) can0 03FF1605#0100000000000000
(1788959187.227829) can0 05FF4610#0000CE72FFFFFFBE
(1788959187.235830) can0 04FF3604#0004000400000000
(1788959187.236829) can0 03121606#0100000000000000
(1788959187.239830) can0 02294501#
(1788959187.240829) can0 05124501#0104
(1788959187.246830) can0 03FF1600#142B000104001319
(1788959187.257058) can0 03FF1601#6E50000000000000
(1788959187.259831) can0 13B76400#01
(1788959187.265831) can0 04FF3604#0005000400000000
(1788959187.267831) can0 03FF1602#075A850000001324
(1788959187.269832) can0 02FF2605#0000060909030606
(1788959187.278053) can0 03FF1604#0000000000000000
(1788959187.295834) can0 04FF3604#0004000300000000
(1788959187.299089) can0 03FF1000#0000112200000001
(1788959187.299834) can0 02FF2604#0000000000000000
(1788959187.309835) can0 03FF1001#0000000000000000
(1788959187.320056) can0 03FF1603#0000D9BE00000000
(1788959187.325836) can0 04FF3604#0004000300000000
(1788959187.330836) can0 03FF1605#0100000000000000
(1788959187.355839) can0 05FF4001#0000000000000000
(1788959187.356838) can0 04FF3604#0004000300000000
(1788959187.357838) can0 05FF4000#0000000000000000
(1788959187.369839) can0 02FF2704#0200000000000000
(1788959187.385841) can0 04FF3604#0005000300000000
(1788959187.400888) can0 0260B606#0000000000000000
(1788959187.404841) can0 03FF1000#0000112200000001
(1788959187.414842) can0 03FF1001#0000000000000000
(1788959187.415842) can0 04FF3604#0003000400000000
(1788959187.425052) can0 03FF1603#0000D9BE00000000
(1788959187.430843) can0 02203607#0000000300000000
(1788959187.435844) can0 03FF1605#0100000000000000
(1788959187.437845) can0 05FF4602#E20FE60FE20FE10F
(1788959187.445844) can0 04FF3604#0005000300000000
(1788959187.447845) can0 05FF4603#DF0FE50FE00FE10F
(1788959187.457847) can0 05FF4604#DF0FE00FE30FE40F
(1788959187.461845) can0 02181606#0100190001030200
(1788959187.467846) can0 05FF4605#DC0F000000000000
(1788959187.475847) can0 04FF3604#0004000300000000
(1788959187.488848) can0 05FF4610#0000CE72FFFFFFBE
(1788959187.491847) can0 02203606#0101000100000000
(1788959187.497849) can0 05FF4606#151514
(1788959187.505850) can0 04FF3604#0003000300000100
(1788959187.507850) can0 05FF4607#141615
(1788959187.509081) can0 03FF1000#0000112200000001
(1788959187.517854) can0 05FF4608#0019007C
(1788959187.519850) can0 03FF1001#0000000000000000
(1788959187.520850) can0 02181608#0500000001000000
(1788959187.527851) can0 05FF4609#0300037003B600
(1788959187.530059) can0 03FF1603#0000D9BE00000000
(1788959187.535851) can0 04FF3604#0006000300000100
(1788959187.540851) can0 03FF1605#0100000000000000
(1788959187.541851) can0 13B76400#01
(1788959187.551073) can0 03121606#0000000000000000
(1788959187.553095) can0 02181609#0000000000000000
(1788959187.565854) can0 04FF3604#0003000300000100
(1788959187.580971) can0 02488600#0000000000000000
(1788959187.595856) can0 04FF3604#0004000300000100
(1788959187.611857) can0 02191500#
(1788959187.614095) can0 03FF1000#0000112200000001
(1788959187.624858) can0 03FF1001#0000000000000000
(1788959187.625857) can0 04FF3604#0005000300000100
(1788959187.635859) can0 03FF1603#0000D9BE00000000
(1788959187.645859) can0 03FF1605#0100000000000000
(1788959187.655861) can0 04FF3604#0004000300000100
(1788959187.656860) can0 03FF1500#000000C300000000
(1788959187.675863) can0 04FF3602#0000000000000000
(1788959187.677066) can0 05FF4400#00000001
(1788959187.685865) can0 04FF3604#0004000300000100
(1788959187.715865) can0 04FF3604#0004000300000100
(1788959187.719865) can0 03FF1000#0000112200000001
(1788959187.727058) can0 05FF4600#0D0400C00303
(1788959187.729865) can0 03FF1001#0000000000000000
(1788959187.740075) can0 03FF1603#0000D9BE00000000
(1788959187.745866) can0 04FF3604#0002000300000100
(1788959187.749099) can0 05FF4610#0000CE72FFFFFFBE
(1788959187.750866) can0 03FF1605#0100000000000000
(1788959187.775869) can0 04FF3604#0003000300000100
(1788959187.776996) can0 05FF4601#006600000000
(1788959187.801871) can0 02FF2605#0000060909030607
(1788959187.805871) can0 04FF3604#0004000300000100
(1788959187.820872) can0 13B76400#01
(1788959187.824127) can0 03FF1000#0000112200000001
(1788959187.831100) can0 02FF2604#0000000000000000
(1788959187.834873) can0 03FF1001#0000000000000000
(1788959187.835873) can0 04FF3604#0002000300000100
(1788959187.845082) can0 03FF1603#0000D9BE00000000
(1788959187.855878) can0 03FF1605#0100000000000000
(1788959187.861876) can0 02FF2704#0200000000000000
(1788959187.865876) can0 04FF3604#0002000300000100
(1788959187.891900) can0 0260B606#0000000000000000
(1788959187.895877) can0 04FF3604#0005000300000100
(1788959187.921881) can0 02203607#0000000300000000
(1788959187.925879) can0 04FF3604#0005000300000100
(1788959187.929111) can0 03FF1000#0000112200000001
(1788959187.939881) can0 03FF1001#0000000000000000
(1788959187.950090) can0 03FF1603#0000D9BE00000000
(1788959187.955881) can0 04FF3604#0003000300000100
(1788959187.960882) can0 03FF1605#0100000000000000
(1788959187.985884) can0 04FF3604#0004000300000100
(1788959188.009887) can0 05FF4610#0000CE72FFFFFFBE
(1788959188.015888) can0 04FF3604#0003000400000100
(1788959188.034109) can0 03FF1000#0000112200000001
(1788959188.044889) can0 03FF1001#0000000000000000
(1788959188.045888) can0 04FF3604#0005000300000100
(1788959188.055086) can0 03FF1603#0000D9BE00000000
(1788959188.065890) can0 03FF1605#0100000000000000
(1788959188.075891) can0 04FF3604#0005000300000100
(1788959188.105894) can0 04FF3604#0006000300000100
(1788959188.135896) can0 04FF3604#0004000300000100
(1788959188.139138) can0 03FF1000#0000112200000001
(1788959188.141895) can0 13B76400#01
(1788959188.149896) can0 03FF1001#0000000000000000
(1788959188.160117) can0 03FF1603#0000D9BE00000000
(1788959188.165897) can0 04FF3604#0004000300000100
(1788959188.170897) can0 03FF1605#0100000000000000
(1788959188.175898) can0 04FF3602#0000000000000000
(1788959188.195902) can0 04FF3604#0005000300000100
(1788959188.212902) can0 03FF1600#142B000104001319
(1788959188.213900) can0 02181606#0100190001030200
(1788959188.223075) can0 03FF1601#6E50000000000000
(1788959188.225901) can0 04FF3604#0004000300000100
(1788959188.233903) can0 03FF1602#075A850000001324
(1788959188.241111) can0 02203606#0101000100000000
(1788959188.244134) can0 03FF1604#0000000000000000
(1788959188.254904) can0 03FF1000#0000112200000001
(1788959188.255903) can0 04FF3604#0004000300000100
(1788959188.265074) can0 03FF1001#0000000000000000
(1788959188.275906) can0 03FF1603#0000D9BE00000000
(1788959188.285906) can0 04FF3604#0004000300000100
(1788959188.286906) can0 03FF1605#0100000000000000
(1788959188.293063) can0 02181608#0500000001000000
(1788959188.296906) can0 03121606#0000000000000000
(1788959188.299907) can0 05FF4610#0000CE6DFFFFFF87
(1788959188.315908) can0 04FF3604#0004000300000100
(1788959188.321908) can0 02181609#0000000000000000
(1788959188.345910) can0 04FF3604#0005000400000100
(1788959188.349153) can0 03FF1000#0000112200000001
(1788959188.352910) can0 02488600#0000000000000000
(1788959188.359911) can0 03FF1001#0000000000000000
(1788959188.370097) can0 03FF1603#0000D9BE00000000
(1788959188.375912) can0 04FF3604#0004000300000100
(1788959188.380913) can0 03FF1605#0100000000000000
(1788959188.383912) can0 02191501#
(1788959188.384913) can0 05FF4001#0000000000000000
(1788959188.386913) can0 05FF4000#0000000000000000
(1788959188.401915) can0 03FF1501#0000005100000000
(1788959188.405914) can0 04FF3604#0003000300000100
(1788959188.420915) can0 13B76400#01
(1788959188.435917) can0 04FF3604#0005000300000100
(1788959188.454127) can0 03FF1000#0000112200000001
(1788959188.464919) can0 03FF1001#0000000000000000
(1788959188.465919) can0 04FF3604#0004000300000100
(1788959188.466919) can0 05FF4602#E20FE60FE10FE10F
(1788959188.475104) can0 03FF1603#0000D9BE00000000
(1788959188.476919) can0 05FF4603#DE0FE40FE00FE00F
(1788959188.485921) can0 03FF1605#0100000000000000
(1788959188.486921) can0 05FF4604#DF0FE00FE30FE40F
(1788959188.495921) can0 04FF3604#0004000400000100
(1788959188.496921) can0 05FF4605#DB0F000000000000
(1788959188.525927) can0 04FF3604#0005000300000100
(1788959188.526153) can0 05FF4606#151514
(1788959188.535983) can0 05FF4607#141615
(1788959188.546001) can0 05FF4608#0019007C
(1788959188.555926) can0 04FF3604#0005000400000100
(1788959188.556925) can0 05FF4609#0300037003B600
(1788959188.559133) can0 03FF1000#0000112200000001
(1788959188.560141) can0 05FF4610#0000CE6DFFFFFF87
(1788959188.569926) can0 03FF1001#0000000000000000
(1788959188.580101) can0 03FF1603#0000D9BE00000000
(1788959188.585928) can0 04FF3604#0003000300000100
(1788959188.590928) can0 03FF1605#0100000000000000
(1788959188.615930) can0 04FF3604#0004000300000100
(1788959188.645932) can0 04FF3604#0005000400000100
(1788959188.664934) can0 03FF1000#0000112200000001
(1788959188.674934) can0 03FF1001#0000000000000000
(1788959188.675934) can0 04FF3602#0000000000000000
(1788959188.676934) can0 04FF3604#0003000300000100
(1788959188.685135) can0 03FF1603#0000D9BE00000000
(1788959188.695936) can0 03FF1605#0100000000000000
(1788959188.701937) can0 13B76400#01
(1788959188.705937) can0 04FF3604#0002000400000100
(1788959188.711076) can0 02FF2605#0000060909030608
(1788959188.735939) can0 04FF3604#0003000300000100
(1788959188.741136) can0 02FF2604#0000000000000000
(1788959188.765942) can0 04FF3604#0003000300000100
(1788959188.769161) can0 03FF1000#0000112200000001
(1788959188.771191) can0 02FF2704#0200000000000000
(1788959188.779942) can0 03FF1001#0000000000000000
(1788959188.790129) can0 03FF1603#0000D9BE00000000
(1788959188.795943) can0 04FF3604#0003000300000100
(1788959188.800944) can0 03FF1605#0100000000000000
(1788959188.803943) can0 0260B606#0000000000000000
(1788959188.821945) can0 05FF4610#0000CE6DFFFFFF87
(1788959188.825945) can0 04FF3604#0005000400000100
(1788959188.831188) can0 02203607#0000000300000000
(1788959188.855951) can0 04FF3604#0003000300000100
(1788959188.874170) can0 03FF1000#0000112200000001
(1788959188.884950) can0 03FF1001#0000000000000000
(1788959188.885949) can0 04FF3604#0004000300000100
(1788959188.895102) can0 03FF1603#0000D9BE00000000
(1788959188.905951) can0 03FF1605#0100000000000000
(1788959188.915952) can0 04FF3604#0004000400000100
(1788959188.945954) can0 04FF3604#0004000300000100
(1788959188.973957) can0 02181606#0100190001030200
(1788959188.975956) can0 04FF3604#0004000400000100
(1788959188.979176) can0 03FF1000#0000112200000001
(1788959188.981957) can0 13B76400#01
(1788959188.989958) can0 03FF1001#0000000000000000
(1788959189.000120) can0 03FF1603#0000D9BE00000000
(1788959189.001957) can0 02203606#0101000100000000
(1788959189.005959) can0 04FF3604#0003000300000100
(1788959189.010959) can0 03FF1605#0100000000000000
(1788959189.031960) can0 02181608#0500000001000000
(1788959189.035962) can0 04FF3604#0004000400000100
(1788959189.061963) can0 02181609#0000000000000000
(1788959189.065962) can0 04FF3604#0002000300000100
(1788959189.082965) can0 05FF4610#0000CE6DFFFFFF87
(1788959189.084165) can0 03FF1000#0000112200000001
(1788959189.091965) can0 02488600#0000000000000000
(1788959189.094964) can0 03FF1001#0000000000000000
(1788959189.095964) can0 04FF3604#0005000300000100
(1788959189.105128) can0 03FF1603#0000D9BE00000000
(1788959189.115966) can0 03FF1605#0100000000000000
(1788959189.121966) can0 02213500#
(1788959189.125967) can0 04FF3604#0004000400000100
(1788959189.126967) can0 03121606#0000000000000000
(1788959189.130967) can0 04F93500#000000EB00000000
(1788959189.155970) can0 04FF3604#0004000300000100
(1788959189.175970) can0 04FF3602#0000000000000000
(1788959189.185974) can0 04FF3604#0004000300000100
(1788959189.189203) can0 03FF1000#0000112200000001
(1788959189.199972) can0 03FF1001#0000000000000000
(1788959189.210147) can0 03FF1603#0000D9BE00000000
(1788959189.215974) can0 04FF3604#0005000300000100
(1788959189.220975) can0 03FF1605#0100000000000000
(1788959189.231126) can0 03FF1600#142B000104001319
(1788959189.241976) can0 03FF1601#6E50000000000000
(1788959189.245976) can0 04FF3604#0004000300000100
(1788959189.252134) can0 03FF1602#075A850000001324
(1788959189.262978) can0 03FF1604#0000000000000000
(1788959189.271977) can0 13B76400#01
(1788959189.275978) can0 04FF3604#0004000300000100
(1788959189.294188) can0 03FF1000#0000112200000001
(1788959189.304980) can0 03FF1001#0000000000000000
(1788959189.305980) can0 04FF3604#0004000300000100
(1788959189.315143) can0 03FF1603#0000D9BE00000000
(1788959189.325982) can0 03FF1605#0100000000000000
(1788959189.335983) can0 04FF3604#0005000300000100
(1788959189.365985) can0 04FF3604#0004000300000100
(1788959189.395987) can0 04FF3604#0004000300000100
(1788959189.396987) can0 05FF4610#0000CE6FFFFFFF87
(1788959189.399183) can0 03FF1000#0000112200000001
(1788959189.409988) can0 03FF1001#0000000000000000
(1788959189.420150) can0 03FF1603#0000D9BE00000000
(1788959189.425988) can0 04FF3604#0006000300000100
(1788959189.430989) can0 03FF1605#0100000000000000
(1788959189.438141) can0 05FF4001#0000000000000000
(1788959189.440129) can0 05FF4000#0000000000000000
(1788959189.455990) can0 04FF3604#0005000300000100
(1788959189.485994) can0 04FF3604#0007000300000100
(1788959189.504180) can0 03FF1000#0000112200000001
(1788959189.514995) can0 03FF1001#0000000000000000
(1788959189.515995) can0 04FF3604#0005000400000100
(1788959189.520000) can0 05FF4602#E20FE60FE20FE10F
(1788959189.525159) can0 03FF1603#0000D9BE00000000
(1788959189.529997) can0 05FF4603#DF0FE40FE00FE00F
(1788959189.535998) can0 03FF1605#0100000000000000
(1788959189.539999) can0 05FF4604#DF0FE00FE30FE40F
(1788959189.545999) can0 04FF3604#0003000300000100
(1788959189.549999) can0 05FF4605#DB0F000000000000
(1788959189.552136) can0 13B76400#01
(1788959189.576000) can0 04FF3604#0005000400000100
(1788959189.580000) can0 05FF4606#151514
(1788959189.590002) can0 05FF4607#141615
(1788959189.600001) can0 05FF4608#0019007C
(1788959189.606001) can0 04FF3604#0004000400000100
(1788959189.609164) can0 03FF1000#0000112200000001
(1788959189.610002) can0 05FF4609#0300037003B600
(1788959189.620002) can0 03FF1001#0000000000000000
(1788959189.630143) can0 03FF1603#0000D9BE00000000
(1788959189.636004) can0 04FF3604#0005000300000100
(1788959189.641005) can0 03FF1605#0100000000000000
(1788959189.657007) can0 05FF4610#0000CE6FFFFFFF87
(1788959189.666007) can0 04FF3604#0004000300000100
(1788959189.676007) can0 04FF3602#0000000000000000
(1788959189.696012) can0 04FF3604#0004000300000100
(1788959189.714173) can0 03FF1000#0000112200000001
(1788959189.722057) can0 02FF2605#0000060909030609
(1788959189.725010) can0 03FF1001#0000000000000000
(1788959189.726010) can0 04FF3604#0005000400000100
(1788959189.735174) can0 03FF1603#0000D9BE00000000
(1788959189.746012) can0 03FF1605#0100000000000000
(1788959189.752117) can0 02FF2604#0000000000000000
(1788959189.756013) can0 04FF3604#0003000300000100
(1788959189.782098) can0 02FF2704#0200000000000000
(1788959189.786015) can0 04FF3604#0003000300000100
(1788959189.812122) can0 0260B606#0000000000000000
(1788959189.816017) can0 04FF3604#0005000300000100
(1788959189.819202) can0 03FF1000#0000112200000001
(1788959189.830019) can0 03FF1001#0000000000000000
(1788959189.832018) can0 13B76400#01
(1788959189.840159) can0 03FF1603#0000D9BE00000000
(1788959189.842215) can0 02203607#0000000300000000
(1788959189.846019) can0 04FF3604#0003000300000100
(1788959189.851020) can0 03FF1605#0100000000000000
(1788959189.872194) can0 02181606#0100190001030200
(1788959189.876022) can0 04FF3604#0004000400000100
(1788959189.903023) can0 02203606#0101000100000000
(1788959189.906023) can0 04FF3604#0004000300000100
(1788959189.918025) can0 05FF4610#0000CE6FFFFFFF87
(1788959189.924199) can0 03FF1000#0000112200000001
(1788959189.932280) can0 02181608#0500000001000000
(1788959189.935031) can0 03FF1001#0000000000000000
(1788959189.936026) can0 04FF3604#0003000300000100
(1788959189.945144) can0 03FF1603#0000D9BE00000000
(1788959189.956029) can0 03FF1605#0100000000000000
(1788959189.963028) can0 02181609#0000000000000000
(1788959189.966029) can0 04FF3604#0003000300000100
(1788959189.967028) can0 03121606#0000000000000000
(1788959189.993031) can0 02488600#0000000000000000
(1788959189.996030) can0 04FF3604#0004000300000100
(1788959190.022035) can0 02213501#
(1788959190.026035) can0 04FF3604#0004000300000100
(1788959190.029195) can0 03FF1000#0000112200000001
(1788959190.031036) can0 04F93501#0000000400000000
(1788959190.040036) can0 03FF1001#0000000000000000
(1788959190.050163) can0 03FF1603#0000D9BE00000000
(1788959190.056035) can0 04FF3604#0003000300000100
(1788959190.061036) can0 03FF1605#0100000000000000
(1788959190.086038) can0 04FF3604#0004000300000100
(1788959190.112167) can0 13B76400#01
(1788959190.116039) can0 04FF3604#0005000300000100
(1788959190.134192) can0 03FF1000#0000112200000001
(1788959190.145042) can0 03FF1001#0000000000000000
(1788959190.146041) can0 04FF3604#0004000300000100
(1788959190.155170) can0 03FF1603#0000D9BE00000000
(1788959190.166043) can0 03FF1605#0100000000000000
(1788959190.176044) can0 04FF3602#0000000000000000
(1788959190.177044) can0 04FF3604#0002000300000100
(1788959190.180241) can0 05FF4610#0000CE6FFFFFFF87
(1788959190.206050) can0 04FF3604#0004000300000100
(1788959190.229051) can0 03FF1600#142B000104001319
(1788959190.236048) can0 04FF3604#0004000300000100
(1788959190.239222) can0 03FF1601#6E50000000000000
(1788959190.250049) can0 03FF1602#075A850000001324
(1788959190.260174) can0 03FF1604#0000000000000000
(1788959190.266050) can0 04FF3604#0005000300000100
(1788959190.271050) can0 03FF1000#0000112200000001
(1788959190.281191) can0 03FF1001#0000000000000000
(1788959190.292052) can0 03FF1603#0000D9BE00000000
(1788959190.296052) can0 04FF3604#0004000400000100
(1788959190.302192) can0 03FF1605#0100000000000000
(1788959190.326055) can0 04FF3604#0005000400000100
(1788959190.344225) can0 03FF1000#0000112200000001
(1788959190.355057) can0 03FF1001#0000000000000000
(1788959190.356057) can0 04FF3604#0004000400000100
(1788959190.365197) can0 03FF1603#0000D9BE00000000
(1788959190.376058) can0 03FF1605#0100000000000000
(1788959190.386060) can0 04FF3604#0004000300000100
(1788959190.393060) can0 13B76400#01
(1788959190.416061) can0 04FF3604#0003000300000100
(1788959190.446065) can0 04FF3604#0002000400000100
(1788959190.449225) can0 03FF1000#0000112200000001
(1788959190.460065) can0 03FF1001#0000000000000000
(1788959190.468065) can0 05FF4001#0000000000000000
(1788959190.469065) can0 05FF4610#0000CE6DFFFFFF8C
(1788959190.470065) can0 05FF4000#0000000000000000
(1788959190.471065) can0 03FF1603#0000D9BE00000000
(1788959190.476065) can0 04FF3604#0003000400000100
(1788959190.481066) can0 03FF1605#0100000000000000
(1788959190.493068) can0 02181606#0100190001030200
(1788959190.506068) can0 04FF3604#0003000300000100
(1788959190.523073) can0 02203606#0101000100000000
(1788959190.536074) can0 04FF3604#0003000300000100
(1788959190.551074) can0 05FF4602#E20FE60FE10FE10F
(1788959190.553072) can0 02181608#0500000001000000
(1788959190.554222) can0 03FF1000#0000112200000001
(1788959190.561072) can0 05FF4603#DE0FE40FE00FE00F
(1788959190.565072) can0 03FF1001#0000000000000000
(1788959190.566072) can0 04FF3604#0004000300000100
(1788959190.571073) can0 05FF4604#DF0FE00FE30FE40F
(1788959190.575195) can0 03FF1603#0000D9BE00000000
(1788959190.581074) can0 05FF4605#DB0F000000000000
(1788959190.583073) can0 02181609#0000000000000000
(1788959190.586073) can0 03FF1605#0100000000000000
(1788959190.596075) can0 04FF3604#0003000300000100
(1788959190.597074) can0 03121606#0000000000000000
(1788959190.611075) can0 05FF4606#151514
(1788959190.613075) can0 02488600#0000000000000000
(1788959190.621076) can0 05FF4607#141615
(1788959190.626076) can0 04FF3604#0004000400000100
(1788959190.631077) can0 05FF4608#0019007C
(1788959190.641078) can0 05FF4609#0300037003B600
(1788959190.643108) can0 02294502#
(1788959190.645078) can0 05124502#5250313353333541
(1788959190.656079) can0 04FF3604#0004000300000100
(1788959190.659206) can0 03FF1000#0000112200000001
(1788959190.670080) can0 03FF1001#0000000000000000
(1788959190.673080) can0 13B76400#01
(1788959190.676080) can0 04FF3602#0000000000000000
(1788959190.680220) can0 03FF1603#0000D9BE00000000
(1788959190.686084) can0 04FF3604#0004000300000100
(1788959190.691084) can0 03FF1605#0100000000000000
(1788959190.716084) can0 04FF3604#0003000300000100
(1788959190.731085) can0 05FF4610#0000CE6DFFFFFF8C
(1788959190.733103) can0 02FF2605#0000060909030600
(1788959190.746086) can0 04FF3604#0005000400000100
(1788959190.763098) can0 02FF2604#0000000000000000
(1788959190.764243) can0 03FF1000#0000112200000001
(1788959190.775089) can0 03FF1001#0000000000000000
(1788959190.776086) can0 04FF3604#0005000400000100
(1788959190.785227) can0 03FF1603#0000D9BE00000000
(1788959190.793135) can0 02FF2704#0200000000000000
(1788959190.796088) can0 03FF1605#0100000000000000
(1788959190.806090) can0 04FF3604#0004000300000100
(1788959190.823149) can0 0260B606#0000000000000000
(1788959190.836092) can0 04FF3604#0004000300000100
(1788959190.853180) can0 02203607#0000000300000000
(1788959190.866097) can0 04FF3604#0003000300000100
(1788959190.869256) can0 03FF1000#0000112200000001
(1788959190.880095) can0 03FF1001#0000000000000000
(1788959190.890188) can0 03FF1603#0000D9BE00000000
(1788959190.896096) can0 04FF3604#0003000400000100
(1788959190.901096) can0 03FF1605#0100000000000000
(1788959190.926100) can0 04FF3604#0003000300000100
(1788959190.953100) can0 13B76400#01
(1788959190.956100) can0 04FF3604#0005000400000100
(1788959190.974241) can0 03FF1000#0000112200000001
(1788959190.985103) can0 03FF1001#0000000000000000
(1788959190.986102) can0 04FF3604#0005000300000100
(1788959190.994220) can0 05FF4610#0000CE6DFFFFFF8C
(1788959190.995230) can0 03FF1603#0000D9BE00000000
(1788959191.006103) can0 03FF1605#0100000000000000
(1788959191.016105) can0 04FF3604#0005000300000100
(1788959191.046108) can0 04FF3604#0004000300000100
(1788959191.076109) can0 04FF3604#0004000300000100
(1788959191.079253) can0 03FF1000#0000112200000001
(1788959191.090111) can0 03FF1001#0000000000000000
(1788959191.100204) can0 03FF1603#0000D9BE00000000
(1788959191.106111) can0 04FF3604#0003000300000100
(1788959191.111111) can0 03FF1605#0100000000000000
(1788959191.136114) can0 04FF3604#0002000300000100
(1788959191.166116) can0 04FF3604#0005000300000100
(1788959191.176116) can0 04FF3602#0000000000000000
(1788959191.184247) can0 03FF1000#0000112200000001
(1788959191.195119) can0 03FF1001#0000000000000000
(1788959191.196117) can0 04FF3604#0004000300000100
(1788959191.205245) can0 03FF1603#0000D9BE00000000
(1788959191.216120) can0 03FF1605#0100000000000000
(1788959191.226120) can0 04FF3604#0003000300000100
(1788959191.233294) can0 13B76400#01
(1788959191.237120) can0 03FF1600#142B000104001319
(1788959191.247249) can0 03FF1601#6E50000000000000
(1788959191.256121) can0 04FF3604#0004000300000100
(1788959191.258122) can0 03FF1602#075A850000001324
(1788959191.268251) can0 03FF1604#0000000000000000
(1788959191.272157) can0 02181606#0100190001030200
(1788959191.284124) can0 05FF4610#0000CE6DFFFFFF8C
(1788959191.286124) can0 04FF3604#0003000300000100
(1788959191.289274) can0 03FF1000#0000112200000001
(1788959191.294125) can0 02203606#0101000100000000
(1788959191.300125) can0 03FF1001#0000000000000000
(1788959191.310241) can0 03FF1603#0000D9BE00000000
(1788959191.316126) can0 04FF3604#0005000300000100
(1788959191.321126) can0 03FF1605#0100000000000000
(1788959191.324126) can0 02181608#0500000001000000
(1788959191.331208) can0 03121606#0000000000000000
(1788959191.346129) can0 04FF3604#0005000300000100
(1788959191.354129) can0 02181609#0000000000000000
(1788959191.376131) can0 04FF3604#0006000300000100
(1788959191.384131) can0 02488600#0000000000000000
(1788959191.394260) can0 03FF1000#0000112200000001
(1788959191.405132) can0 03FF1001#0000000000000000
(1788959191.406132) can0 04FF3604#0004000300000100
(1788959191.414134) can0 02294503#
(1788959191.415133) can0 05124503#001702150000019A
(1788959191.415385) can0 03FF1603#0000D9BE00000000
(1788959191.426135) can0 03FF1605#0100000000000000
(1788959191.436135) can0 04FF3604#0004000300000100
(1788959191.466138) can0 04FF3604#0005000300000100
(1788959191.496140) can0 04FF3604#0004000300000100
(1788959191.499266) can0 03FF1000#0000112200000001
(1788959191.502139) can0 05FF4001#0000000000000000
(1788959191.504140) can0 05FF4000#0000000000000000
(1788959191.510140) can0 03FF1001#0000000000000000
(1788959191.514140) can0 13B76400#01
(1788959191.520234) can0 03FF1603#0000D9BE00000000
(1788959191.526145) can0 04FF3604#0005000400000100
(1788959191.531142) can0 03FF1605#0100000000000000
(1788959191.546144) can0 05FF4610#0000CE6DFFFFFF8C
(1788959191.556144) can0 04FF3604#0003000400000100
(1788959191.584147) can0 05FF4602#E20FE60FE10FE10F
(1788959191.586151) can0 04FF3604#0004000300000100
(1788959191.594148) can0 05FF4603#DE0FE40FE00FE00F
(1788959191.604148) can0 05FF4604#DF0FE00FE30FE40F
(1788959191.604249) can0 03FF1000#0000112200000001
(1788959191.614148) can0 05FF4605#DB0F000000000000
(1788959191.615147) can0 03FF1001#0000000000000000
(1788959191.616148) can0 04FF3604#0005000300000100
(1788959191.625242) can0 03FF1603#0000D9BE00000000
(1788959191.636150) can0 03FF1605#0100000000000000
(1788959191.643319) can0 05FF4606#151514
(1788959191.646150) can0 04FF3604#0005000300000100
(1788959191.653347) can0 05FF4607#141615
(1788959191.663372) can0 05FF4608#0019007C
(1788959191.674152) can0 05FF4609#0300037003B600
(1788959191.676152) can0 04FF3602#0000000000000000
(1788959191.676369) can0 04FF3604#0005000300000100
(1788959191.706158) can0 04FF3604#0006000400000100
(1788959191.709259) can0 03FF1000#0000112200000001
(1788959191.720155) can0 03FF1001#0000000000000000
(1788959191.730237) can0 03FF1603#0000D9BE00000000
(1788959191.736156) can0 04FF3604#0004000300000100
(1788959191.741157) can0 03FF1605#0100000000000000
(1788959191.744157) can0 02FF2605#0000060909030601
(1788959191.766160) can0 04FF3604#0002000300000100
(1788959191.774322) can0 02FF2604#0000000000000000
(1788959191.794161) can0 13B76400#01
(1788959191.796167) can0 04FF3604#0003000400000100
(1788959191.804164) can0 02FF2704#0200000000000000
(1788959191.808343) can0 05FF4610#0000CE6DFFFFFF8C
(1788959191.814289) can0 03FF1000#0000112200000001
(1788959191.825164) can0 03FF1001#0000000000000000
(1788959191.826163) can0 04FF3604#0003000300000100
(1788959191.834205) can0 0260B606#0000000000000000
(1788959191.835256) can0 03FF1603#0000D9BE00000000
(1788959191.846165) can0 03FF1605#0100000000000000
(1788959191.856174) can0 04FF3604#0003000300000100
(1788959191.866329) can0 02203607#0000000300000000
(1788959191.886169) can0 04FF3604#0006000300000100
(1788959191.916170) can0 04FF3604#0004000300000100
(1788959191.919285) can0 03FF1000#0000112200000001
(1788959191.930171) can0 03FF1001#0000000000000000
(1788959191.940253) can0 03FF1603#0000D9BE00000000
(1788959191.946172) can0 04FF3604#0003000300000100
(1788959191.951172) can0 03FF1605#0100000000000000
(1788959191.976175) can0 04FF3604#0003000300000100
(1788959192.006176) can0 04FF3604#0005000400000100
(1788959192.014339) can0 02181606#0100190001030200
(1788959192.024353) can0 03FF1000#0000112200000001
(1788959192.035179) can0 03FF1001#0000000000000000
(1788959192.036178) can0 04FF3604#0004000400000100
(1788959192.044364) can0 02203606#0101000100000000
(1788959192.045225) can0 03FF1603#0000D9BE00000000
(1788959192.056181) can0 03FF1605#0100000000000000
(1788959192.066181) can0 04FF3604#0005000300000100
(1788959192.073181) can0 05FF4610#0000CE6DFFFFFF8C
(1788959192.074193) can0 13B76400#01
(1788959192.075181) can0 02181608#0500000001000000
(1788959192.096185) can0 04FF3604#0004000300000100
(1788959192.104408) can0 02181609#0000000000000000
(1788959192.126188) can0 04FF3604#0005000300000100
(1788959192.129301) can0 03FF1000#0000112200000001
(1788959192.135185) can0 02488600#0000000000000000
(1788959192.140187) can0 03FF1001#0000000000000000
(1788959192.150257) can0 03FF1603#0000D9BE00000000
(1788959192.156187) can0 04FF3604#0003000300000100
(1788959192.161187) can0 03FF1605#0100000000000000
(1788959192.165188) can0 02294504#
(1788959192.166188) can0 05124504#1D
(1788959192.171264) can0 03121606#0000000000000000
(1788959192.176189) can0 04FF3602#0000000000000000
(1788959192.186192) can0 04FF3604#0003000300000100
(1788959192.216193) can0 04FF3604#0004000300000100
(1788959192.234274) can0 03FF1000#0000112200000001
(1788959192.245194) can0 03FF1001#0000000000000000
(1788959192.246193) can0 04FF3604#0005000300000100
(1788959192.255252) can0 03FF1603#0000D9BE00000000
(1788959192.266196) can0 03FF1605#0100000000000000
(1788959192.276197) can0 04FF3604#0005000300000100
(1788959192.276355) can0 03FF1600#142B000104001319
(1788959192.287197) can0 03FF1601#6E50000000000000
(1788959192.297228) can0 03FF1602#075A850000001324
(1788959192.306198) can0 04FF3604#0003000400000100
(1788959192.308198) can0 03FF1604#0000000000000000
(1788959192.336202) can0 04FF3604#0005000300000100
(1788959192.339316) can0 03FF1000#0000112200000001
(1788959192.350201) can0 03FF1001#0000000000000000
(1788959192.360284) can0 03FF1603#0000D9BE00000000
(1788959192.366203) can0 05FF4610#0000CE6CFFFFFF92
(1788959192.366253) can0 04FF3604#0004000300000100
(1788959192.371202) can0 03FF1605#0100000000000000
(1788959192.396205) can0 04FF3604#0003000400000100
(1788959192.426207) can0 04FF3604#0002000300000100
(1788959192.444296) can0 03FF1000#0000112200000001
(1788959192.455209) can0 03FF1001#0000000000000000
(1788959192.456209) can0 04FF3604#0004000300000100
(1788959192.465268) can0 03FF1603#0000D9BE00000000
(1788959192.476211) can0 03FF1605#0100000000000000
(1788959192.486212) can0 04FF3604#0003000300000100
(1788959192.516214) can0 04FF3604#0006000400000100
(1788959192.541220) can0 05FF4001#0000000000000000
(1788959192.542385) can0 05FF4000#0000000000000000
(1788959192.546215) can0 04FF3604#0006000400000100
(1788959192.549331) can0 03FF1000#0000112200000001
(1788959192.560216) can0 03FF1001#0000000000000000
(1788959192.570259) can0 03FF1603#0000D9BE00000000
(1788959192.576219) can0 04FF3604#0005000300000100
(1788959192.581218) can0 03FF1605#0100000000000000
(1788959192.606221) can0 04FF3604#0004000300000100
(1788959192.623227) can0 05FF4602#E10FE60FE20FE10F
(1788959192.628235) can0 05FF4610#0000CE6CFFFFFF92
(1788959192.633245) can0 05FF4603#DE0FE40FE00FE00F
(1788959192.636222) can0 04FF3604#0002000300000100
(1788959192.643223) can0 05FF4604#DE0FE00FE30FE40F
(1788959192.653224) can0 05FF4605#DB0F000000000000
(1788959192.654304) can0 03FF1000#0000112200000001
(1788959192.665225) can0 03FF1001#0000000000000000
(1788959192.666224) can0 04FF3604#0004000300000100
(1788959192.675260) can0 03FF1603#0000D9BE00000000
(1788959192.676225) can0 04FF3602#0000000000000000
(1788959192.683229) can0 05FF4606#151514
(1788959192.686226) can0 03FF1605#0100000000000000
(1788959192.693227) can0 05FF4607#141615
(1788959192.696226) can0 04FF3604#0004000300000100
(1788959192.703227) can0 05FF4608#0019007C
(1788959192.713228) can0 05FF4609#0300037003B600
(1788959192.726230) can0 04FF3604#0003000400000100
(1788959192.756231) can0 04FF3604#0004000400000100
(1788959192.756390) can0 02FF2605#0000060909030602
(1788959192.759295) can0 03FF1000#0000112200000001
(1788959192.770232) can0 03FF1001#0000000000000000
(1788959192.780268) can0 03FF1603#0000D9BE00000000
(1788959192.785232) can0 02FF2604#0000000000000000
(1788959192.786233) can0 04FF3604#0005000300000100
(1788959192.791233) can0 03FF1605#0100000000000000
(1788959192.815236) can0 02FF2704#0200000000000000
(1788959192.816235) can0 04FF3604#0004000400000100
(1788959192.845245) can0 0260B606#0000000000000000
(1788959192.846238) can0 04FF3604#0005000300000100
(1788959192.864301) can0 03FF1000#0000112200000001
(1788959192.875241) can0 03FF1001#0000000000000000
(1788959192.875510) can0 02203607#0000000300000000
(1788959192.876239) can0 04FF3604#0004000300000100
(1788959192.885309) can0 03FF1603#0000D9BE00000000
(1788959192.891241) can0 05FF4610#0000CE6CFFFFFF92
(1788959192.896242) can0 03FF1605#0100000000000000
(1788959192.905242) can0 02181606#0100190001030200
(1788959192.906241) can0 04FF3604#0004000400000100
(1788959192.912243) can0 05FF4600#0D0400C00303
(1788959192.935459) can0 02203606#0101000100000000
(1788959192.936244) can0 04FF3604#0004000300000100
(1788959192.965281) can0 02181608#0500000001000000
(1788959192.966246) can0 04FF3604#0004000300000100
(1788959192.969334) can0 03FF1000#0000112200000001
(1788959192.980247) can0 03FF1001#0000000000000000
(1788959192.990306) can0 03FF1603#0000D9BE00000000
(1788959192.996249) can0 04FF3604#0004000400000100
(1788959192.998248) can0 02181609#0000000000000000
(1788959193.001248) can0 03FF1605#0100000000000000
(1788959193.011295) can0 03121606#0000000000000000
(1788959193.025344) can0 02488600#0000000000000000
(1788959193.026250) can0 04FF3604#0005000300000100
(1788959193.055253) can0 02191502#
(1788959193.056254) can0 04FF3604#0003000300000100
(1788959193.074347) can0 03FF1000#0000112200000001
(1788959193.085254) can0 03FF1001#0000000000000000
(1788959193.086254) can0 04FF3604#0005000300000100
(1788959193.095302) can0 03FF1502#0100000000000000
(1788959193.106257) can0 03FF1603#0000D9BE00000000
(1788959193.116264) can0 04FF3604#0006000400000100
(1788959193.116382) can0 03FF1605#0100000000000000
(1788959193.146263) can0 04FF3604#0005000300000100
(1788959193.155261) can0 05FF4610#0000CE6CFFFFFF92
(1788959193.176262) can0 04FF3602#0000000000000000
(1788959193.176397) can0 04FF3604#0005000300000100
(1788959193.179331) can0 03FF1000#0000112200000001
(1788959193.190266) can0 03FF1001#0000000000000000
(1788959193.200294) can0 03FF1603#0000D9BE00000000
(1788959193.206263) can0 04FF3604#0004000400000100
(1788959193.211264) can0 03FF1605#0100000000000000
(1788959193.236266) can0 04FF3604#0004000300000100
(1788959193.253268) can0 03FF1600#142B000104001319
(1788959193.263314) can0 03FF1601#6E50000000000000
(1788959193.266268) can0 04FF3604#0004000400000100
(1788959193.274269) can0 03FF1602#075A850000001324
(1788959193.284322) can0 03FF1604#0000000000000000
(1788959193.295271) can0 03FF1000#0000112200000001
(1788959193.296271) can0 04FF3604#0004000300000100
(1788959193.305306) can0 03FF1001#0000000000000000
(1788959193.316273) can0 03FF1603#0000D9BE00000000
(1788959193.326272) can0 04FF3604#0005000300000100
(1788959193.326385) can0 03FF1605#0100000000000000
(1788959193.356276) can0 04FF3604#0004000400000100
(1788959193.386277) can0 04FF3604#0002000300000100
(1788959193.389324) can0 03FF1000#0000112200000001
(1788959193.400278) can0 03FF1001#0000000000000000
(1788959193.410325) can0 03FF1603#0000D9BE00000000
(1788959193.416278) can0 04FF3604#0004000300000100
(1788959193.421279) can0 03FF1605#0100000000000000
(1788959193.445282) can0 05FF4610#0000CE6CFFFFFF92
(1788959193.446281) can0 04FF3604#0005000400000100
(1788959193.476284) can0 04FF3604#0004000300000100
(1788959193.494342) can0 03FF1000#0000112200000001
(1788959193.505286) can0 03FF1001#0000000000000000
(1788959193.506285) can0 04FF3604#0004000300000100
(1788959193.515321) can0 03FF1603#0000D9BE00000000
(1788959193.526292) can0 03FF1605#0100000000000000
(1788959193.536289) can0 04FF3604#0006000300000100
(1788959193.536366) can0 02181606#0100190001030200
(1788959193.566289) can0 04FF3604#0005000400000100
(1788959193.566380) can0 02203606#0101000100000000
(1788959193.579291) can0 05FF4001#0000000000000000
(1788959193.581291) can0 05FF4000#0000000000000000
(1788959193.596292) can0 04FF3604#0005000300000100
(1788959193.596395) can0 02181608#0500000001000000
(1788959193.599361) can0 03FF1000#0000112200000001
(1788959193.610293) can0 03FF1001#0000000000000000
(1788959193.620323) can0 03FF1603#0000D9BE00000000
(1788959193.626296) can0 04FF3604#0003000400000100
(1788959193.626395) can0 02181609#0000000000000000
(1788959193.631294) can0 03FF1605#0100000000000000
(1788959193.641303) can0 03121606#0000000000000000
(1788959193.656297) can0 04FF3604#0005000300000100
(1788959193.656374) can0 02488600#0000000000000000
(1788959193.661297) can0 05FF4602#E20FE60FE10FE10F
(1788959193.671298) can0 05FF4603#DE0FE40FDF0FE00F
(1788959193.676298) can0 04FF3602#0000000000000000
(1788959193.681298) can0 05FF4604#DF0FE00FE30FE40F
(1788959193.686302) can0 04FF3604#0004000300000100
(1788959193.686365) can0 02191503#
(1788959193.691299) can0 05FF4605#DB0F000000000000
(1788959193.704359) can0 03FF1000#0000112200000001
(1788959193.709300) can0 05FF4610#0000CE6CFFFFFF92
(1788959193.715300) can0 03FF1001#0000000000000000
(1788959193.716300) can0 04FF3604#0004000300000100
(1788959193.722301) can0 05FF4606#151514
(1788959193.725336) can0 03FF1503#0100000000000000
(1788959193.732303) can0 05FF4607#141615
(1788959193.736302) can0 03FF1603#0000D9BE00000000
(1788959193.742302) can0 05FF4608#0019007C
(1788959193.746302) can0 04FF3604#0004000400000100
(1788959193.746404) can0 03FF1605#0100000000000000
(1788959193.752304) can0 05FF4609#0300037003B600
(1788959193.766306) can0 02FF2605#0000060909030603
(1788959193.776306) can0 04FF3604#0005000300000100
(1788959193.796307) can0 02FF2604#0000000000000000
(1788959193.806307) can0 04FF3604#0004000300000100
(1788959193.809353) can0 03FF1000#0000112200000001
(1788959193.820308) can0 03FF1001#0000000000000000
(1788959193.828309) can0 02FF2704#0200000000000000
(1788959193.830367) can0 03FF1603#0000D9BE00000000
(1788959193.836309) can0 04FF3604#0004000300000100
(1788959193.841310) can0 03FF1605#0100000000000000
(1788959193.856316) can0 0260B606#0000000000000000
(1788959193.866312) can0 04FF3604#0004000300000100
(1788959193.886313) can0 02203607#0000000300000000
(1788959193.896314) can0 04FF3604#0005000400000100
(1788959193.914334) can0 03FF1000#0000112200000001
(1788959193.925317) can0 03FF1001#0000000000000000
(1788959193.926316) can0 04FF3604#0005000300000100
(1788959193.935351) can0 03FF1603#0000D9BE00000000
(1788959193.946318) can0 03FF1605#0100000000000000
(1788959193.956319) can0 04FF3604#0004000400000100
(1788959193.972517) can0 05FF4610#0000CE6CFFFFFF92
(1788959193.986320) can0 04FF3604#0005000300000100
(1788959194.016323) can0 04FF3604#0005000400000100
(1788959194.019357) can0 03FF1000#0000112200000001
(1788959194.030325) can0 03FF1001#0000000000000000
(1788959194.040336) can0 03FF1603#0000D9BE00000000
(1788959194.046324) can0 04FF3604#0003000300000100
(1788959194.051325) can0 03FF1605#0100000000000000
(1788959194.076328) can0 04FF3604#0003000300000100
(1788959194.106338) can0 04FF3604#0004000300000100
(1788959194.124389) can0 03FF1000#0000112200000001
(1788959194.135332) can0 03FF1001#0000000000000000
(1788959194.136331) can0 04FF3604#0004000300000100
(1788959194.145332) can0 03FF1603#0000D9BE00000000
(1788959194.156332) can0 03FF1605#0100000000000000
(1788959194.166334) can0 04FF3604#0005000300000100
(1788959194.176335) can0 04FF3400#0000000000000000
(1788959194.176408) can0 04FF3602#0000000000000000
(1788959194.187373) can0 03FF1400#0000000000000000
(1788959194.196337) can0 04FF3604#0003000300000100
(1788959194.207337) can0 02F82400#C48D000000000000
(1788959194.226339) can0 04FF3604#0003000300000100
(1788959194.229361) can0 03FF1000#0000112200000001
(1788959194.236501) can0 02FF2602#04E10BC514B19B63
(1788959194.238339) can0 05FF4610#0000CE6CFFFFFF92
(1788959194.240339) can0 03FF1001#0000000000000000
(1788959194.250340) can0 03FF1603#0000D9BE00000000
(1788959194.256341) can0 04FF3604#0005000300000100
(1788959194.261340) can0 03FF1605#0100000000000000
(1788959194.271342) can0 03FF1600#142B000104001319
(1788959194.282342) can0 03FF1601#6E50000000000000
(1788959194.286342) can0 04FF3604#0007000300000100
(1788959194.292343) can0 03FF1602#075A850000001324
(1788959194.297342) can0 02181606#0100190001030200
(1788959194.303343) can0 03FF1604#0000000000000000
(1788959194.316345) can0 04FF3604#0004000300000100
(1788959194.327345) can0 02203606#0101000100000000
(1788959194.334381) can0 03FF1000#0000112200000001
(1788959194.345349) can0 03FF1001#0000000000000000
(1788959194.346347) can0 04FF3604#0005000400000100
(1788959194.355382) can0 03FF1603#0000D9BE00000000
(1788959194.357347) can0 02181608#0500000001000000
(1788959194.366349) can0 03FF1605#0100000000000000
(1788959194.376349) can0 04FF3604#0003000400000100
(1788959194.376404) can0 03121606#0000000000000000
(1788959194.387349) can0 02181609#0000000000000000
(1788959194.406352) can0 04FF3604#0004000400000100
(1788959194.417352) can0 02488600#0000000000000000
(1788959194.436353) can0 04FF3604#0004000300000100
(1788959194.439364) can0 03FF1000#0000112200000001
(1788959194.446412) can0 02191504#
(1788959194.450354) can0 03FF1001#0000000000000000
(1788959194.460354) can0 03FF1603#0000D9BE00000000
(1788959194.466355) can0 04FF3604#0004000400000100
(1788959194.471355) can0 03FF1605#0100000000000000
(1788959194.481357) can0 03FF1504#0000001D00000000
(1788959194.496358) can0 04FF3604#0004000300000100
(1788959194.525364) can0 05FF4610#0000CE6BFFFFFF8C
(1788959194.526360) can0 04FF3604#0005000300000100
(1788959194.544396) can0 03FF1000#0000112200000001
(1788959194.555363) can0 03FF1001#0000000000000000
(1788959194.556362) can0 04FF3604#0005000300000100
(1788959194.565362) can0 03FF1603#0000D9BE00000000
(1788959194.576364) can0 03FF1605#0100000000000000
(1788959194.586364) can0 04FF3604#0004000300000100
(1788959194.613366) can0 05FF4001#0000000000000000
(1788959194.615366) can0 05FF4000#0000000000000000
(1788959194.616366) can0 04FF3604#0005000300000100
(1788959194.646369) can0 04FF3604#0004000300000100
(1788959194.649399) can0 03FF1000#0000112200000001
(1788959194.660369) can0 03FF1001#0000000000000000
(1788959194.670371) can0 03FF1603#0000D9BE00000000
(1788959194.676371) can0 04FF3602#0000000000000000
(1788959194.676426) can0 04FF3604#0004000400000100
(1788959194.681371) can0 03FF1605#0100000000000000
(1788959194.694596) can0 05FF4602#E10FE60FE10FE10F
(1788959194.704582) can0 05FF4603#DE0FE40FE00FE00F
(1788959194.706372) can0 04FF3604#0003000300000100
(1788959194.715594) can0 05FF4604#DE0FE00FE30FE40F
(1788959194.725571) can0 05FF4605#DB0F000000000000
(1788959194.736374) can0 04FF3604#0004000300000100
(1788959194.754395) can0 03FF1000#0000112200000001
(1788959194.755376) can0 05FF4606#151514
(1788959194.765381) can0 03FF1001#0000000000000000
(1788959194.765444) can0 05FF4607#141615
(1788959194.766377) can0 04FF3604#0006000400000100
(1788959194.775378) can0 03FF1603#0000D9BE00000000
(1788959194.776378) can0 05FF4608#0019007C
(1788959194.777377) can0 02FF2605#0000060909030604
(1788959194.785478) can0 05FF4609#0300037003B600
(1788959194.786378) can0 03FF1605#0100000000000000
(1788959194.786631) can0 05FF4610#0000CE6BFFFFFF8C
(1788959194.796380) can0 04FF3604#0005000300000100
(1788959194.807381) can0 02FF2604#0000000000000000
(1788959194.826381) can0 04FF3604#0003000300000100
(1788959194.839382) can0 02FF2704#0200000000000000
(1788959194.856387) can0 04FF3604#0005000300000100
(1788959194.859442) can0 03FF1000#0000112200000001
(1788959194.867385) can0 0260B606#0000000000000000
(1788959194.870385) can0 03FF1001#0000000000000000
(1788959194.880386) can0 03FF1603#0000D9BE00000000
(1788959194.886386) can0 04FF3604#0005000300000100
(1788959194.891386) can0 03FF1605#0100000000000000
(1788959194.897387) can0 02203607#0000000300000000
(1788959194.916389) can0 04FF3604#0004000300000100
(1788959194.946391) can0 04FF3604#0003000300000100
(1788959194.964426) can0 03FF1000#0000112200000001
(1788959194.975393) can0 03FF1001#0000000000000000
(1788959194.976392) can0 04FF3604#0003000300000100
(1788959194.985394) can0 03FF1603#0000D9BE00000000
(1788959194.996394) can0 03FF1605#0100000000000000
(1788959195.006395) can0 04FF3604#0004000300000100
(1788959195.036398) can0 04FF3604#0004000300000100
(1788959195.050399) can0 05FF4610#0000CE6BFFFFFF8C
(1788959195.059398) can0 02181606#0100190001030200
(1788959195.066399) can0 04FF3604#0004000400000100
(1788959195.069410) can0 03FF1000#0000112200000001
(1788959195.080400) can0 03FF1001#0000000000000000
(1788959195.087400) can0 02203606#0101000100000000
(1788959195.090400) can0 03FF1603#0000D9BE00000000
(1788959195.096402) can0 04FF3604#0005000300000100
(1788959195.101401) can0 03FF1605#0100000000000000
(1788959195.126404) can0 04FF3604#0005000400000100
(1788959195.137438) can0 02181608#0500000001000000
(1788959195.156406) can0 04FF3604#0003000300000100
(1788959195.167406) can0 02181609#0000000000000000
(1788959195.174418) can0 03FF1000#0000112200000001
(1788959195.176407) can0 04FF3602#0000000000000000
(1788959195.185410) can0 03FF1001#0000000000000000
(1788959195.186407) can0 04FF3604#0003000300000100
(1788959195.195408) can0 03FF1603#0000D9BE00000000
(1788959195.197477) can0 02488600#0000000000000000
(1788959195.206410) can0 03FF1605#0100000000000000
(1788959195.216409) can0 04FF3604#0004000300000100
(1788959195.216476) can0 03121606#0000000000000000
(1788959195.227410) can0 02213502#
(1788959195.236412) can0 04F93502#0000000000000000
(1788959195.246412) can0 04FF3604#0005000300000100
(1788959195.269414) can0 03FF1600#142B000104001319
(1788959195.276415) can0 04FF3604#0002000300000100
(1788959195.279414) can0 03FF1601#6E50000000000000
(1788959195.290415) can0 03FF1602#075A850000001324
(1788959195.300416) can0 03FF1604#0000000000000000
(1788959195.306416) can0 04FF3604#0004000300000100
(1788959195.311417) can0 03FF1000#0000112200000001
(1788959195.321417) can0 03FF1001#0000000000000000
(1788959195.332418) can0 03FF1603#0000D9BE00000000
(1788959195.336418) can0 04FF3604#0004000400000100
(1788959195.342419) can0 05FF4610#0000CE6DFFFFFF87
(1788959195.342481) can0 03FF1605#0100000000000000
(1788959195.366421) can0 04FF3604#0003000400000100
(1788959195.384457) can0 03FF1000#0000112200000001
(1788959195.395423) can0 03FF1001#0000000000000000
(1788959195.396423) can0 04FF3604#0004000300000100
(1788959195.405424) can0 03FF1603#0000D9BE00000000
(1788959195.416424) can0 03FF1605#0100000000000000
(1788959195.426425) can0 04FF3604#0002000300000100
(1788959195.456427) can0 04FF3604#0005000300000100
(1788959195.486430) can0 04FF3604#0005000400000100
(1788959195.489429) can0 03FF1000#0000112200000001
(1788959195.500430) can0 03FF1001#0000000000000000
(1788959195.510432) can0 03FF1603#0000D9BE00000000
(1788959195.516431) can0 04FF3604#0004000400000100
(1788959195.521432) can0 03FF1605#0100000000000000
(1788959195.546438) can0 04FF3604#0003000300000100
(1788959195.576437) can0 04FF3604#0002000300000100
(1788959195.594437) can0 03FF1000#0000112200000001
(1788959195.605439) can0 03FF1001#0000000000000000
(1788959195.605551) can0 05FF4610#0000CE6DFFFFFF87
(1788959195.606438) can0 04FF3604#0005000300000100
(1788959195.615439) can0 03FF1603#0000D9BE00000000
(1788959195.626440) can0 03FF1605#0100000000000000
(1788959195.636440) can0 04FF3604#0006000300000100
(1788959195.651518) can0 05FF4001#0000000000000000
(1788959195.653522) can0 05FF4000#0000000000000000
(1788959195.666443) can0 04FF3604#0003000300000100
(1788959195.676444) can0 04FF3602#0000000000000000
(1788959195.696448) can0 04FF3604#0004000300000100
(1788959195.699445) can0 03FF1000#0000112200000001
(1788959195.710446) can0 03FF1001#0000000000000000
(1788959195.720447) can0 03FF1603#0000D9BE00000000
(1788959195.726446) can0 04FF3604#0003000400000100
(1788959195.731447) can0 03FF1605#0100000000000000
(1788959195.734447) can0 05FF4602#E20FE60FE10FE10F
(1788959195.745449) can0 05FF4603#DE0FE40FE00FE00F
(1788959195.756450) can0 04FF3604#0005000400000100
(1788959195.756504) can0 05FF4604#DF0FE00FE30FE40F
(1788959195.766508) can0 05FF4605#DB0F000000000000
(1788959195.786452) can0 04FF3604#0003000300000100
(1788959195.789451) can0 02FF2605#0000060909030605
(1788959195.796452) can0 05FF4606#151514
(1788959195.804453) can0 03FF1000#0000112200000001
(1788959195.806453) can0 05FF4607#141615
(1788959195.815453) can0 03FF1001#0000000000000000
(1788959195.816453) can0 04FF3604#0003000300000100
(1788959195.816508) can0 05FF4608#0019007C
(1788959195.818453) can0 02FF2604#0000000000000000
(1788959195.825454) can0 03FF1603#0000D9BE00000000
(1788959195.826453) can0 05FF4609#0300037003B600
(1788959195.836455) can0 03FF1605#0100000000000000
(1788959195.846456) can0 04FF3604#0003000300000100
(1788959195.848455) can0 02FF2704#0200000000000000
(1788959195.870460) can0 05FF4610#0000CE6DFFFFFF87
(1788959195.876459) can0 04FF3604#0004000300000100
(1788959195.878457) can0 0260B606#0000000000000000
(1788959195.906461) can0 04FF3604#0005000300000100
(1788959195.908460) can0 02203607#0000000300000000
(1788959195.909460) can0 03FF1000#0000112200000001
(1788959195.920461) can0 03FF1001#0000000000000000
(1788959195.930462) can0 03FF1603#0000D9BE00000000
(1788959195.936463) can0 04FF3604#0005000300000100
(1788959195.938462) can0 02181606#0100190001030200
(1788959195.941462) can0 03FF1605#0100000000000000
(1788959195.966464) can0 04FF3604#0005000300000100
(1788959195.968464) can0 02203606#0101000100000000
(1788959195.996467) can0 04FF3604#0005000400000100
(1788959195.998466) can0 02181608#0500000001000000
(1788959196.014479) can0 03FF1000#0000112200000001
(1788959196.025468) can0 03FF1001#0000000000000000
(1788959196.026468) can0 04FF3604#0003000300000100
(1788959196.028469) can0 02181609#0000000000000000
(1788959196.035469) can0 03FF1603#0000D9BE00000000
(1788959196.046471) can0 03FF1605#0100000000000000
(1788959196.056472) can0 04FF3604#0004000300000100
(1788959196.056525) can0 03121606#0000000000000000
(1788959196.058605) can0 02488600#0000000000000000
(1788959196.086474) can0 04FF3604#0004000300000100
(1788959196.088473) can0 02213503#
(1788959196.096474) can0 04F93503#0000000000000000
(1788959196.116475) can0 04FF3604#0004000300000100
(1788959196.119475) can0 03FF1000#0000112200000001
(1788959196.130477) can0 03FF1001#0000000000000000
(1788959196.133476) can0 05FF4610#0000CE6DFFFFFF87
(1788959196.140477) can0 03FF1603#0000D9BE00000000
(1788959196.146477) can0 04FF3604#0005000300000100
(1788959196.151479) can0 03FF1605#0100000000000000
(1788959196.176480) can0 04FF3602#0000000000000000
(1788959196.176530) can0 04FF3604#0004000400000100
(1788959196.206485) can0 04FF3604#0003000300000100
(1788959196.224483) can0 03FF1000#0000112200000001
(1788959196.235484) can0 03FF1001#0000000000000000
(1788959196.236483) can0 04FF3604#0006000400000100
(1788959196.245485) can0 03FF1603#0000D9BE00000000
(1788959196.256486) can0 03FF1605#0100000000000000
(1788959196.266486) can0 04FF3604#0004000300000100
(1788959196.277487) can0 03FF1600#142B000104001319
(1788959196.287487) can0 03FF1601#6E50000000000000
(1788959196.296489) can0 04FF3604#0004000400000100
(1788959196.298488) can0 03FF1602#075A850000001324
(1788959196.308490) can0 03FF1604#0000000000000000
(1788959196.326490) can0 04FF3604#0004000300000100
(1788959196.329490) can0 03FF1000#0000112200000001
(1788959196.340491) can0 03FF1001#0000000000000000
(1788959196.350493) can0 03FF1603#0000D9BE00000000
(1788959196.356493) can0 04FF3604#0003000300000100
(1788959196.361492) can0 03FF1605#0100000000000000
(1788959196.386495) can0 04FF3604#0004000300000100
(1788959196.416496) can0 04FF3604#0003000300000100
(1788959196.424729) can0 05FF4610#0000CE6DFFFFFF92
(1788959196.434499) can0 03FF1000#0000112200000001
(1788959196.445499) can0 03FF1001#0000000000000000
(1788959196.446499) can0 04FF3604#0003000300000100
(1788959196.455500) can0 03FF1603#0000D9BE00000000
(1788959196.466500) can0 03FF1605#0100000000000000
(1788959196.476502) can0 04FF3604#0004000300000100
(1788959196.506504) can0 04FF3604#0004000300000100
(1788959196.536511) can0 04FF3604#0004000300000100
(1788959196.539507) can0 03FF1000#0000112200000001
(1788959196.550508) can0 03FF1001#0000000000000000
(1788959196.560508) can0 03FF1603#0000D9BE00000000
(1788959196.566508) can0 04FF3604#0005000300000100
(1788959196.571508) can0 03FF1605#0100000000000000
(1788959196.579509) can0 02181606#0100190001030200
(1788959196.596511) can0 04FF3604#0005000300000100
(1788959196.609511) can0 02203606#0101000100000000
(1788959196.626513) can0 04FF3604#0005000300000100
(1788959196.639513) can0 02181608#0500000001000000
(1788959196.644514) can0 03FF1000#0000112200000001
(1788959196.655515) can0 03FF1001#0000000000000000
(1788959196.656514) can0 04FF3604#0004000300000100
(1788959196.665516) can0 03FF1603#0000D9BE00000000
(1788959196.669515) can0 02181609#0000000000000000
(1788959196.676515) can0 04FF3602#0000000000000000
(1788959196.676572) can0 03FF1605#0100000000000000
(1788959196.686520) can0 04FF3604#0004000300000100
(1788959196.686573) can0 03121606#0000000000000000
(1788959196.687516) can0 05FF4610#0000CE6DFFFFFF92
(1788959196.688517) can0 05FF4001#0000000000000000
(1788959196.690516) can0 05FF4000#0000000000000000
(1788959196.699715) can0 02488600#0000000000000000
(1788959196.716519) can0 04FF3604#0004000300000100
(1788959196.728671) can0 02213504#
(1788959196.736520) can0 04F93504#0000000000000000
(1788959196.746521) can0 04FF3604#0005000300000100
(1788959196.749521) can0 03FF1000#0000112200000001
(1788959196.760522) can0 03FF1001#0000000000000000
(1788959196.770522) can0 03FF1603#0000D9BE00000000
(1788959196.771523) can0 05FF4602#E20FE60FE10FE10F
(1788959196.776524) can0 04FF3604#0005000300000100
(1788959196.781523) can0 03FF1605#0100000000000000
(1788959196.781578) can0 05FF4603#DE0FE40FE00FE00F
(1788959196.791525) can0 05FF4604#DF0FE00FE30FE40F
(1788959196.799525) can0 02FF2605#0000060909030606
(1788959196.801525) can0 05FF4605#DB0F000000000000
(1788959196.806525) can0 04FF3604#0005000300000100
(1788959196.829528) can0 02FF2604#0000000000000000
(1788959196.832527) can0 05FF4606#151514
(1788959196.836527) can0 04FF3604#0004000400000100
(1788959196.842527) can0 05FF4607#141615
(1788959196.852529) can0 05FF4608#0019007C
(1788959196.854533) can0 03FF1000#0000112200000001
(1788959196.859530) can0 02FF2704#0200000000000000
(1788959196.862529) can0 05FF4609#0300037003B600
(1788959196.865530) can0 03FF1001#0000000000000000
(1788959196.866529) can0 04FF3604#0003000300000100
(1788959196.875531) can0 03FF1603#0000D9BE00000000
(1788959196.886532) can0 03FF1605#0100000000000000
(1788959196.889531) can0 0260B606#0000000000000000
(1788959196.896532) can0 04FF3604#0004000300000100
(1788959196.919534) can0 02203607#0000000300000000
(1788959196.926534) can0 04FF3604#0003000300000100
(1788959196.950537) can0 05FF4610#0000CE6DFFFFFF92
(1788959196.956537) can0 04FF3604#0004000300000100
(1788959196.959536) can0 03FF1000#0000112200000001
(1788959196.970537) can0 03FF1001#0000000000000000
(1788959196.980539) can0 03FF1603#0000D9BE00000000
(1788959196.986538) can0 04FF3604#0004000300000100
(1788959196.991538) can0 03FF1605#0100000000000000
(1788959197.016541) can0 04FF3604#0004000300000100
(1788959197.046544) can0 04FF3604#0003000300000100
(1788959197.064545) can0 03FF1000#0000112200000001
(1788959197.075545) can0 03FF1001#0000000000000000
(1788959197.076544) can0 04FF3604#0003000300000100
(1788959197.085546) can0 03FF1603#0000D9BE00000000
(1788959197.096546) can0 03FF1605#0100000000000000
(1788959197.106547) can0 04FF3604#0004000300000100
(1788959197.136549) can0 04FF3604#0003000400000100
(1788959197.166551) can0 04FF3604#0003000300000100
(1788959197.169551) can0 03FF1000#0000112200000001
(1788959197.176553) can0 04FF3602#0000000000000000
(1788959197.180553) can0 03FF1001#0000000000000000
(1788959197.190556) can0 03FF1603#0000D9BE00000000
(1788959197.196555) can0 04FF3604#0004000400000100
(1788959197.201554) can0 03FF1605#0100000000000000
(1788959197.213556) can0 05FF4610#0000CE6DFFFFFF92
(1788959197.226556) can0 04FF3604#0005000300000100
(1788959197.256559) can0 04FF3604#0005000300000100
(1788959197.274560) can0 03FF1000#0000112200000001
(1788959197.285560) can0 03FF1001#0000000000000000
(1788959197.286560) can0 04FF3604#0005000400000100
(1788959197.295561) can0 03FF1603#0000D9BE00000000
(1788959197.306562) can0 03FF1605#0100000000000000
(1788959197.316563) can0 04FF3604#0003000300000100
(1788959197.316618) can0 03FF1600#142B000104001319
(1788959197.327563) can0 03FF1601#6E50000000000000
(1788959197.337564) can0 03FF1602#075A850000001324
(1788959197.346564) can0 04FF3604#0004000300000100
(1788959197.348565) can0 03FF1604#0000000000000000
(1788959197.376567) can0 04FF3604#0004000400000100
(1788959197.379566) can0 03FF1000#0000112200000001
(1788959197.390568) can0 03FF1001#0000000000000000
(1788959197.400569) can0 03FF1603#0000D9BE00000000
(1788959197.406569) can0 04FF3604#0005000300000100
(1788959197.411569) can0 03FF1605#0100000000000000
(1788959197.423570) can0 02181606#0100190001030200
(1788959197.436572) can0 04FF3604#0003000300000100
(1788959197.449677) can0 02203606#0101000100000000
(1788959197.466575) can0 04FF3604#0006000300000100
(1788959197.479720) can0 02181608#0500000001000000
(1788959197.484575) can0 03FF1000#0000112200000001
(1788959197.495575) can0 03FF1001#0000000000000000
(1788959197.495827) can0 04FF3604#0004000400000100
(1788959197.500600) can0 05FF4610#0000CE6EFFFFFF92
(1788959197.505576) can0 03FF1603#0000D9BE00000000
(1788959197.509750) can0 02181609#0000000000000000
(1788959197.516577) can0 03FF1605#0100000000000000
(1788959197.525827) can0 04FF3604#0005000300000100
(1788959197.526577) can0 03121606#0000000000000000
(1788959197.555838) can0 04FF3604#0003000300000100
(1788959197.586583) can0 04FF3604#0004000300000100
(1788959197.589582) can0 03FF1000#0000112200000001
(1788959197.600583) can0 03FF1001#0000000000000000
(1788959197.610584) can0 03FF1603#0000D9BE00000000
(1788959197.615735) can0 02488600#0000000000000000
(1788959197.616584) can0 04FF3604#0005000400000100
(1788959197.621584) can0 03FF1605#0100000000000000
(1788959197.639586) can0 02213600#
(1788959197.645829) can0 04FF3604#0003000300000100
(1788959197.675838) can0 04FF3602#0000000000000000
(1788959197.676588) can0 04FF3604#0003000400000100
(1788959197.694593) can0 03FF1000#0000112200000001
(1788959197.705592) can0 03FF1001#0000000000000000
(1788959197.705838) can0 04FF3604#0004000400000100
(1788959197.715592) can0 03FF1603#0000D9BE00000000
(1788959197.721592) can0 05FF4001#0000000000000000
(1788959197.723592) can0 05FF4000#0000000000000000
(1788959197.726592) can0 03FF1605#0100000000000000
(1788959197.735837) can0 04FF3604#0003000300000100
(1788959197.762596) can0 05FF4610#0000CE6EFFFFFF92
(1788959197.765838) can0 04FF3604#0005000400000100
(1788959197.795847) can0 04FF3604#0004000400000100
(1788959197.799597) can0 03FF1000#0000112200000001
(1788959197.804599) can0 05FF4602#E20FE60FE20FE10F
(1788959197.810598) can0 03FF1001#0000000000000000
(1788959197.810648) can0 02FF2605#0000060909030607
(1788959197.814599) can0 05FF4603#DE0FE40FE00FE00F
(1788959197.820599) can0 03FF1603#0000D9BE00000000
(1788959197.824599) can0 05FF4604#DF0FE00FE30FE40F
(1788959197.825842) can0 04FF3604#0005000300000100
(1788959197.831599) can0 03FF1605#0100000000000000
(1788959197.834600) can0 05FF4605#DB0F000000000000
(1788959197.840601) can0 02FF2604#0000000000000000
(1788959197.855855) can0 04FF3604#0004000400000100
(1788959197.865603) can0 05FF4606#151514
(1788959197.872603) can0 02FF2704#0200000000000000
(1788959197.875603) can0 05FF4607#141615
(1788959197.885604) can0 05FF4608#0019007C
(1788959197.885856) can0 04FF3604#0004000300000100
(1788959197.895604) can0 05FF4609#0300037003B600
(1788959197.900605) can0 0260B606#0000000000000000
(1788959197.904605) can0 03FF1000#0000112200000001
(1788959197.915606) can0 03FF1001#0000000000000000
(1788959197.915846) can0 04FF3604#0005000400000100
(1788959197.925606) can0 03FF1603#0000D9BE00000000
(1788959197.930607) can0 02203607#0000000300000000
(1788959197.936608) can0 03FF1605#0100000000000000
(1788959197.945851) can0 04FF3604#0004000300000100
(1788959197.975842) can0 04FF3604#0004000400000100
(1788959198.005828) can0 04FF3604#0004000300000100
(1788959198.009613) can0 03FF1000#0000112200000001
(1788959198.020613) can0 03FF1001#0000000000000000
(1788959198.028615) can0 05FF4610#0000CE6EFFFFFF92
(1788959198.030615) can0 03FF1603#0000D9BE00000000
(1788959198.035835) can0 04FF3604#0004000300000100
(1788959198.038800) can0 05FF4400#00000002
(1788959198.041616) can0 03FF1605#0100000000000000
(1788959198.065833) can0 04FF3604#0003000300000100
(1788959198.089804) can0 05FF4600#0D0400C00303
(1788959198.095850) can0 04FF3604#0003000300000100
(1788959198.114621) can0 03FF1000#0000112200000001
(1788959198.120620) can0 02181606#0100190001030200
(1788959198.125621) can0 03FF1001#0000000000000000
(1788959198.125861) can0 04FF3604#0004000300000100
(1788959198.135623) can0 03FF1603#0000D9BE00000000
(1788959198.139714) can0 05FF4601#006600000000
(1788959198.146623) can0 03FF1605#0100000000000000
(1788959198.150623) can0 02203606#0101000100000000
(1788959198.155855) can0 04FF3604#0003000400000100
(1788959198.175841) can0 04FF3602#0000000000000000
(1788959198.180625) can0 02181608#0500000001000000
(1788959198.185838) can0 04FF3604#0005000300000100
(1788959198.210628) can0 02181609#0000000000000000
(1788959198.215832) can0 04FF3604#0003000300000100
(1788959198.219628) can0 03FF1000#0000112200000001
(1788959198.230629) can0 03FF1001#0000000000000000
(1788959198.240630) can0 03FF1603#0000D9BE00000000
(1788959198.241630) can0 02488600#0000000000000000
(1788959198.245838) can0 04FF3604#0004000300000100
(1788959198.251630) can0 03FF1605#0100000000000000
(1788959198.261632) can0 03121606#0000000000000000
(1788959198.270631) can0 02213601#
(1788959198.275841) can0 04FF3604#0005000300000100
(1788959198.291634) can0 05FF4610#0000CE6EFFFFFF92
(1788959198.293633) can0 03FF1600#142B000104001319
(1788959198.303635) can0 03FF1601#6E50000000000000
(1788959198.305831) can0 04FF3604#0005000300000100
(1788959198.314635) can0 03FF1602#075A850000001324
(1788959198.324635) can0 03FF1604#0000000000000000
(1788959198.335637) can0 03FF1000#0000112200000001
(1788959198.335842) can0 04FF3604#0005000400000100
(1788959198.345637) can0 03FF1001#0000000000000000
(1788959198.356638) can0 03FF1603#0000D9BE00000000
(1788959198.365843) can0 04FF3604#0003000300000100
(1788959198.366639) can0 03FF1605#0100000000000000
(1788959198.395861) can0 04FF3604#0005000400000100
(1788959198.425851) can0 04FF3604#0005000400000100
(1788959198.429643) can0 03FF1000#0000112200000001
(1788959198.440645) can0 03FF1001#0000000000000000
(1788959198.450645) can0 03FF1603#0000D9BE00000000
(1788959198.455853) can0 04FF3604#0005000300000100
(1788959198.461646) can0 03FF1605#0100000000000000
(1788959198.485856) can0 04FF3604#0003000300000100
(1788959198.515858) can0 04FF3604#0004000300000100
(1788959198.534654) can0 03FF1000#0000112200000001
(1788959198.545653) can0 03FF1001#0000000000000000
(1788959198.545846) can0 04FF3604#0002000300000100
(1788959198.555653) can0 03FF1603#0000D9BE00000000
(1788959198.566653) can0 03FF1605#0100000000000000
(1788959198.575834) can0 04FF3604#0004000300000100
(1788959198.581654) can0 05FF4610#0000CE6EFFFFFF8C
(1788959198.605832) can0 04FF3604#0005000300000100
(1788959198.635844) can0 04FF3604#0003000300000100
(1788959198.639658) can0 03FF1000#0000112200000001
(1788959198.650659) can0 03FF1001#0000000000000000
(1788959198.660661) can0 03FF1603#0000D9BE00000000
(1788959198.665834) can0 04FF3604#0004000300000100
(1788959198.671660) can0 03FF1605#0100000000000000
(1788959198.675846) can0 04FF3602#0000000000000000
(1788959198.695851) can0 04FF3604#0005000300000100
(1788959198.725839) can0 04FF3604#0005000300000100
(1788959198.744668) can0 03FF1000#0000112200000001
(1788959198.755667) can0 03FF1001#0000000000000000
(1788959198.755849) can0 04FF3604#0003000300000100
(1788959198.759667) can0 05FF4001#0000000000000000
(1788959198.761667) can0 05FF4000#0000000000000000
(1788959198.765672) can0 03FF1603#0000D9BE00000000
(1788959198.776669) can0 03FF1605#0100000000000000
(1788959198.785855) can0 04FF3604#0003000400000100
(1788959198.815841) can0 04FF3604#0006000300000100
(1788959198.821672) can0 02FF2605#0000060909030608
(1788959198.841847) can0 05FF4602#E20FE60FE20FE10F
(1788959198.843871) can0 05FF4610#0000CE6EFFFFFF8C
(1788959198.845831) can0 04FF3604#0006000300000100
(1788959198.849674) can0 03FF1000#0000112200000001
(1788959198.851848) can0 05FF4603#DE0FE40FE00FE00F
(1788959198.853674) can0 02FF2604#0000000000000000
(1788959198.860679) can0 03FF1001#0000000000000000
(1788959198.862826) can0 05FF4604#DF0FE00FE30FE40F
(1788959198.870676) can0 03FF1603#0000D9BE00000000
(1788959198.873676) can0 05FF4605#DB0F000000000000
(1788959198.875838) can0 04FF3604#0003000300000100
(1788959198.881677) can0 03FF1605#0100000000000000
(1788959198.881743) can0 02FF2704#0200000000000000
(1788959198.903678) can0 05FF4606#151514
(1788959198.905840) can0 04FF3604#0005000300000100
(1788959198.911678) can0 0260B606#0000000000000000
(1788959198.914678) can0 05FF4607#141615
(1788959198.924679) can0 05FF4608#0019007C
(1788959198.934727) can0 05FF4609#0300037003B600
(1788959198.935842) can0 04FF3604#0003000300000100
(1788959198.941681) can0 02203607#0000000300000000
(1788959198.954682) can0 03FF1000#0000112200000001
(1788959198.965683) can0 03FF1001#0000000000000000
(1788959198.965853) can0 04FF3604#0004000300000100
(1788959198.972682) can0 02181606#0100190001030200
(1788959198.975683) can0 03FF1603#0000D9BE00000000
(1788959198.986685) can0 03FF1605#0100000000000000
(1788959198.995835) can0 04FF3604#0002000300000100
(1788959199.001685) can0 02203606#0101000100000000
(1788959199.025848) can0 04FF3604#0004000300000100
(1788959199.031687) can0 02181608#0500000001000000
(1788959199.055841) can0 04FF3604#0003000300000100
(1788959199.059689) can0 03FF1000#0000112200000001
(1788959199.061689) can0 02181609#0000000000000000
(1788959199.070691) can0 03FF1001#0000000000000000
(1788959199.080691) can0 03FF1603#0000D9BE00000000
(1788959199.085841) can0 04FF3604#0004000300000100
(1788959199.091691) can0 03FF1605#0100000000000000
(1788959199.091759) can0 02488600#0000000000000000
(1788959199.101692) can0 03121606#0000000000000000
(1788959199.108694) can0 05FF4610#0000CE6EFFFFFF8C
(1788959199.115855) can0 04FF3604#0004000300000100
(1788959199.141696) can0 02294611#
(1788959199.144695) can0 05124611#005F46D800003E4F
(1788959199.145857) can0 04FF3604#0004000400000100
(1788959199.164698) can0 03FF1000#0000112200000001
(1788959199.175698) can0 03FF1001#0000000000000000
(1788959199.175857) can0 04FF3602#0000000000000000
(1788959199.176697) can0 04FF3604#0004000300000100
(1788959199.185702) can0 03FF1603#0000D9BE00000000
(1788959199.196701) can0 03FF1605#0100000000000000
(1788959199.205841) can0 04FF3604#0005000300000100
(1788959199.235853) can0 04FF3604#0004000300000100
(1788959199.265845) can0 04FF3604#0003000400000100
(1788959199.269704) can0 03FF1000#0000112200000001
(1788959199.280706) can0 03FF1001#0000000000000000
(1788959199.290706) can0 03FF1603#0000D9BE00000000
(1788959199.295852) can0 04FF3604#0004000300000100
(1788959199.301706) can0 03FF1605#0100000000000000
(1788959199.311708) can0 03FF1600#142B000104001319
(1788959199.322708) can0 03FF1601#6E50000000000000
(1788959199.325854) can0 04FF3604#0004000300000100
(1788959199.332710) can0 03FF1602#075A850000001324
(1788959199.343710) can0 03FF1604#0000000000000000
(1788959199.355849) can0 04FF3604#0003000400000100
(1788959199.374712) can0 03FF1000#0000112200000001
(1788959199.385713) can0 03FF1001#0000000000000000
(1788959199.385860) can0 04FF3604#0005000400000100
(1788959199.395714) can0 03FF1603#0000D9BE00000000
(1788959199.397714) can0 05FF4610#0000CE6CFFFFFF92
(1788959199.406715) can0 03FF1605#0100000000000000
(1788959199.415854) can0 04FF3604#0003000300000100
(1788959199.445845) can0 04FF3604#0005000300000100
(1788959199.475854) can0 04FF3604#0003000300000100
(1788959199.479719) can0 03FF1000#0000112200000001
(1788959199.490720) can0 03FF1001#0000000000000000
(1788959199.500721) can0 03FF1603#0000D9BE00000000
(1788959199.505849) can0 04FF3604#0005000300000100
(1788959199.511722) can0 03FF1605#0100000000000000
(1788959199.535855) can0 04FF3604#0004000300000100
(1788959199.565854) can0 04FF3604#0003000300000100
(1788959199.584728) can0 03FF1000#0000112200000001
(1788959199.595729) can0 03FF1001#0000000000000000
(1788959199.595876) can0 04FF3604#0005000400000100
(1788959199.605729) can0 03FF1603#0000D9BE00000000
(1788959199.616730) can0 03FF1605#0100000000000000
(1788959199.621788) can0 02181606#0100190001030200
(1788959199.625846) can0 04FF3604#0004000400000100
(1788959199.651813) can0 02203606#0101000100000000
(1788959199.655860) can0 04FF3604#0003000300000100
(1788959199.658814) can0 05FF4610#0000CE6CFFFFFF92
(1788959199.675850) can0 04FF3602#0000000000000000
(1788959199.681966) can0 02181608#0500000001000000
(1788959199.685989) can0 04FF3604#0003000400000100
(1788959199.689735) can0 03FF1000#0000112200000001
(1788959199.700736) can0 03FF1001#0000000000000000
(1788959199.710738) can0 03FF1603#0000D9BE00000000
(1788959199.711929) can0 02181609#0000000000000000
(1788959199.715853) can0 04FF3604#0005000400000100
(1788959199.721738) can0 03FF1605#0100000000000000
(1788959199.731738) can0 03121606#0000000000000000
(1788959199.742740) can0 02488600#0000000000000000
(1788959199.745854) can0 04FF3604#0005000300000100
(1788959199.771742) can0 02294612#
(1788959199.772741) can0 05124612#0000000000000000
(1788959199.775852) can0 04FF3604#0003000400000100
(1788959199.792743) can0 05FF4001#0000000000000000
(1788959199.794742) can0 03FF1000#0000112200000001
(1788959199.795742) can0 05FF4000#0000000000000000
(1788959199.805744) can0 03FF1001#0000000000000000
(1788959199.805857) can0 04FF3604#0004000300000100
(1788959199.815745) can0 03FF1603#0000D9BE00000000
(1788959199.826745) can0 03FF1605#0100000000000000
(1788959199.832746) can0 02FF2605#0000060909030609
(1788959199.835861) can0 04FF3604#0002000300000100
(1788959199.862751) can0 02FF2604#0000000000000000
(1788959199.865852) can0 04FF3604#0004000300000100
(1788959199.874750) can0 05FF4602#E10FE60FE10FE10F
(1788959199.885750) can0 05FF4603#DE0FE40FE00FE00F
(1788959199.892750) can0 02FF2704#0200000000000000
(1788959199.895750) can0 05FF4604#DF0FE00FE30FE40F
(1788959199.896750) can0 04FF3604#0004000300000100
(1788959199.899750) can0 03FF1000#0000112200000001
(1788959199.905751) can0 05FF4605#DB0F000000000000
(1788959199.910751) can0 03FF1001#0000000000000000
(1788959199.920753) can0 05FF4610#0000CE6CFFFFFF92
(1788959199.921751) can0 03FF1603#0000D9BE00000000
(1788959199.923752) can0 0260B606#0000000000000000
(1788959199.925856) can0 04FF3604#0004000300000100
(1788959199.931752) can0 03FF1605#0100000000000000
(1788959199.935752) can0 05FF4606#151514
(1788959199.945754) can0 05FF4607#141615
(1788959199.952754) can0 02203607#0000000300000000
(1788959199.955754) can0 05FF4608#0019007C
(1788959199.955891) can0 04FF3604#0005000300000100
(1788959199.965755) can0 05FF4609#0300037003B600
(1788959199.985849) can0 04FF3604#0005000300000100
(1788959200.004758) can0 03FF1000#0000112200000001
(1788959200.015759) can0 03FF1001#0000000000000000
(1788959200.015849) can0 04FF3604#0004000400000100
(1788959200.025759) can0 03FF1603#0000D9BE00000000
(1788959200.036761) can0 03FF1605#0100000000000000
(1788959200.045865) can0 04FF3604#0006000300000100
(1788959200.075856) can0 04FF3604#0004000300000100
(1788959200.105858) can0 04FF3604#0005000300000100
(1788959200.109765) can0 03FF1000#0000112200000001
(1788959200.120767) can0 03FF1001#0000000000000000
(1788959200.130767) can0 03FF1603#0000D9BE00000000
(1788959200.135848) can0 04FF3604#0003000400000100
(1788959200.141768) can0 03FF1605#0100000000000000
(1788959200.165851) can0 04FF3604#0004000300000100
(1788959200.175862) can0 04FF3602#0000000000000000
(1788959200.182772) can0 05FF4610#0000CE6CFFFFFF92
(1788959200.195863) can0 04FF3604#0006000400000100
(1788959200.214774) can0 03FF1000#0000112200000001
(1788959200.225775) can0 03FF1001#0000000000000000
(1788959200.225863) can0 04FF3604#0005000400000100
(1788959200.235775) can0 03FF1603#0000D9BE00000000
(1788959200.246776) can0 03FF1605#0100000000000000
(1788959200.255857) can0 04FF3604#0003000300000100
(1788959200.285871) can0 04FF3604#0005000300000100
(1788959200.309780) can0 03FF1600#142B000104001319
(1788959200.315861) can0 04FF3604#0004000400000100
(1788959200.319781) can0 03FF1601#6E50000000000000
(1788959200.330781) can0 03FF1602#075A850000001324
(1788959200.340783) can0 03FF1604#0000000000000000
(1788959200.345887) can0 04FF3604#0004000300000100
(1788959200.351783) can0 03FF1000#0000112200000001
(1788959200.361784) can0 03FF1001#0000000000000000
(1788959200.372785) can0 03FF1603#0000D9BE00000000
(1788959200.375854) can0 04FF3604#0004000400000100
(1788959200.382786) can0 03FF1605#0100000000000000
(1788959200.383785) can0 02181606#0100190001030200
(1788959200.405856) can0 04FF3604#0005000400000100
(1788959200.412788) can0 02203606#0101000100000000
(1788959200.424789) can0 03FF1000#0000112200000001
(1788959200.435790) can0 03FF1001#0000000000000000
(1788959200.435862) can0 04FF3604#0006000300000100
(1788959200.442790) can0 02181608#0500000001000000
(1788959200.445790) can0 03FF1603#0000D9BE00000000
(1788959200.456791) can0 03FF1605#0100000000000000
(1788959200.465845) can0 04FF3604#0005000300000100
(1788959200.466791) can0 03121606#0000000000000000
(1788959200.472792) can0 02181609#0000000000000000
(1788959200.473792) can0 05FF4610#0000CE6EFFFFFF92
(1788959200.495863) can0 04FF3604#0005000300000100
(1788959200.502794) can0 02488600#0000000000000000
(1788959200.525866) can0 04FF3604#0002000400000100
(1788959200.529796) can0 03FF1000#0000112200000001
(1788959200.534819) can0 02294613#
(1788959200.535796) can0 05124613#0000000000000000
(1788959200.540797) can0 03FF1001#0000000000000000
(1788959200.550798) can0 03FF1603#0000D9BE00000000
(1788959200.555839) can0 04FF3604#0005000300000100
(1788959200.561798) can0 03FF1605#0100000000000000
(1788959200.585858) can0 04FF3604#0005000400000100
(1788959200.615873) can0 04FF3604#0004000300000100
(1788959200.634804) can0 03FF1000#0000112200000001
(1788959200.645805) can0 03FF1001#0000000000000000
(1788959200.645882) can0 04FF3604#0003000300000100
(1788959200.655805) can0 03FF1603#0000D9BE00000000
(1788959200.666806) can0 03FF1605#0100000000000000
(1788959200.675877) can0 04FF3602#0000000000000000
(1788959200.676806) can0 04FF3604#0004000300000100
(1788959200.705857) can0 04FF3604#0005000300000100
(1788959200.735814) can0 05FF4610#0000CE6EFFFFFF92
(1788959200.735984) can0 04FF3604#0004000400000100
(1788959200.739812) can0 03FF1000#0000112200000001
(1788959200.750843) can0 03FF1001#0000000000000000
(1788959200.760815) can0 03FF1603#0000D9BE00000000
(1788959200.765860) can0 04FF3604#0003000300000100
(1788959200.771813) can0 03FF1605#0100000000000000
(1788959200.795864) can0 04FF3604#0004000300000100
(1788959200.825861) can0 04FF3604#0004000300000100
(1788959200.828819) can0 05FF4001#0000000000000000
(1788959200.830818) can0 05FF4000#0000000000000000
(1788959200.843820) can0 02FF2605#0000060909030600
(1788959200.844819) can0 03FF1000#0000112200000001
(1788959200.855823) can0 03FF1001#0000000000000000
(1788959200.855877) can0 04FF3604#0004000300000100
(1788959200.865821) can0 03FF1603#0000D9BE00000000
(1788959200.873077) can0 02FF2604#0000000000000000
(1788959200.876075) can0 03FF1605#0100000000000000
(1788959200.885860) can0 04FF3604#0005000300000100
(1788959200.903824) can0 02FF2704#0200000000000000
(1788959200.911825) can0 05FF4602#E20FE60FE20FE10F
(1788959200.915859) can0 04FF3604#0005000300000100
(1788959200.921826) can0 05FF4603#DE0FE40FE00FE00F
(1788959200.931826) can0 05FF4604#DF0FE00FE30FE40F
(1788959200.933825) can0 0260B606#0000000000000000
(1788959200.941827) can0 05FF4605#DB0F000000000000
(1788959200.945861) can0 04FF3604#0005000300000100
(1788959200.949827) can0 03FF1000#0000112200000001
(1788959200.960829) can0 03FF1001#0000000000000000
(1788959200.963827) can0 02203607#0000000300000000
(1788959200.970830) can0 03FF1603#0000D9BE00000000
(1788959200.970987) can0 05FF4606#151514
(1788959200.975870) can0 04FF3604#0004000400000100
(1788959200.981830) can0 03FF1605#0100000000000000
(1788959200.981907) can0 05FF4607#141615
(1788959200.991910) can0 05FF4608#0019007C
(1788959201.000832) can0 05FF4610#0000CE6EFFFFFF92
(1788959201.002015) can0 05FF4609#0300037003B600
(1788959201.005878) can0 04FF3604#0003000300000100
(1788959201.035883) can0 04FF3604#0004000300000100
(1788959201.054838) can0 03FF1000#0000112200000001
(1788959201.065836) can0 03FF1001#0000000000000000
(1788959201.065890) can0 04FF3604#0004000300000100
(1788959201.075836) can0 03FF1603#0000D9BE00000000
(1788959201.086838) can0 03FF1605#0100000000000000
(1788959201.095872) can0 04FF3604#0004000300000100
(1788959201.125876) can0 04FF3604#0006000300000100
(1788959201.143842) can0 02181606#0100190001030200
(1788959201.155873) can0 04FF3604#0003000300000100
(1788959201.159842) can0 03FF1000#0000112200000001
(1788959201.170843) can0 03FF1001#0000000000000000
(1788959201.173843) can0 02203606#0101000100000000
(1788959201.175877) can0 04FF3602#0000000000000000
(1788959201.180844) can0 03FF1603#0000D9BE00000000
(1788959201.185867) can0 04FF3604#0005000300000100
(1788959201.191844) can0 03FF1605#0100000000000000
(1788959201.201844) can0 03121606#0000000000000000
(1788959201.203846) can0 02181608#0500000001000000
(1788959201.215870) can0 04FF3604#0005000300000100
(1788959201.233848) can0 02181609#0000000000000000
(1788959201.245894) can0 04FF3604#0004000300000100
(1788959201.263851) can0 02488600#0000000000000000
(1788959201.264850) can0 03FF1000#0000112200000001
(1788959201.265850) can0 05FF4610#0000CE6EFFFFFF92
(1788959201.275105) can0 03FF1001#0000000000000000
(1788959201.275873) can0 04FF3604#0003000300000100
(1788959201.285852) can0 03FF1603#0000D9BE00000000
(1788959201.295852) can0 02294614#
(1788959201.296116) can0 03FF1605#0100000000000000
(1788959201.296852) can0 05124614#0FE6010FDB0C000B
(1788959201.305877) can0 04FF3604#0004000300000100
(1788959201.317853) can0 03FF1600#142B000104001319
(1788959201.327854) can0 03FF1601#6E50000000000000
(1788959201.335867) can0 04FF3604#0004000400000100
(1788959201.338113) can0 03FF1602#075A850000001324
(1788959201.348857) can0 03FF1604#0000000000000000
(1788959201.365881) can0 04FF3604#0003000300000100
(1788959201.369857) can0 03FF1000#0000112200000001
(1788959201.380858) can0 03FF1001#0000000000000000
(1788959201.390858) can0 03FF1603#0000D9BE00000000
(1788959201.395870) can0 04FF3604#0003000400000100
(1788959201.401091) can0 03FF1605#0100000000000000
(1788959201.425862) can0 04FF3604#0005000400000100
(1788959201.455870) can0 04FF3604#0003000300000100
(1788959201.474865) can0 03FF1000#0000112200000001
(1788959201.485121) can0 03FF1001#0000000000000000
(1788959201.485877) can0 04FF3604#0003000400000100
(1788959201.495867) can0 03FF1603#0000D9BE00000000
(1788959201.506122) can0 03FF1605#0100000000000000
(1788959201.515880) can0 04FF3604#0005000300000100
(1788959201.545874) can0 04FF3604#0002000300000100
(1788959201.556872) can0 05FF4610#0000CE6DFFFFFF92
(1788959201.575873) can0 04FF3604#0005000300000100
(1788959201.579872) can0 03FF1000#0000112200000001
(1788959201.590873) can0 03FF1001#0000000000000000
(1788959201.600874) can0 03FF1603#0000D9BE00000000
(1788959201.605885) can0 04FF3604#0004000400000100
(1788959201.611874) can0 03FF1605#0100000000000000
(1788959201.635876) can0 04FF3604#0004000400000100
(1788959201.665879) can0 04FF3604#0005000300000100
(1788959201.675880) can0 04FF3602#0000000000000000
(1788959201.684882) can0 03FF1000#0000112200000001
(1788959201.695136) can0 03FF1001#0000000000000000
(1788959201.695880) can0 04FF3604#0005000300000100
(1788959201.705882) can0 03FF1603#0000D9BE00000000
(1788959201.716138) can0 03FF1605#0100000000000000
(1788959201.725883) can0 04FF3604#0006000300000100
(1788959201.755886) can0 04FF3604#0003000400000100
(1788959201.785889) can0 04FF3604#0004000300000100
(1788959201.789888) can0 03FF1000#0000112200000001
(1788959201.800143) can0 03FF1001#0000000000000000
(1788959201.810890) can0 03FF1603#0000D9BE00000000
(1788959201.815889) can0 04FF3604#0005000400000100
(1788959201.819098) can0 05FF4610#0000CE6DFFFFFF92
(1788959201.821133) can0 03FF1605#0100000000000000
(1788959201.845892) can0 04FF3604#0004000300000100
(1788959201.854020) can0 02FF2605#0000060909030602
(1788959201.866908) can0 05FF4001#0000000000000000
(1788959201.869056) can0 05FF4000#0000000000000000
(1788959201.875894) can0 04FF3604#0004000300000100
(1788959201.884895) can0 02FF2604#0000000000000000
(1788959201.894896) can0 03FF1000#0000112200000001
(1788959201.905150) can0 03FF1001#0000000000000000
(1788959201.905895) can0 04FF3604#0004000300000100
(1788959201.914897) can0 02FF2704#0200000000000000
(1788959201.915896) can0 03FF1603#0000D9BE00000000
(1788959201.926153) can0 03FF1605#0100000000000000
(1788959201.935898) can0 04FF3604#0005000300000100
(1788959201.944084) can0 0260B606#0000000000000000
(1788959201.950900) can0 05FF4602#E20FE60FE10FE10F
(1788959201.960901) can0 05FF4603#DE0FE40FE00FE00F
(1788959201.965900) can0 04FF3604#0004000400000100
(1788959201.970901) can0 05FF4604#DF0FE00FE30FE40F
(1788959201.974901) can0 02203607#0000000300000000
(1788959201.980901) can0 05FF4605#DB0F000000000000
(1788959201.995903) can0 04FF3604#0005000300000100
(1788959201.999904) can0 03FF1000#0000112200000001
(1788959202.004904) can0 02181606#0100190001030200
(1788959202.010904) can0 03FF1001#0000000000000000
(1788959202.010954) can0 05FF4606#151514
(1788959202.020905) can0 03FF1603#0000D9BE00000000
(1788959202.021040) can0 05FF4607#141615
(1788959202.025905) can0 04FF3604#0004000400000100
(1788959202.030905) can0 05FF4608#0019007C
(1788959202.031146) can0 03FF1605#0100000000000000
(1788959202.034906) can0 02203606#0101000100000000
(1788959202.040906) can0 05FF4609#0300037003B600
(1788959202.055907) can0 04FF3604#0004000300000100
(1788959202.064908) can0 02181608#0500000001000000
(1788959202.082909) can0 05FF4610#0000CE6DFFFFFF92
(1788959202.085909) can0 04FF3604#0004000300000100
(1788959202.094910) can0 02181609#0000000000000000
(1788959202.104911) can0 03FF1000#0000112200000001
(1788959202.115143) can0 03FF1001#0000000000000000
(1788959202.115911) can0 04FF3604#0004000300000100
(1788959202.125913) can0 03FF1603#0000D9BE00000000
(1788959202.134912) can0 02488600#0000000000000000
(1788959202.136144) can0 03FF1605#0100000000000000
(1788959202.145914) can0 04FF3604#0004000300000100
(1788959202.146913) can0 03121606#0000000000000000
(1788959202.163985) can0 02294615#
(1788959202.165915) can0 05124615#1501140301FF
(1788959202.175916) can0 04FF3602#0000000000000000
(1788959202.176915) can0 04FF3604#0005000300000100
(1788959202.205920) can0 04FF3604#0005000400000100
(1788959202.209918) can0 03FF1000#0000112200000001
(1788959202.220171) can0 03FF1001#0000000000000000
(1788959202.230920) can0 03FF1603#0000D9BE00000000
(1788959202.235920) can0 04FF3604#0005000300000100
(1788959202.241152) can0 03FF1605#0100000000000000
(1788959202.265923) can0 04FF3604#0003000300000100
(1788959202.295926) can0 04FF3604#0005000300000100
(1788959202.314927) can0 03FF1000#0000112200000001
(1788959202.325171) can0 03FF1001#0000000000000000
(1788959202.325926) can0 04FF3604#0003000300000100
(1788959202.335927) can0 03FF1603#0000D9BE00000000
(1788959202.346160) can0 03FF1605#0100000000000000
(1788959202.355929) can0 04FF3604#0003000400000100
(1788959202.356929) can0 03FF1600#142B000104001319
(1788959202.367157) can0 03FF1601#6E50000000000000
(1788959202.372150) can0 05FF4610#0000CE6DFFFFFF97
(1788959202.377930) can0 03FF1602#075A850000001324
(1788959202.385930) can0 04FF3604#0004000300000100
(1788959202.388165) can0 03FF1604#0000000000000000
(1788959202.415934) can0 04FF3604#0004000400000100
(1788959202.419933) can0 03FF1000#0000112200000001
(1788959202.430177) can0 03FF1001#0000000000000000
(1788959202.440935) can0 03FF1603#0000D9BE00000000
(1788959202.445935) can0 04FF3604#0004000300000100
(1788959202.451179) can0 03FF1605#0100000000000000
(1788959202.475938) can0 04FF3604#0002000300000100
(1788959202.505940) can0 04FF3604#0004000300000100
(1788959202.524941) can0 03FF1000#0000112200000001
(1788959202.535165) can0 03FF1001#0000000000000000
(1788959202.535943) can0 04FF3604#0005000300000100
(1788959202.545944) can0 03FF1603#0000D9BE00000000
(1788959202.556166) can0 03FF1605#0100000000000000
(1788959202.565947) can0 04FF3604#0004000300000100
(1788959202.595947) can0 04FF3604#0004000300000100
(1788959202.625949) can0 04FF3604#0004000300000100
(1788959202.629948) can0 03FF1000#0000112200000001
(1788959202.633949) can0 05FF4610#0000CE6DFFFFFF97
(1788959202.640158) can0 03FF1001#0000000000000000
(1788959202.650951) can0 03FF1603#0000D9BE00000000
(1788959202.655950) can0 04FF3604#0002000300000100
(1788959202.661171) can0 03FF1605#0100000000000000
(1788959202.664951) can0 02181606#0100190001030200
(1788959202.675953) can0 04FF3602#0000000000000000
(1788959202.685955) can0 04FF3604#0006000300000100
(1788959202.694954) can0 02203606#0101000100000000
(1788959202.715956) can0 04FF3604#0005000400000100
(1788959202.724956) can0 02181608#0500000001000000
(1788959202.734956) can0 03FF1000#0000112200000001
(1788959202.745154) can0 03FF1001#0000000000000000
(1788959202.745957) can0 04FF3604#0005000300000100
(1788959202.754976) can0 02181609#0000000000000000
(1788959202.755957) can0 03FF1603#0000D9BE00000000
(1788959202.766183) can0 03FF1605#0100000000000000
(1788959202.775960) can0 04FF3604#0004000300000100
(1788959202.776959) can0 03121606#0000000000000000
(1788959202.784960) can0 02488600#0000000000000000
(1788959202.805963) can0 04FF3604#0005000300000100
(1788959202.814963) can0 02294616#
(1788959202.815962) can0 05124616#0000000000001DA7
(1788959202.835965) can0 04FF3604#0006000300000100
(1788959202.839964) can0 03FF1000#0000112200000001
(1788959202.850185) can0 03FF1001#0000000000000000
(1788959202.860969) can0 03FF1603#0000D9BE00000000
(1788959202.865024) can0 02FF2605#0000060909030602
(1788959202.865966) can0 04FF3604#0005000300000100
(1788959202.871966) can0 03FF1605#0100000000000000
(1788959202.895969) can0 02FF2604#0000000000000000
(1788959202.896069) can0 04FF3604#0003000300000100
(1788959202.896968) can0 05FF4610#0000CE6DFFFFFF97
(1788959202.901968) can0 05FF4001#0000000000000000
(1788959202.903968) can0 05FF4000#0000000000000000
(1788959202.925075) can0 02FF2704#0200000000000000
(1788959202.925970) can0 04FF3604#0003000300000100
(1788959202.944972) can0 03FF1000#0000112200000001
(1788959202.955176) can0 03FF1001#0000000000000000
(1788959202.955972) can0 0260B606#0000000000000000
(1788959202.956972) can0 04FF3604#0002000300000100
(1788959202.965973) can0 03FF1603#0000D9BE00000000
(1788959202.976194) can0 03FF1605#0100000000000000
(1788959202.983975) can0 05FF4602#E20FE60FE10FE10F
(1788959202.985183) can0 02203607#0000000300000000
(1788959202.985974) can0 04FF3604#0004000300000100
(1788959202.993976) can0 05FF4603#DE0FE40FE00FE00F
(1788959203.003977) can0 05FF4604#DF0FE00FE30FE40F
(1788959203.014977) can0 05FF4605#DB0F000000000000
(1788959203.015976) can0 04FF3604#0002000300000100
(1788959203.044021) can0 05FF4606#151514
(1788959203.045979) can0 04FF3604#0004000300000100
(1788959203.049979) can0 03FF1000#0000112200000001
(1788959203.054025) can0 05FF4607#141615
(1788959203.060176) can0 03FF1001#0000000000000000
(1788959203.064049) can0 05FF4608#0019007C
(1788959203.070981) can0 03FF1603#0000D9BE00000000
(1788959203.074143) can0 05FF4609#0300037003B600
(1788959203.075981) can0 04FF3604#0004000300000100
(1788959203.081202) can0 03FF1605#0100000000000000
(1788959203.105984) can0 04FF3604#0004000300000100
(1788959203.135986) can0 04FF3604#0003000300000100
(1788959203.154987) can0 03FF1000#0000112200000001
(1788959203.160045) can0 05FF4610#0000CE6DFFFFFF97
(1788959203.165173) can0 03FF1001#0000000000000000
(1788959203.165987) can0 04FF3604#0005000400000100
(1788959203.175989) can0 03FF1603#0000D9BE00000000
(1788959203.176988) can0 04FF3602#0000000000000000
(1788959203.186201) can0 03FF1605#0100000000000000
(1788959203.195991) can0 04FF3604#0004000300000100
(1788959203.225994) can0 04FF3604#0003000300000100
(1788959203.255995) can0 04FF3604#0004000300000100
(1788959203.259994) can0 03FF1000#0000112200000001
(1788959203.263995) can0 05FF4600#0D0400C00303
(1788959203.270152) can0 03FF1001#0000000000000000
(1788959203.280996) can0 03FF1603#0000D9BE00000000
(1788959203.285996) can0 04FF3604#0004000400000100
(1788959203.291193) can0 03FF1605#0100000000000000
(1788959203.315999) can0 04FF3604#0003000300000100
(1788959203.333185) can0 03FF1600#142B000104001319
(1788959203.344001) can0 03FF1601#6E50000000000000
(1788959203.346001) can0 04FF3604#0004000300000100
(1788959203.354159) can0 03FF1602#075A850000001324
(1788959203.365003) can0 03FF1604#0000000000000000
(1788959203.375190) can0 03FF1000#0000112200000001
(1788959203.376003) can0 04FF3604#0005000300000100
(1788959203.386003) can0 03FF1001#0000000000000000
(1788959203.396225) can0 03FF1603#0000D9BE00000000
(1788959203.406006) can0 04FF3604#0004000300000100
(1788959203.407005) can0 03FF1605#0100000000000000
(1788959203.426007) can0 02181606#0100190001030200
(1788959203.436007) can0 04FF3604#0004000300000100
(1788959203.450009) can0 05FF4610#0000CE6CFFFFFF97
(1788959203.456009) can0 02203606#0101000100000000
(1788959203.466010) can0 04FF3604#0004000400000100
(1788959203.470010) can0 03FF1000#0000112200000001
(1788959203.480208) can0 03FF1001#0000000000000000
(1788959203.488011) can0 02181608#0500000001000000
(1788959203.491011) can0 03FF1603#0000D9BE00000000
(1788959203.496011) can0 04FF3604#0006000300000100
(1788959203.501186) can0 03FF1605#0100000000000000
(1788959203.512012) can0 03121606#0000000000000000
(1788959203.516013) can0 02181609#0000000000000000
(1788959203.526014) can0 04FF3604#0002000300000100
(1788959203.546019) can0 02488600#0000000000000000
(1788959203.556016) can0 04FF3604#0004000300000100
(1788959203.575019) can0 03FF1000#0000112200000001
(1788959203.576018) can0 02294617#
(1788959203.577018) can0 05124617#0000000000000000
(1788959203.585215) can0 03FF1001#0000000000000000
(1788959203.586018) can0 04FF3604#0002000300000100
(1788959203.596019) can0 03FF1603#0000D9BE00000000
(1788959203.606206) can0 03FF1605#0100000000000000
(1788959203.616020) can0 04FF3604#0004000300000100
(1788959203.646023) can0 04FF3604#0003000300000100
(1788959203.676025) can0 04FF3602#0000000000000000
(1788959203.677025) can0 04FF3604#0003000300000100
(1788959203.680025) can0 03FF1000#0000112200000001
(1788959203.690191) can0 03FF1001#0000000000000000
