(1788970262.037776) can0 02294503#0000000000000000
(1788970262.038782) can0 05124503#001702150000019A
(1788970262.042776) can0 02294503#0000000000000000
(1788970262.043773) can0 05124503#001702150000019A
(1788970262.047773) can0 02294503#0000000000000000
(1788970262.048776) can0 05124503#001702150000019A
(1788970262.052776) can0 02294503#0000000000000000
(1788970262.053776) can0 05124503#001702150000019A
(1788970262.057773) can0 02294503#0000000000000000
(1788970262.058773) can0 05124503#001702150000019A
(1788970262.138781) can0 03FF1000#0000112200000001
(1788970262.150781) can0 02181606#0100190001030200
(1788970262.249788) can0 03FF1000#0000112200000001
(1788970262.260786) can0 03FF1001#0000000000000000
(1788970262.260833) can0 02181606#0100190001030200
(1788970262.270784) can0 03FF1603#0000D93A00000000
(1788970262.281784) can0 03FF1605#0100000000000000
(1788970262.283838) can0 05FF4610#0000CE71FFFFFFF5
(1788970262.291785) can0 03121606#0100000000000000
(1788970262.333789) can0 08F97603#0101000000000000
(1788970262.354791) can0 03FF1000#0000112200000001
(1788970262.365788) can0 03FF1001#0000000000000000
(1788970262.370788) can0 02181606#0100190001030200
(1788970262.375788) can0 03FF1603#0000D93A00000000
(1788970262.386789) can0 03FF1605#0100000000000000
(1788970262.396790) can0 03121606#0000000000000000
(1788970262.411790) can0 05FF4001#0000000000000000
(1788970262.413793) can0 05FF4000#0000000000000000
(1788970262.459796) can0 03FF1000#0000112200000001
(1788970262.470794) can0 03FF1001#0000000000000000
(1788970262.480796) can0 03FF1603#0000D93A00000000
(1788970262.491797) can0 03FF1605#0100000000000000
(1788970262.493049) can0 05FF4602#E30FE60FE20FE10F
(1788970262.501795) can0 03121606#0000000000000000
(1788970262.503026) can0 05FF4603#DE0FE40FE00FE00F
(1788970262.513010) can0 05FF4604#DF0FE10FE30FE40F
(1788970262.523007) can0 05FF4605#DC0F000000000000
(1788970262.544801) can0 05FF4610#0000CE71FFFFFFF5
(1788970262.553803) can0 05FF4606#141514
(1788970262.562801) can0 05FF4607#141615
(1788970262.564800) can0 03FF1000#0000112200000001
(1788970262.572799) can0 05FF4608#0019007C
(1788970262.575798) can0 03FF1001#0000000000000000
(1788970262.582898) can0 05FF4609#0100037003B600
(1788970262.585798) can0 03FF1603#0000D93A00000000
(1788970262.596799) can0 03FF1605#0100000000000000
(1788970262.633804) can0 08F97603#0101000000000000
(1788970262.669806) can0 03FF1000#0000112200000001
(1788970262.680804) can0 03FF1001#0000000000000000
(1788970262.690803) can0 03FF1603#0000D93A00000000
(1788970262.701804) can0 03FF1605#0100000000000000
(1788970262.732808) can0 05FF4400#00000000
(1788970262.774810) can0 03FF1000#0000112200000001
(1788970262.782808) can0 05FF4600#0D0400C00303
(1788970262.785808) can0 03FF1001#0000000000000000
(1788970262.795809) can0 03FF1603#0000D93A00000000
(1788970262.804810) can0 05FF4610#0000CE71FFFFFFF5
(1788970262.806809) can0 03FF1605#0100000000000000
(1788970262.832813) can0 05FF4601#006600000000
(1788970262.879815) can0 03FF1000#0000112200000001
(1788970262.881813) can0 02191602#0000000000000000
(1788970262.890813) can0 03FF1001#0000000000000000
(1788970262.900813) can0 03FF1603#0000D93A00000000
(1788970262.911814) can0 03FF1605#0100000000000000
(1788970262.934818) can0 08F97603#0101000000000000
(1788970262.984821) can0 03FF1000#0000112200000001
(1788970262.995821) can0 03FF1001#0000000000000000
(1788970263.005819) can0 03FF1603#0000D93A00000000
(1788970263.016822) can0 03FF1605#0100000000000000
(1788970263.037823) can0 03FF1600#142B000104001319
(1788970263.047824) can0 03FF1601#6E50000000000000
(1788970263.058825) can0 03FF1602#075A850000001324
(1788970263.068825) can0 03FF1604#0000000000000000
(1788970263.089822) can0 03FF1000#0000112200000001
(1788970263.093822) can0 05FF4610#0000CE69FFFFFFB3
(1788970263.100823) can0 03FF1001#0000000000000000
(1788970263.110824) can0 03FF1603#0000D93A00000000
(1788970263.121827) can0 03FF1605#0100000000000000
(1788970263.194830) can0 03FF1000#0000112200000001
(1788970263.205829) can0 03FF1001#0000000000000000
(1788970263.215832) can0 03FF1603#0000D93A00000000
(1788970263.226833) can0 03FF1605#0100000000000000
(1788970263.299836) can0 03FF1000#0000112200000001
(1788970263.310836) can0 03FF1001#0000000000000000
(1788970263.320838) can0 03FF1603#0000D93A00000000
(1788970263.331837) can0 03FF1605#0100000000000000
(1788970263.353883) can0 05FF4610#0000CE69FFFFFFB3
(1788970263.404838) can0 03FF1000#0000112200000001
(1788970263.415840) can0 03FF1001#0000000000000000
(1788970263.425842) can0 03FF1603#0000D93A00000000
(1788970263.436840) can0 03FF1605#0100000000000000
(1788970263.438839) can0 05FF4001#0000000000000000
(1788970263.440839) can0 05FF4000#0000000000000000
(1788970263.509846) can0 03FF1000#0000112200000001
(1788970263.520845) can0 03FF1001#0000000000000000
(1788970263.520897) can0 05FF4602#E10FE60FE10FE00F
(1788970263.530847) can0 05FF4603#DE0FE40FDF0FE00F
(1788970263.531847) can0 03FF1603#0000D93A00000000
(1788970263.540847) can0 05FF4604#DE0FE00FE30FE40F
(1788970263.541846) can0 03FF1605#0100000000000000
(1788970263.550845) can0 05FF4605#DB0F000000000000
(1788970263.580851) can0 05FF4606#141514
(1788970263.590849) can0 05FF4607#141615
(1788970263.600847) can0 05FF4608#0019007C
(1788970263.610847) can0 05FF4609#0100037003B600
(1788970263.614851) can0 05FF4610#0000CE69FFFFFFB3
(1788970263.615850) can0 03FF1000#0000112200000001
(1788970263.625849) can0 03FF1001#0000000000000000
(1788970263.635849) can0 03FF1603#0000D93A00000000
(1788970263.646849) can0 03FF1605#0100000000000000
(1788970263.719856) can0 03FF1000#0000112200000001
(1788970263.730855) can0 03FF1001#0000000000000000
(1788970263.740853) can0 03FF1603#0000D93A00000000
(1788970263.751854) can0 03FF1605#0100000000000000
(1788970263.824861) can0 03FF1000#0000112200000001
(1788970263.835861) can0 03FF1001#0000000000000000
(1788970263.845858) can0 03FF1603#0000D93A00000000
(1788970263.856859) can0 03FF1605#0100000000000000
(1788970263.875860) can0 05FF4610#0000CE69FFFFFFB3
(1788970263.902862) can0 02FF2602#055966F524C9BCFF
(1788970263.902917) can0 02294609#0000000000000000
(1788970263.904011) can0 05124609#0300037003B600
(1788970263.929866) can0 03FF1000#0000112200000001
(1788970263.940865) can0 03FF1001#0000000000000000
(1788970263.950864) can0 03FF1603#0000D93A00000000
(1788970263.961864) can0 03FF1605#0100000000000000
(1788970264.034871) can0 03FF1000#0000112200000001
(1788970264.045871) can0 03FF1001#0000000000000000
(1788970264.055871) can0 03FF1603#0000D93A00000000
(1788970264.066873) can0 03FF1605#0100000000000000
(1788970264.076872) can0 03FF1600#142B000104001319
(1788970264.087872) can0 03FF1601#6E50000000000000
(1788970264.097871) can0 03FF1602#075A850000001324
(1788970264.108871) can0 03FF1604#0000000000000000
(1788970264.139876) can0 03FF1000#0000112200000001
(1788970264.150876) can0 03FF1001#0000000000000000
(1788970264.160874) can0 03FF1603#0000D93A00000000
(1788970264.164989) can0 05FF4610#0000CE69FFFFFFB3
(1788970264.171873) can0 03FF1605#0100000000000000
(1788970264.244880) can0 03FF1000#0000112200000001
(1788970264.255881) can0 03FF1001#0000000000000000
(1788970264.265879) can0 03FF1603#0000D93A00000000
(1788970264.276879) can0 03FF1605#0100000000000000
(1788970264.349886) can0 03FF1000#0000112200000001
(1788970264.360886) can0 03FF1001#0000000000000000
(1788970264.370883) can0 03FF1603#0000D93A00000000
(1788970264.381884) can0 03FF1605#0100000000000000
(1788970264.412886) can0 02FF2602#055966F524C9BCFF
(1788970264.413885) can0 02294609#0000000000000000
(1788970264.414884) can0 05124609#0300037003B600
(1788970264.425889) can0 05FF4610#0000CE69FFFFFFB3
(1788970264.454890) can0 03FF1000#0000112200000001
(1788970264.465888) can0 03FF1001#0000000000000000
(1788970264.467888) can0 05FF4001#0000000000000000
(1788970264.469888) can0 05FF4000#0000000000000000
(1788970264.475892) can0 03FF1603#0000D93A00000000
(1788970264.486891) can0 03FF1605#0100000000000000
(1788970264.522893) can0 02203606#0101000100000000
(1788970264.529895) can0 04FF3602#0000000000000000
(1788970264.532893) can0 13B76400#01
(1788970264.533062) can0 02181606#0000000000030200
(1788970264.538948) can0 03FF1605#0000000000000000
(1788970264.549892) can0 04FF3604#0003000300000100
(1788970264.579898) can0 04FF3604#0004000300000100
(1788970264.590897) can0 13B76400#01
(1788970264.592897) can0 02203606#0200000000000000
(1788970264.622898) can0 02181608#0500000001000000
(1788970264.652900) can0 02181609#0000000000000000
(1788970264.682901) can0 02488600#0000000000000000
(1788970264.732904) can0 02294500#
(1788970264.733120) can0 05124500#0500
(1788970264.736900) can0 1FF8B028#0000000000000000
(1788970264.746903) can0 03FF1000#0000112200000001
(1788970264.757904) can0 03FF1605#0000000000000000
(1788970264.762920) can0 02FF2605#0000060909060102
(1788970264.767904) can0 03121606#0100000000000000
(1788970264.792929) can0 02FF2604#0000000000000000
(1788970264.823011) can0 02FF2704#0200000000000000
(1788970264.841909) can0 03FF1000#0000112200000001
(1788970264.852978) can0 0260B606#0000000000000000
(1788970264.862910) can0 13B76400#01
(1788970264.885910) can0 02203607#0000000300000000
(1788970264.913911) can0 02F82400#E88D000000000000
(1788970264.943051) can0 02FF2602#65F91E4536E87BAB
(1788970264.946912) can0 03FF1000#0000112200000001
(1788970264.973112) can0 02181606#0100190001030200
(1788970265.004916) can0 02203606#0100000100000000
(1788970265.029917) can0 04FF3602#0000000000000000
(1788970265.030007) can0 04FF3604#0004000300000000
(1788970265.033917) can0 02181608#0500000001000000
(1788970265.047919) can0 03FF1000#0000112200000001
(1788970265.058919) can0 03FF1001#0000000000000000
(1788970265.059916) can0 04FF3604#0004000300000000
(1788970265.063916) can0 02181609#0000000000000000
(1788970265.068919) can0 03FF1603#0000D93A00000000
(1788970265.079920) can0 03FF1605#0100000000000000
(1788970265.081921) can0 05FF4610#0000CE69FFFFFFBE
(1788970265.089921) can0 04FF3604#0004000300000000
(1788970265.089990) can0 03121606#0100000000000000
(1788970265.093920) can0 02488600#0000000000000000
(1788970265.100921) can0 03FF1600#142B000104001319
(1788970265.110921) can0 03FF1601#6E50000000000000
(1788970265.119922) can0 04FF3604#0004000400000000
(1788970265.121153) can0 03FF1602#075A850000001324
(1788970265.123919) can0 02294501#
(1788970265.123985) can0 05124501#0104
(1788970265.131920) can0 03FF1604#0000000000000000
(1788970265.142977) can0 13B76400#01
(1788970265.149923) can0 04FF3604#0005000300000000
(1788970265.152923) can0 03FF1000#0000112200000001
(1788970265.153920) can0 02FF2605#0000060909060104
(1788970265.163921) can0 03FF1001#0000000000000000
(1788970265.173923) can0 03FF1603#0000D93A00000000
(1788970265.179924) can0 04FF3604#0003000300000000
(1788970265.184923) can0 03FF1605#0100000000000000
(1788970265.193925) can0 02FF2604#0000000000000000
(1788970265.208926) can0 05FF4001#0000000000000000
(1788970265.209923) can0 04FF3604#0004000300000000
(1788970265.211922) can0 05FF4000#0000000000000000
(1788970265.239928) can0 04FF3604#0005000300000000
(1788970265.257928) can0 03FF1000#0000112200000001
(1788970265.263928) can0 02FF2704#0200000000000000
(1788970265.268927) can0 03FF1001#0000000000000000
(1788970265.269928) can0 04FF3604#0005000300000000
(1788970265.278929) can0 03FF1603#0000D93A00000000
(1788970265.289928) can0 03FF1605#0100000000000000
(1788970265.290971) can0 05FF4602#E10FE60FE10FE00F
(1788970265.293927) can0 0260B606#0000000000000000
(1788970265.299929) can0 04FF3604#0003000400000000
(1788970265.300930) can0 05FF4603#DE0FE40FDF0FE00F
(1788970265.311929) can0 05FF4604#DE0FE00FE30FE40F
(1788970265.320931) can0 05FF4605#DB0F000000000000
(1788970265.325011) can0 02203607#0000000300000000
(1788970265.329929) can0 04FF3604#0003000400000000
(1788970265.341930) can0 05FF4610#0000CE69FFFFFFBE
(1788970265.350931) can0 05FF4606#141514
(1788970265.355978) can0 02181606#0100190001030200
(1788970265.359930) can0 04FF3604#0004000300000000
(1788970265.360930) can0 05FF4607#141615
(1788970265.362930) can0 03FF1000#0000112200000001
(1788970265.370933) can0 05FF4608#0019007C
(1788970265.373933) can0 03FF1001#0000000000000000
(1788970265.380932) can0 05FF4609#0300037003B600
(1788970265.383930) can0 03FF1603#0000D93A00000000
(1788970265.384931) can0 02203606#0101000100000000
(1788970265.389931) can0 04FF3604#0006000400000000
(1788970265.394934) can0 03FF1605#0100000000000000
(1788970265.414936) can0 02181608#0500000001000000
(1788970265.419935) can0 04FF3604#0003000300000100
(1788970265.424936) can0 13B76400#01
(1788970265.443935) can0 02181609#0000000000000000
(1788970265.449936) can0 04FF3604#0004000300000100
(1788970265.467938) can0 03FF1000#0000112200000001
(1788970265.474937) can0 02488600#0000000000000000
(1788970265.478938) can0 03FF1001#0000000000000000
(1788970265.479936) can0 04FF3604#0004000300000100
(1788970265.488937) can0 03FF1603#0000D93A00000000
(1788970265.499194) can0 03FF1605#0100000000000000
(1788970265.505940) can0 02191500#
(1788970265.509937) can0 04FF3604#0005000300000100
(1788970265.509992) can0 03121606#0000000000000000
(1788970265.520940) can0 03FF1500#000000C300000000
(1788970265.529938) can0 04FF3602#0000000000000000
(1788970265.530972) can0 05FF4400#00000001
(1788970265.539938) can0 04FF3604#0003000300000100
(1788970265.569941) can0 04FF3604#0004000300000100
(1788970265.572943) can0 03FF1000#0000112200000001
(1788970265.580941) can0 05FF4600#0D0400C00303
(1788970265.583945) can0 03FF1001#0000000000000000
(1788970265.593944) can0 03FF1603#0000D93A00000000
(1788970265.599944) can0 04FF3604#0005000300000100
(1788970265.602944) can0 05FF4610#0000CE69FFFFFFBE
(1788970265.604942) can0 03FF1605#0100000000000000
(1788970265.624946) can0 02FF2605#0000060909060105
(1788970265.629945) can0 04FF3604#0003000300000100
(1788970265.631942) can0 05FF4601#006600000000
(1788970265.654946) can0 02FF2604#0000000000000000
(1788970265.659946) can0 04FF3604#0004000400000100
(1788970265.677947) can0 03FF1000#0000112200000001
(1788970265.685949) can0 02FF2704#0200000000000000
(1788970265.688200) can0 03FF1001#0000000000000000
(1788970265.689945) can0 04FF3604#0004000300000100
(1788970265.698948) can0 03FF1603#0000D93A00000000
(1788970265.704950) can0 13B76400#01
(1788970265.709947) can0 03FF1605#0100000000000000
(1788970265.715132) can0 0260B606#0000000000000000
(1788970265.719949) can0 04FF3604#0005000300000100
(1788970265.745950) can0 02203607#0000000300000000
(1788970265.749951) can0 04FF3604#0005000300000100
(1788970265.779957) can0 04FF3604#0004000300000100
(1788970265.782953) can0 03FF1000#0000112200000001
(1788970265.793951) can0 03FF1001#0000000000000000
(1788970265.803952) can0 03FF1603#0000D93A00000000
(1788970265.809951) can0 04FF3604#0002000200000100
(1788970265.814951) can0 03FF1605#0100000000000000
(1788970265.839956) can0 04FF3604#0005000400000100
(1788970265.864143) can0 05FF4610#0000CE69FFFFFFBE
(1788970265.869954) can0 04FF3604#0006000300000100
(1788970265.887956) can0 03FF1000#0000112200000001
(1788970265.898955) can0 03FF1001#0000000000000000
(1788970265.899955) can0 04FF3604#0003000300000100
(1788970265.908956) can0 03FF1603#0000D93A00000000
(1788970265.919959) can0 03FF1605#0100000000000000
(1788970265.929960) can0 04FF3604#0005000400000100
(1788970265.959959) can0 04FF3604#0003000300000100
(1788970265.984043) can0 13B76400#01
(1788970265.989963) can0 04FF3604#0003000300000100
(1788970265.992960) can0 03FF1000#0000112200000001
(1788970266.003960) can0 03FF1001#0000000000000000
(1788970266.013961) can0 03FF1603#0000D93A00000000
(1788970266.019963) can0 04FF3604#0004000300000100
(1788970266.024964) can0 03FF1605#0100000000000000
(1788970266.029962) can0 04FF3602#0000000000000000
(1788970266.049966) can0 04FF3604#0005000300000100
(1788970266.065967) can0 02181606#0100190001030200
(1788970266.066227) can0 03FF1600#142B000104001319
(1788970266.076964) can0 03FF1601#6E50000000000000
(1788970266.079963) can0 04FF3604#0002000300000100
(1788970266.087215) can0 03FF1602#075A850000001324
(1788970266.094970) can0 02203606#0101000100000000
(1788970266.097968) can0 03FF1604#0000000000000000
(1788970266.108969) can0 03FF1000#0000112200000001
(1788970266.109965) can0 04FF3604#0005000300000100
(1788970266.118969) can0 03FF1001#0000000000000000
(1788970266.125968) can0 02181608#0500000001000000
(1788970266.129198) can0 03FF1603#0000D93A00000000
(1788970266.139967) can0 04FF3604#0004000300000100
(1788970266.140021) can0 03FF1605#0100000000000000
(1788970266.150210) can0 03121606#0000000000000000
(1788970266.153967) can0 05FF4610#0000CE64FFFFFF7C
(1788970266.154967) can0 02181609#0000000000000000
(1788970266.169968) can0 04FF3604#0002000300000100
(1788970266.199969) can0 04FF3604#0003000400000100
(1788970266.202970) can0 03FF1000#0000112200000001
(1788970266.204969) can0 02488600#0000000000000000
(1788970266.213970) can0 03FF1001#0000000000000000
(1788970266.223974) can0 03FF1603#0000D93A00000000
(1788970266.229974) can0 04FF3604#0003000300000100
(1788970266.234228) can0 03FF1605#0100000000000000
(1788970266.234974) can0 02191501#
(1788970266.238972) can0 05FF4001#0000000000000000
(1788970266.240971) can0 05FF4000#0000000000000000
(1788970266.255212) can0 03FF1501#0000005100000000
(1788970266.259972) can0 04FF3604#0004000300000100
(1788970266.265973) can0 13B76400#01
(1788970266.289974) can0 04FF3604#0005000300000100
(1788970266.307975) can0 03FF1000#0000112200000001
(1788970266.318978) can0 03FF1001#0000000000000000
(1788970266.319978) can0 04FF3604#0006000300000100
(1788970266.320976) can0 05FF4602#E00FE60FE00FE00F
(1788970266.328977) can0 03FF1603#0000D93A00000000
(1788970266.330976) can0 05FF4603#DD0FE40FDF0FE00F
(1788970266.339978) can0 03FF1605#0100000000000000
(1788970266.340976) can0 05FF4604#DE0FE00FE20FE30F
(1788970266.349976) can0 04FF3604#0004000300000100
(1788970266.350977) can0 05FF4605#DB0F000000000000
(1788970266.379978) can0 04FF3604#0005000300000100
(1788970266.380978) can0 05FF4606#141514
(1788970266.390978) can0 05FF4607#141615
(1788970266.400979) can0 05FF4608#0019007C
(1788970266.409979) can0 04FF3604#0004000300000100
(1788970266.410979) can0 05FF4609#0300037003B600
(1788970266.412979) can0 03FF1000#0000112200000001
(1788970266.414980) can0 05FF4610#0000CE64FFFFFF7C
(1788970266.423982) can0 03FF1001#0000000000000000
(1788970266.433984) can0 03FF1603#0000D93A00000000
(1788970266.439981) can0 04FF3604#0003000300000100
(1788970266.444236) can0 03FF1605#0100000000000000
(1788970266.469983) can0 04FF3604#0003000300000100
(1788970266.499986) can0 04FF3604#0005000300000100
(1788970266.517988) can0 03FF1000#0000112200000001
(1788970266.528242) can0 03FF1001#0000000000000000
(1788970266.529985) can0 04FF3602#0000000000000000
(1788970266.530040) can0 04FF3604#0004000300000100
(1788970266.538989) can0 03FF1603#0000D93A00000000
(1788970266.544988) can0 13B76400#01
(1788970266.549244) can0 03FF1605#0100000000000000
(1788970266.559988) can0 04FF3604#0005000300000100
(1788970266.589989) can0 04FF3604#0005000300000100
(1788970266.619995) can0 04FF3604#0004000300000100
(1788970266.622993) can0 03FF1000#0000112200000001
(1788970266.633222) can0 03FF1001#0000000000000000
(1788970266.635152) can0 02FF2605#0000060909060106
(1788970266.643991) can0 03FF1603#0000D93A00000000
(1788970266.649991) can0 04FF3604#0005000400000100
(1788970266.654246) can0 03FF1605#0100000000000000
(1788970266.664992) can0 02FF2604#0000000000000000
(1788970266.675177) can0 05FF4610#0000CE64FFFFFF7C
(1788970266.679992) can0 04FF3604#0004000300000100
(1788970266.694993) can0 02FF2704#0200000000000000
(1788970266.709994) can0 04FF3604#0004000300000100
(1788970266.724997) can0 0260B606#0000000000000000
(1788970266.727997) can0 03FF1000#0000112200000001
(1788970266.738211) can0 03FF1001#0000000000000000
(1788970266.739995) can0 04FF3604#0004000300000100
(1788970266.748995) can0 03FF1603#0000D93A00000000
(1788970266.754996) can0 02203607#0000000300000000
(1788970266.759239) can0 03FF1605#0100000000000000
(1788970266.769997) can0 04FF3604#0004000300000100
(1788970266.799998) can0 04FF3604#0005000300000100
(1788970266.826001) can0 13B76400#01
(1788970266.826052) can0 02181606#0100190001030200
(1788970266.830000) can0 04FF3604#0003000300000100
(1788970266.832999) can0 03FF1000#0000112200000001
(1788970266.843244) can0 03FF1001#0000000000000000
(1788970266.854001) can0 03FF1603#0000D93A00000000
(1788970266.857000) can0 02203606#0101000100000000
(1788970266.860000) can0 04FF3604#0004000400000100
(1788970266.864222) can0 03FF1605#0100000000000000
(1788970266.885003) can0 02181608#0500000001000000
(1788970266.890004) can0 04FF3604#0004000300000100
(1788970266.915004) can0 02181609#0000000000000000
(1788970266.920006) can0 04FF3604#0004000300000100
(1788970266.936008) can0 05FF4610#0000CE64FFFFFF7C
(1788970266.938005) can0 03FF1000#0000112200000001
(1788970266.945040) can0 02488600#0000000000000000
(1788970266.948248) can0 03FF1001#0000000000000000
(1788970266.950005) can0 04FF3604#0004000400000100
(1788970266.959006) can0 03FF1603#0000D93A00000000
(1788970266.969261) can0 03FF1605#0100000000000000
(1788970266.977009) can0 02213500#
(1788970266.980009) can0 04FF3604#0005000300000100
(1788970266.980057) can0 03121606#0000000000000000
(1788970266.985008) can0 04F93500#000000EB00000000
(1788970267.010008) can0 04FF3604#0003000300000100
(1788970267.030012) can0 04FF3602#0000000000000000
(1788970267.040014) can0 04FF3604#0005000400000100
(1788970267.043013) can0 03FF1000#0000112200000001
(1788970267.053244) can0 03FF1001#0000000000000000
(1788970267.064011) can0 03FF1603#0000D93A00000000
(1788970267.070011) can0 04FF3604#0004000300000100
(1788970267.074254) can0 03FF1605#0100000000000000
(1788970267.085012) can0 03FF1600#142B000104001319
(1788970267.095232) can0 03FF1601#6E50000000000000
(1788970267.100017) can0 04FF3604#0004000300000100
(1788970267.105015) can0 13B76400#01
(1788970267.106015) can0 03FF1602#075A850000001324
(1788970267.116267) can0 03FF1604#0000000000000000
(1788970267.130017) can0 04FF3604#0005000400000100
(1788970267.148018) can0 03FF1000#0000112200000001
(1788970267.159016) can0 03FF1001#0000000000000000
(1788970267.160015) can0 04FF3604#0004000400000100
(1788970267.169015) can0 03FF1603#0000D93A00000000
(1788970267.179224) can0 03FF1605#0100000000000000
(1788970267.190017) can0 04FF3604#0005000300000100
(1788970267.220021) can0 04FF3604#0004000300000100
(1788970267.250023) can0 04FF3604#0003000300000100
(1788970267.253023) can0 05FF4610#0000CE66FFFFFF87
(1788970267.253077) can0 03FF1000#0000112200000001
(1788970267.263224) can0 03FF1001#0000000000000000
(1788970267.274021) can0 03FF1603#0000D93A00000000
(1788970267.280020) can0 04FF3604#0003000300000100
(1788970267.284252) can0 03FF1605#0100000000000000
(1788970267.295022) can0 05FF4001#0000000000000000
(1788970267.297021) can0 05FF4000#0000000000000000
(1788970267.310022) can0 04FF3604#0004000300000100
(1788970267.340026) can0 04FF3604#0005000300000100
(1788970267.358027) can0 03FF1000#0000112200000001
(1788970267.368234) can0 03FF1001#0000000000000000
(1788970267.370025) can0 04FF3604#0004000400000100
(1788970267.376234) can0 05FF4602#E10FE60FE10FE00F
(1788970267.379025) can0 03FF1603#0000D93A00000000
(1788970267.385188) can0 13B76400#01
(1788970267.386211) can0 05FF4603#DD0FE40FDF0FE00F
(1788970267.389246) can0 03FF1605#0100000000000000
(1788970267.396195) can0 05FF4604#DE0FE00FE20FE30F
(1788970267.400026) can0 04FF3604#0004000400000100
(1788970267.406177) can0 05FF4605#DB0F000000000000
(1788970267.430030) can0 04FF3604#0004000400000100
(1788970267.436031) can0 05FF4606#141514
(1788970267.446031) can0 05FF4607#141615
(1788970267.456029) can0 05FF4608#0019007C
(1788970267.460029) can0 04FF3604#0004000300000100
(1788970267.463029) can0 03FF1000#0000112200000001
(1788970267.466064) can0 05FF4609#0300037003B600
(1788970267.473249) can0 03FF1001#0000000000000000
(1788970267.484033) can0 03FF1603#0000D93A00000000
(1788970267.490034) can0 04FF3604#0003000300000100
(1788970267.494239) can0 03FF1605#0100000000000000
(1788970267.514044) can0 05FF4610#0000CE66FFFFFF87
(1788970267.520035) can0 04FF3604#0004000400000100
(1788970267.530035) can0 04FF3602#0000000000000000
(1788970267.550037) can0 04FF3604#0004000400000100
(1788970267.568037) can0 03FF1000#0000112200000001
(1788970267.578244) can0 03FF1001#0000000000000000
(1788970267.580035) can0 04FF3604#0003000300000100
(1788970267.586036) can0 02181606#0100190001030200
(1788970267.589035) can0 03FF1603#0000D93A00000000
(1788970267.599221) can0 03FF1605#0100000000000000
(1788970267.610041) can0 04FF3604#0003000300000100
(1788970267.616039) can0 02203606#0101000100000000
(1788970267.640041) can0 04FF3604#0004000300000100
(1788970267.646041) can0 02181608#0500000001000000
(1788970267.666039) can0 13B76400#01
(1788970267.670039) can0 04FF3604#0004000300000100
(1788970267.673039) can0 03FF1000#0000112200000001
(1788970267.676039) can0 02181609#0000000000000000
(1788970267.683243) can0 03FF1001#0000000000000000
(1788970267.694041) can0 03FF1603#0000D93A00000000
(1788970267.700040) can0 04FF3604#0004000300000100
(1788970267.704249) can0 03FF1605#0100000000000000
(1788970267.706041) can0 02488600#0000000000000000
(1788970267.715041) can0 03121606#0000000000000000
(1788970267.730045) can0 04FF3604#0003000400000100
(1788970267.736045) can0 02213501#
(1788970267.745044) can0 04F93501#0000000400000000
(1788970267.760044) can0 04FF3604#0005000300000100
(1788970267.766044) can0 02FF2605#0000060909060108
(1788970267.775045) can0 05FF4610#0000CE66FFFFFF87
(1788970267.778044) can0 03FF1000#0000112200000001
(1788970267.788277) can0 03FF1001#0000000000000000
(1788970267.790044) can0 04FF3604#0004000300000100
(1788970267.796045) can0 02FF2604#0000000000000000
(1788970267.799045) can0 03FF1603#0000D93A00000000
(1788970267.810046) can0 03FF1605#0100000000000000
(1788970267.820049) can0 04FF3604#0004000300000100
(1788970267.828049) can0 02FF2704#0200000000000000
(1788970267.850049) can0 04FF3604#0004000400000100
(1788970267.856048) can0 0260B606#0000000000000000
(1788970267.880049) can0 04FF3604#0004000300000100
(1788970267.883049) can0 03FF1000#0000112200000001
(1788970267.887049) can0 02203607#0000000300000000
(1788970267.893270) can0 03FF1001#0000000000000000
(1788970267.904050) can0 03FF1603#0000D93A00000000
(1788970267.910050) can0 04FF3604#0004000400000100
(1788970267.914243) can0 03FF1605#0100000000000000
(1788970267.940055) can0 04FF3604#0005000300000100
(1788970267.946056) can0 13B76400#01
(1788970267.970055) can0 04FF3604#0004000300000100
(1788970267.988057) can0 03FF1000#0000112200000001
(1788970267.998266) can0 03FF1001#0000000000000000
(1788970268.000055) can0 04FF3604#0005000300000100
(1788970268.009057) can0 03FF1603#0000D93A00000000
(1788970268.019237) can0 03FF1605#0100000000000000
(1788970268.030058) can0 04FF3602#0000000000000000
(1788970268.030115) can0 04FF3604#0003000300000100
(1788970268.037060) can0 05FF4610#0000CE66FFFFFF87
(1788970268.060060) can0 04FF3604#0002000300000100
(1788970268.082258) can0 03FF1600#142B000104001319
(1788970268.090060) can0 04FF3604#0004000300000100
(1788970268.093059) can0 03FF1601#6E50000000000000
(1788970268.103233) can0 03FF1602#075A850000001324
(1788970268.114065) can0 03FF1604#0000000000000000
(1788970268.120065) can0 04FF3604#0005000300000100
(1788970268.124226) can0 03FF1000#0000112200000001
(1788970268.135062) can0 03FF1001#0000000000000000
(1788970268.145248) can0 03FF1603#0000D93A00000000
(1788970268.150062) can0 04FF3604#0004000300000100
(1788970268.156062) can0 03FF1605#0100000000000000
(1788970268.180064) can0 04FF3604#0004000300000100
(1788970268.198065) can0 03FF1000#0000112200000001
(1788970268.208250) can0 03FF1001#0000000000000000
(1788970268.210064) can0 04FF3604#0003000300000100
(1788970268.219066) can0 03FF1603#0000D93A00000000
(1788970268.226069) can0 13B76400#01
(1788970268.229254) can0 03FF1605#0100000000000000
(1788970268.240068) can0 04FF3604#0005000300000100
(1788970268.270071) can0 04FF3604#0004000400000100
(1788970268.300070) can0 04FF3604#0003000300000100
(1788970268.303069) can0 03FF1000#0000112200000001
(1788970268.313232) can0 03FF1001#0000000000000000
(1788970268.324073) can0 03FF1603#0000D93A00000000
(1788970268.325072) can0 05FF4001#0000000000000000
(1788970268.326071) can0 05FF4610#0000CE65FFFFFF8C
(1788970268.327174) can0 05FF4000#0000000000000000
(1788970268.330070) can0 04FF3604#0004000400000100
(1788970268.334256) can0 03FF1605#0100000000000000
(1788970268.347072) can0 02181606#0100190001030200
(1788970268.360072) can0 04FF3604#0004000300000100
(1788970268.377072) can0 02203606#0101000100000000
(1788970268.389331) can0 04FF3604#0005000300000100
(1788970268.407074) can0 02181608#0500000001000000
(1788970268.408074) can0 05FF4602#E00FE60FE10FE00F
(1788970268.408136) can0 03FF1000#0000112200000001
(1788970268.417076) can0 05FF4603#DD0FE40FDF0FE00F
(1788970268.418259) can0 03FF1001#0000000000000000
(1788970268.419329) can0 04FF3604#0002000300000100
(1788970268.427079) can0 05FF4604#DE0FE00FE20FE30F
(1788970268.429078) can0 03FF1603#0000D93A00000000
(1788970268.437077) can0 02181609#0000000000000000
(1788970268.437131) can0 05FF4605#DB0F000000000000
(1788970268.439256) can0 03FF1605#0100000000000000
(1788970268.449331) can0 04FF3604#0004000400000100
(1788970268.450076) can0 03121606#0000000000000000
(1788970268.467077) can0 02488600#0000000000000000
(1788970268.467138) can0 05FF4606#141514
(1788970268.477079) can0 05FF4607#141615
(1788970268.480080) can0 04FF3604#0003000300000100
(1788970268.487079) can0 05FF4608#0019007C
(1788970268.496206) can0 02294502#
(1788970268.497078) can0 05FF4609#0300037003B600
(1788970268.498078) can0 05124502#5250313353333541
(1788970268.506322) can0 13B76400#01
(1788970268.509329) can0 04FF3604#0004000300000100
(1788970268.513078) can0 03FF1000#0000112200000001
(1788970268.523267) can0 03FF1001#0000000000000000
(1788970268.530082) can0 04FF3602#0000000000000000
(1788970268.534080) can0 03FF1603#0000D93A00000000
(1788970268.539338) can0 04FF3604#0004000300000100
(1788970268.544292) can0 03FF1605#0100000000000000
(1788970268.569340) can0 04FF3604#0003000400000100
(1788970268.588087) can0 05FF4610#0000CE65FFFFFF8C
(1788970268.599327) can0 04FF3604#0002000300000100
(1788970268.618085) can0 03FF1000#0000112200000001
(1788970268.628251) can0 03FF1001#0000000000000000
(1788970268.629338) can0 04FF3604#0004000400000100
(1788970268.639087) can0 03FF1603#0000D93A00000000
(1788970268.649238) can0 03FF1605#0100000000000000
(1788970268.657086) can0 02FF2605#0000060909060109
(1788970268.659324) can0 04FF3604#0005000300000100
(1788970268.687087) can0 02FF2604#0000000000000000
(1788970268.689331) can0 04FF3604#0004000300000100
(1788970268.717089) can0 02FF2704#0200000000000000
(1788970268.719320) can0 04FF3604#0003000300000100
(1788970268.723092) can0 03FF1000#0000112200000001
(1788970268.733289) can0 03FF1001#0000000000000000
(1788970268.744091) can0 03FF1603#0000D93A00000000
(1788970268.748090) can0 0260B606#0000000000000000
(1788970268.749333) can0 04FF3604#0004000400000100
(1788970268.754275) can0 03FF1605#0100000000000000
(1788970268.777092) can0 02203607#0000000300000000
(1788970268.779330) can0 04FF3604#0004000300000100
(1788970268.787092) can0 13B76400#01
(1788970268.809348) can0 04FF3604#0003000300000100
(1788970268.828096) can0 03FF1000#0000112200000001
(1788970268.838249) can0 03FF1001#0000000000000000
(1788970268.839338) can0 04FF3604#0004000400000100
(1788970268.849096) can0 03FF1603#0000D93A00000000
(1788970268.850176) can0 05FF4610#0000CE65FFFFFF8C
(1788970268.859264) can0 03FF1605#0100000000000000
(1788970268.869339) can0 04FF3604#0004000300000100
(1788970268.899318) can0 04FF3604#0004000300000100
(1788970268.929333) can0 04FF3604#0004000400000100
(1788970268.933102) can0 03FF1000#0000112200000001
(1788970268.943275) can0 03FF1001#0000000000000000
(1788970268.954101) can0 03FF1603#0000D93A00000000
(1788970268.959321) can0 04FF3604#0006000300000100
(1788970268.964274) can0 03FF1605#0100000000000000
(1788970268.989336) can0 04FF3604#0004000300000100
(1788970269.019315) can0 04FF3604#0003000300000100
(1788970269.029326) can0 04FF3602#0000000000000000
(1788970269.038107) can0 03FF1000#0000112200000001
(1788970269.048270) can0 03FF1001#0000000000000000
(1788970269.049327) can0 04FF3604#0004000400000100
(1788970269.059105) can0 03FF1603#0000D93A00000000
(1788970269.067106) can0 13B76400#01
(1788970269.069267) can0 03FF1605#0100000000000000
(1788970269.079327) can0 04FF3604#0005000300000100
(1788970269.090258) can0 03FF1600#142B000104001319
(1788970269.101108) can0 03FF1601#6E50000000000000
(1788970269.107107) can0 02181606#0100190001030200
(1788970269.109327) can0 04FF3604#0004000300000100
(1788970269.111242) can0 03FF1602#075A850000001324
(1788970269.122111) can0 03FF1604#0000000000000000
(1788970269.137114) can0 02203606#0101000100000000
(1788970269.139321) can0 04FF3604#0005000300000100
(1788970269.142109) can0 05FF4610#0000CE66FFFFFF92
(1788970269.143109) can0 03FF1000#0000112200000001
(1788970269.153273) can0 03FF1001#0000000000000000
(1788970269.164111) can0 03FF1603#0000D93A00000000
(1788970269.169319) can0 04FF3604#0005000400000100
(1788970269.174249) can0 03FF1605#0100000000000000
(1788970269.184110) can0 02181608#0500000001000000
(1788970269.185111) can0 03121606#0000000000000000
(1788970269.199327) can0 04FF3604#0003000400000100
(1788970269.208112) can0 02181609#0000000000000000
(1788970269.229324) can0 04FF3604#0005000300000100
(1788970269.237243) can0 02488600#0000000000000000
(1788970269.248117) can0 03FF1000#0000112200000001
(1788970269.258300) can0 03FF1001#0000000000000000
(1788970269.259311) can0 04FF3604#0005000400000100
(1788970269.268115) can0 02294503#
(1788970269.269115) can0 05124503#001702150000019A
(1788970269.269216) can0 03FF1603#0000D93A00000000
(1788970269.279267) can0 03FF1605#0100000000000000
(1788970269.289324) can0 04FF3604#0003000300000100
(1788970269.319333) can0 04FF3604#0004000300000100
(1788970269.347123) can0 13B76400#01
(1788970269.349318) can0 04FF3604#0005000400000100
(1788970269.353119) can0 03FF1000#0000112200000001
(1788970269.360119) can0 05FF4001#0000000000000000
(1788970269.362119) can0 05FF4000#0000000000000000
(1788970269.363316) can0 03FF1001#0000000000000000
(1788970269.374120) can0 03FF1603#0000D93A00000000
(1788970269.379305) can0 04FF3604#0005000300000100
(1788970269.384271) can0 03FF1605#0100000000000000
(1788970269.404122) can0 05FF4610#0000CE66FFFFFF92
(1788970269.409318) can0 04FF3604#0003000300000100
(1788970269.439318) can0 04FF3604#0004000400000100
(1788970269.441335) can0 05FF4602#E10FE60FE10FE00F
(1788970269.451311) can0 05FF4603#DD0FE40FDF0FE00F
(1788970269.458124) can0 03FF1000#0000112200000001
(1788970269.461293) can0 05FF4604#DE0FE00FE20FE30F
(1788970269.468275) can0 03FF1001#0000000000000000
(1788970269.469321) can0 04FF3604#0004000300000100
(1788970269.471275) can0 05FF4605#DB0F000000000000
(1788970269.479127) can0 03FF1603#0000D93A00000000
(1788970269.489279) can0 03FF1605#0100000000000000
(1788970269.499324) can0 04FF3604#0005000300000100
(1788970269.501126) can0 05FF4606#141514
(1788970269.511127) can0 05FF4607#141615
(1788970269.521127) can0 05FF4608#0019007C
(1788970269.529351) can0 04FF3602#0000000000000000
(1788970269.530130) can0 04FF3604#0004000300000100
(1788970269.531169) can0 05FF4609#0300037003B600
(1788970269.559317) can0 04FF3604#0003000300000100
(1788970269.563132) can0 03FF1000#0000112200000001
(1788970269.573281) can0 03FF1001#0000000000000000
(1788970269.584130) can0 03FF1603#0000D93A00000000
(1788970269.589316) can0 04FF3604#0004000400000100
(1788970269.594257) can0 03FF1605#0100000000000000
(1788970269.619328) can0 04FF3604#0003000300000100
(1788970269.627385) can0 13B76400#01
(1788970269.649322) can0 04FF3604#0004000300000100
(1788970269.665196) can0 05FF4610#0000CE66FFFFFF92
(1788970269.668134) can0 03FF1000#0000112200000001
(1788970269.668346) can0 02FF2605#0000060909060100
(1788970269.678285) can0 03FF1001#0000000000000000
(1788970269.679308) can0 04FF3604#0003000300000100
(1788970269.689136) can0 03FF1603#0000D93A00000000
(1788970269.698136) can0 02FF2604#0000000000000000
(1788970269.699251) can0 03FF1605#0100000000000000
(1788970269.709321) can0 04FF3604#0004000300000100
(1788970269.728140) can0 02FF2704#0200000000000000
(1788970269.739310) can0 04FF3604#0005000300000100
(1788970269.758138) can0 0260B606#0000000000000000
(1788970269.769314) can0 04FF3604#0004000300000100
(1788970269.773139) can0 03FF1000#0000112200000001
(1788970269.783273) can0 03FF1001#0000000000000000
(1788970269.788139) can0 02203607#0000000300000000
(1788970269.794140) can0 03FF1603#0000D93A00000000
(1788970269.799325) can0 04FF3604#0004000400000100
(1788970269.804280) can0 03FF1605#0100000000000000
(1788970269.829306) can0 04FF3604#0005000300000100
(1788970269.859320) can0 04FF3604#0004000300000100
(1788970269.868144) can0 02181606#0100190001030200
(1788970269.878383) can0 03FF1000#0000112200000001
(1788970269.889318) can0 03FF1001#0000000000000000
(1788970269.890144) can0 04FF3604#0004000300000100
(1788970269.898145) can0 02203606#0101000100000000
(1788970269.900145) can0 03FF1603#0027D93A00000000
(1788970269.908146) can0 13B76400#01
(1788970269.911146) can0 03FF1605#0100000000000000
(1788970269.919308) can0 04FF3604#0005000400000100
(1788970269.927149) can0 05FF4610#0000CE66FFFFFF92
(1788970269.928149) can0 02181608#0500000001000000
(1788970269.949322) can0 04FF3604#0003000300000100
(1788970269.958148) can0 02181609#0000000000000000
(1788970269.979332) can0 04FF3604#0004000300000100
(1788970269.986151) can0 03FF1000#0000112200000001
(1788970269.988149) can0 02488600#0000000000000000
(1788970269.996300) can0 03FF1001#0000000000000000
(1788970270.007331) can0 03FF1603#002ED93A00000000
(1788970270.009312) can0 04FF3604#0002000300000100
(1788970270.018151) can0 03FF1605#0100000000000000
(1788970270.018205) can0 02294504#
(1788970270.019266) can0 05124504#1D
(1788970270.028316) can0 03121606#0000000000000000
(1788970270.029316) can0 04FF3602#0000000000000000
(1788970270.039305) can0 04FF3604#0005000400000100
(1788970270.069302) can0 04FF3604#0004000400000100
(1788970270.092158) can0 03FF1000#0000112200000001
(1788970270.099293) can0 04FF3604#0005000300000100
(1788970270.102386) can0 03FF1001#0000000000000000
(1788970270.113156) can0 03FF1600#142B000104001319
(1788970270.123286) can0 03FF1601#6E50000000000000
(1788970270.129309) can0 04FF3604#0004000400000100
(1788970270.134160) can0 03FF1602#075A850000001324
(1788970270.145159) can0 03FF1603#0034D93A00000000
(1788970270.155311) can0 03FF1604#0000000100000000
(1788970270.159320) can0 04FF3604#0004000300000100
(1788970270.166158) can0 03FF1605#0100000000000000
(1788970270.189293) can0 04FF3604#0005000300000100
(1788970270.197379) can0 03FF1000#0000112200000001
(1788970270.208159) can0 03FF1001#0000000000000000
(1788970270.218322) can0 03FF1603#003AD93A00000000
(1788970270.219282) can0 05FF4610#0000CE66FFFFFF92
(1788970270.220159) can0 04FF3604#0003000300000100
(1788970270.229164) can0 03FF1605#0100000000000000
(1788970270.249301) can0 04FF3604#0004000300000100
(1788970270.279302) can0 04FF3604#0004000400000100
(1788970270.304164) can0 03FF1000#0000112200000001
(1788970270.309302) can0 04FF3604#0005000400000100
(1788970270.315163) can0 03FF1001#0000000000000000
(1788970270.325325) can0 03FF1603#003FD93A00000000
(1788970270.336174) can0 03FF1605#0100000000000000
(1788970270.339305) can0 04FF3604#0004000400000100
(1788970270.369307) can0 04FF3604#0004000300000100
(1788970270.394198) can0 05FF4001#0000000000000000
(1788970270.396168) can0 05FF4000#0000000000000000
(1788970270.399307) can0 04FF3604#0003000300000100
(1788970270.410168) can0 03FF1000#0000112200000001
(1788970270.420343) can0 03FF1001#0000000000000000
(1788970270.429299) can0 04FF3604#0004000300000100
(1788970270.431169) can0 03FF1603#0046D93A00000000
(1788970270.441321) can0 03FF1605#0100000000000000
(1788970270.459282) can0 04FF3604#0004000300000100
(1788970270.477172) can0 05FF4602#E10FE60FE10FE00F
(1788970270.482172) can0 05FF4610#0000CE66FFFFFF92
(1788970270.487172) can0 05FF4603#DD0FE40FDF0FE00F
(1788970270.489306) can0 04FF3604#0003000300000100
(1788970270.497173) can0 05FF4604#DE0FE00FE20FE30F
(1788970270.507174) can0 05FF4605#DB0F000000000000
(1788970270.517174) can0 03FF1000#0000112200000001
(1788970270.519300) can0 04FF3604#0004000400000100
(1788970270.527348) can0 03FF1001#0000000000000000
(1788970270.529301) can0 04FF3602#0000000000000000
(1788970270.537178) can0 05FF4606#141514
(1788970270.538175) can0 03FF1603#004DD93A00000000
(1788970270.547175) can0 05FF4607#141615
(1788970270.549175) can0 03FF1605#0100000000000000
(1788970270.549438) can0 04FF3604#0005000300000100
(1788970270.557176) can0 05FF4608#0019007C
(1788970270.567177) can0 05FF4609#0300037003B600
(1788970270.579293) can0 04FF3604#0004000400000100
(1788970270.609317) can0 04FF3604#0003000300000100
(1788970270.624184) can0 03FF1000#0000112200000001
(1788970270.629179) can0 02181606#0100190001030200
(1788970270.634410) can0 03FF1001#0000000000000000
(1788970270.639288) can0 04FF3604#0004000300000100
(1788970270.645181) can0 03FF1603#0057D93A00000000
(1788970270.655390) can0 03FF1605#0100000000000000
(1788970270.659180) can0 02203606#0101000100000000
(1788970270.669298) can0 04FF3604#0005000300000100
(1788970270.689182) can0 02181608#0500000001000000
(1788970270.699299) can0 04FF3604#0004000300000100
(1788970270.719184) can0 02181609#0000000000000000
(1788970270.729280) can0 04FF3604#0005000300000100
(1788970270.730184) can0 03FF1000#0000112200000001
(1788970270.740371) can0 03FF1001#0000000000000000
(1788970270.745185) can0 05FF4610#0000CE66FFFFFF92
(1788970270.749184) can0 02488600#0000000000000000
(1788970270.751184) can0 03FF1603#0063D93A00000000
(1788970270.759290) can0 04FF3604#0005000400000100
(1788970270.762185) can0 03FF1605#0100000000000000
(1788970270.764440) can0 05FF4600#0D0400C00303
(1788970270.772308) can0 03121606#0000000000000000
(1788970270.778406) can0 02191502#
(1788970270.789302) can0 04FF3604#0004000300000100
(1788970270.793418) can0 03FF1502#0100000000000000
(1788970270.809188) can0 02FF2605#0000060909060101
(1788970270.819293) can0 04FF3604#0003000300000100
(1788970270.836190) can0 03FF1000#0000112200000001
(1788970270.839189) can0 02FF2604#0000000000000000
(1788970270.847190) can0 03FF1001#0000000000000000
(1788970270.849282) can0 04FF3604#0005000300000100
(1788970270.858190) can0 03FF1603#006ED93A00000000
(1788970270.868411) can0 03FF1605#0100000000000000
(1788970270.869190) can0 02FF2704#0200000000000000
(1788970270.879295) can0 04FF3604#0005000300000100
(1788970270.899192) can0 0260B606#0000000000000000
(1788970270.909297) can0 04FF3604#0004000300000100
(1788970270.929194) can0 02203607#0000000300000000
(1788970270.939286) can0 04FF3604#0003000400000100
(1788970270.943194) can0 03FF1000#0000112200000001
(1788970270.954195) can0 03FF1001#0000000000000000
(1788970270.964341) can0 03FF1603#0076D93A00000000
(1788970270.969287) can0 04FF3604#0005000300000100
(1788970270.975195) can0 03FF1605#0100000000000000
(1788970270.999294) can0 04FF3604#0002000300000100
(1788970271.007205) can0 05FF4610#0000CE66FFFFFF92
(1788970271.029303) can0 04FF3602#0000000000000000
(1788970271.030198) can0 04FF3604#0004000400000100
(1788970271.049434) can0 03FF1000#0000112200000001
(1788970271.059280) can0 04FF3604#0005000300000100
(1788970271.060200) can0 03FF1001#0000000000000000
(1788970271.070374) can0 03FF1603#007BD93A00000000
(1788970271.081201) can0 03FF1605#0100000000000000
(1788970271.089288) can0 04FF3604#0002000400000100
(1788970271.102202) can0 03FF1600#142B000104001319
(1788970271.112341) can0 03FF1601#6E50000000000000
(1788970271.119284) can0 04FF3604#0005000400000100
(1788970271.123206) can0 03FF1602#075A850000031324
(1788970271.133378) can0 03FF1604#0036000200000000
(1788970271.149285) can0 04FF3604#0003000300000100
(1788970271.154440) can0 03FF1000#0000112200000001
(1788970271.165391) can0 03FF1001#0000000000000000
(1788970271.176205) can0 03FF1603#0080D93A00000000
(1788970271.179286) can0 04FF3604#0003000400000100
(1788970271.187206) can0 03FF1605#0100000000000000
(1788970271.209272) can0 04FF3604#0002000300000100
(1788970271.239305) can0 04FF3604#0004000400000100
(1788970271.260385) can0 03FF1000#0000112200000001
(1788970271.269279) can0 04FF3604#0005000400000100
(1788970271.271209) can0 03FF1001#0000000000000000
(1788970271.281419) can0 03FF1603#0084D93A00000000
(1788970271.292211) can0 03FF1605#0100000000000000
(1788970271.297211) can0 05FF4610#0000CE64FFFFFF8C
(1788970271.299303) can0 04FF3604#0004000300000100
(1788970271.329285) can0 04FF3604#0006000400000100
(1788970271.359296) can0 04FF3604#0002000300000100
(1788970271.366411) can0 03FF1000#0000112200000001
(1788970271.377319) can0 03FF1001#0000000000000000
(1788970271.388215) can0 03FF1603#0087D93A00000000
(1788970271.389273) can0 02181606#0100190001030200
(1788970271.399216) can0 03FF1605#0100000000000000
(1788970271.419264) can0 02203606#0101000100000000
(1788970271.420216) can0 04FF3604#0005000400000100
(1788970271.428218) can0 05FF4001#0000000000000000
(1788970271.430216) can0 05FF4000#0000000000000000
(1788970271.449276) can0 04FF3604#0003000300000100
(1788970271.450218) can0 02181608#0500000001000000
(1788970271.474393) can0 03FF1000#0000112200000001
(1788970271.479284) can0 04FF3604#0004000300000100
(1788970271.480219) can0 02181609#0000000000000000
(1788970271.485370) can0 03FF1001#0000000000000000
(1788970271.496429) can0 03FF1603#0089D93A00000000
(1788970271.507221) can0 03FF1605#0100000000000000
(1788970271.509290) can0 04FF3604#0004000400000100
(1788970271.510220) can0 02488600#0000000000000000
(1788970271.510438) can0 05FF4602#E00FE60FE10FE00F
(1788970271.517360) can0 03121606#0000000000000000
(1788970271.520221) can0 05FF4603#DD0FE40FDF0FE00F
(1788970271.529292) can0 04FF3602#0000000000000000
(1788970271.530222) can0 05FF4604#DD0FE00FE20FE30F
(1788970271.539418) can0 04FF3604#0004000300000100
(1788970271.540222) can0 02191503#
(1788970271.540277) can0 05FF4605#DB0F000000000000
(1788970271.557467) can0 05FF4610#0000CE64FFFFFF8C
(1788970271.561223) can0 03FF1503#0100000000000000
(1788970271.569281) can0 04FF3604#0004000400000100
(1788970271.570223) can0 05FF4606#141514
(1788970271.579259) can0 05FF4607#141615
(1788970271.583224) can0 03FF1000#0000112200000001
(1788970271.590282) can0 05FF4608#0019007C
(1788970271.594224) can0 03FF1001#0000000000000000
(1788970271.599283) can0 04FF3604#0004000300000100
(1788970271.600371) can0 05FF4609#0300037003B600
(1788970271.604352) can0 03FF1603#008AD93A00000000
(1788970271.615399) can0 03FF1605#0100000000000000
(1788970271.629287) can0 04FF3604#0003000300000100
(1788970271.659282) can0 04FF3604#0004000300000100
(1788970271.689292) can0 04FF3604#0003000300000100
(1788970271.690229) can0 02FF2605#0000060909060102
(1788970271.691229) can0 03FF1000#0000112200000001
(1788970271.702231) can0 03FF1001#0000000000000000
(1788970271.713230) can0 03FF1603#008DD93A00000000
(1788970271.719265) can0 04FF3604#0004000300000100
(1788970271.720230) can0 02FF2604#0000000000000000
(1788970271.724233) can0 03FF1605#0100000000000000
(1788970271.749280) can0 04FF3604#0006000400000100
(1788970271.750232) can0 02FF2704#0200000000000000
(1788970271.779311) can0 04FF3604#0003000300000100
(1788970271.782234) can0 0260B606#0000000000000000
(1788970271.799409) can0 03FF1000#0000112200000001
(1788970271.809294) can0 04FF3604#0003000400000100
(1788970271.810235) can0 02203607#0000000300000000
(1788970271.810463) can0 03FF1001#0000000000000000
(1788970271.821236) can0 03FF1603#0090D93A00000000
(1788970271.821430) can0 05FF4610#0000CE64FFFFFF8C
(1788970271.831425) can0 03FF1605#0100000000000000
(1788970271.839278) can0 04FF3604#0003000400000100
(1788970271.869273) can0 04FF3604#0004000300000100
(1788970271.899274) can0 04FF3604#0005000300000100
(1788970271.905448) can0 03FF1000#0000112200000001
(1788970271.916240) can0 03FF1001#0000000000000000
(1788970271.926334) can0 03FF1603#0095D93A00000000
(1788970271.929287) can0 04FF3604#0004000300000100
(1788970271.937241) can0 03FF1605#0100000000000000
(1788970271.959277) can0 04FF3604#0005000300000100
(1788970271.989268) can0 04FF3604#0005000300000100
(1788970272.011476) can0 03FF1000#0000112200000001
(1788970272.019279) can0 04FF3604#0003000400000100
(1788970272.022245) can0 03FF1001#0000000000000000
(1788970272.029282) can0 04FF3400#0000000000000000
(1788970272.030245) can0 04FF3602#0000000000000000
(1788970272.032373) can0 03FF1603#009ED93A00000000
(1788970272.044249) can0 03FF1605#0100000000000000
(1788970272.049293) can0 04FF3604#0004000300000100
(1788970272.054397) can0 03FF1400#0000000000000000
(1788970272.060247) can0 02F82400#E98D000000000000
(1788970272.079271) can0 04FF3604#0003000300000100
(1788970272.085249) can0 05FF4610#0000CE64FFFFFF8C
(1788970272.090248) can0 02FF2602#6CC173353C9E508F
(1788970272.109249) can0 03FF1600#142B000104001319
(1788970272.110249) can0 04FF3604#0003000400000100
(1788970272.120249) can0 03FF1601#6E50000000000000
(1788970272.131253) can0 03FF1602#075A850000081324
(1788970272.139274) can0 04FF3604#0004000400000100
(1788970272.142251) can0 03FF1604#0060000300000000
(1788970272.150252) can0 02181606#0100190001030200
(1788970272.153251) can0 03FF1000#0000112200000001
(1788970272.163390) can0 03FF1001#0000000000000000
(1788970272.169280) can0 04FF3604#0004000300000100
(1788970272.174253) can0 03FF1603#00A6D93A00000000
(1788970272.184392) can0 03FF1605#0100000000000000
(1788970272.190253) can0 02203606#0101000100000000
(1788970272.199271) can0 04FF3604#0003000300000100
(1788970272.220256) can0 02181608#0500000001000000
(1788970272.226443) can0 03FF1000#0000112200000001
(1788970272.229279) can0 04FF3604#0004000300000100
(1788970272.237256) can0 03FF1001#0000000000000000
(1788970272.247348) can0 03FF1603#00B0D93A00000000
(1788970272.250255) can0 02181609#0000000000000000
(1788970272.258256) can0 03FF1605#0100000000000000
(1788970272.259279) can0 04FF3604#0005000300000100
(1788970272.268373) can0 03121606#0000000000000000
(1788970272.280258) can0 02488600#0000000000000000
(1788970272.289269) can0 04FF3604#0004000300000100
(1788970272.310258) can0 02191504#
(1788970272.319270) can0 04FF3604#0005000300000100
(1788970272.322398) can0 03FF1504#0000001D00000000
(1788970272.333263) can0 03FF1000#0000112200000001
(1788970272.344261) can0 03FF1001#0000000000000000
(1788970272.349260) can0 04FF3604#0006000400000100
(1788970272.354341) can0 03FF1603#00B4D93A00000000
(1788970272.365392) can0 03FF1605#0100000000000000
(1788970272.374344) can0 05FF4610#0000CE64FFFFFF8C
(1788970272.379262) can0 04FF3604#0003000400000100
(1788970272.409264) can0 04FF3604#0003000300000100
(1788970272.439267) can0 04FF3604#0005000300000100
(1788970272.440264) can0 03FF1000#0000112200000001
(1788970272.451265) can0 03FF1001#0000000000000000
(1788970272.462266) can0 03FF1603#00B3D93A00000000
(1788970272.462471) can0 05FF4001#0000000000000000
(1788970272.464266) can0 05FF4000#0000000000000000
(1788970272.469266) can0 04FF3604#0004000300000100
(1788970272.472382) can0 03FF1605#0100000000000000
(1788970272.499269) can0 04FF3604#0005000300000100
(1788970272.529282) can0 04FF3602#0000000000000000
(1788970272.530269) can0 04FF3604#0006000300000100
(1788970272.544273) can0 05FF4602#E10FE60FE00FE00F
(1788970272.547455) can0 03FF1000#0000112200000001
(1788970272.555271) can0 05FF4603#DD0FE30FDF0FE00F
(1788970272.558270) can0 03FF1001#0000000000000000
(1788970272.559270) can0 04FF3604#0004000300000100
(1788970272.565271) can0 05FF4604#DD0FE00FE30FE30F
(1788970272.569271) can0 03FF1603#00B5D93A00000000
(1788970272.575271) can0 05FF4605#DB0F000000000000
(1788970272.579399) can0 03FF1605#0100000000000000
(1788970272.589272) can0 04FF3604#0005000300000100
(1788970272.605273) can0 05FF4606#141514
(1788970272.615273) can0 05FF4607#141615
(1788970272.619273) can0 04FF3604#0005000300000100
(1788970272.625277) can0 05FF4608#0019007C
(1788970272.635275) can0 05FF4609#0300037003B600
(1788970272.636274) can0 05FF4610#0000CE64FFFFFF8C
(1788970272.649275) can0 04FF3604#0005000300000100
(1788970272.656276) can0 03FF1000#0000112200000001
(1788970272.667275) can0 03FF1001#0000000000000000
(1788970272.677363) can0 03FF1603#00B8D93A00000000
(1788970272.679277) can0 04FF3604#0002000300000100
(1788970272.688277) can0 03FF1605#0100000000000000
(1788970272.700498) can0 02FF2605#0000060909060103
(1788970272.709278) can0 04FF3604#0005000300000100
(1788970272.731282) can0 02FF2604#0000000000000000
(1788970272.739280) can0 04FF3604#0004000300000100
(1788970272.761281) can0 02FF2704#0200000000000000
(1788970272.762430) can0 03FF1000#0000112200000001
(1788970272.769280) can0 04FF3604#0004000300000100
(1788970272.773477) can0 03FF1001#0000000000000000
(1788970272.784416) can0 03FF1603#00B7D93A00000000
(1788970272.791281) can0 0260B606#0000000000000000
(1788970272.795281) can0 03FF1605#0100000000000000
(1788970272.799281) can0 04FF3604#0004000300000100
(1788970272.821283) can0 02203607#0000000300000000
(1788970272.829284) can0 04FF3604#0003000400000100
(1788970272.859285) can0 04FF3604#0003000300000100
(1788970272.869436) can0 03FF1000#0000112200000001
(1788970272.880339) can0 03FF1001#0000000000000000
(1788970272.889286) can0 04FF3604#0003000300000100
(1788970272.891286) can0 03FF1603#00B5D93A00000000
(1788970272.898287) can0 05FF4610#0000CE64FFFFFF8C
(1788970272.901375) can0 03FF1605#0100000000000000
(1788970272.911288) can0 02181606#0100190001030200
(1788970272.919288) can0 04FF3604#0002000300000100
(1788970272.941290) can0 02203606#0101000100000000
(1788970272.949290) can0 04FF3604#0004000300000100
(1788970272.971290) can0 02181608#0500000001000000
(1788970272.977291) can0 03FF1000#0000112200000001
(1788970272.979290) can0 04FF3604#0004000300000100
(1788970272.988291) can0 03FF1001#0000000000000000
(1788970272.999292) can0 03FF1603#00B7D93A00000000
(1788970273.001291) can0 02181609#0000000000000000
(1788970273.009292) can0 04FF3604#0004000400000100
(1788970273.010291) can0 03FF1605#0100000000000000
(1788970273.020293) can0 03121606#0000000000000000
(1788970273.029293) can0 04FF3602#0000000000000000
(1788970273.031292) can0 02488600#0000000000000000
(1788970273.039293) can0 04FF3604#0004000300000100
(1788970273.061299) can0 02213502#
(1788970273.069294) can0 04F93502#0000000000000000
(1788970273.070294) can0 04FF3604#0004000300000100
(1788970273.085296) can0 03FF1000#0000112200000001
(1788970273.095388) can0 03FF1001#0000000000000000
(1788970273.099296) can0 04FF3604#0003000400000100
(1788970273.106297) can0 03FF1603#00B8D93A00000000
(1788970273.116408) can0 03FF1605#0100000000000000
(1788970273.127300) can0 03FF1600#142B000104001319
(1788970273.129298) can0 04FF3604#0003000300000100
(1788970273.138298) can0 03FF1601#6E50000000000000
(1788970273.149368) can0 03FF1602#075A8600000D1324
(1788970273.159299) can0 04FF3604#0004000300000100
(1788970273.160299) can0 03FF1604#0075000400000000
(1788970273.188301) can0 05FF4610#0000CE65FFFFFF87
(1788970273.189305) can0 04FF3604#0003000300000100
(1788970273.191405) can0 03FF1000#0000112200000001
(1788970273.202510) can0 03FF1001#0000000000000000
(1788970273.213301) can0 03FF1603#00B7D93A00000000
(1788970273.219301) can0 04FF3604#0003000300000100
(1788970273.223417) can0 03FF1605#0100000000000000
(1788970273.249308) can0 04FF3604#0005000300000100
(1788970273.279305) can0 04FF3604#0004000300000100
(1788970273.298306) can0 03FF1000#0000112200000001
(1788970273.309307) can0 03FF1001#0000000000000000
(1788970273.309488) can0 04FF3604#0004000400000100
(1788970273.319422) can0 03FF1603#00B3D93A00000000
(1788970273.330310) can0 03FF1605#0100000000000000
(1788970273.339308) can0 04FF3604#0004000300000100
(1788970273.369308) can0 04FF3604#0003000300000100
(1788970273.399311) can0 04FF3604#0006000300000100
(1788970273.403456) can0 03FF1000#0000112200000001
(1788970273.414311) can0 03FF1001#0000000000000000
(1788970273.424404) can0 03FF1603#00AED93A00000000
(1788970273.429312) can0 04FF3604#0002000400000100
(1788970273.435312) can0 03FF1605#0100000000000000
(1788970273.450313) can0 05FF4610#0000CE65FFFFFF87
(1788970273.459314) can0 04FF3604#0005000300000100
(1788970273.489315) can0 04FF3604#0004000400000100
(1788970273.495314) can0 05FF4001#0000000000000000
(1788970273.497314) can0 05FF4000#0000000000000000
(1788970273.510466) can0 03FF1000#0000112200000001
(1788970273.519316) can0 04FF3604#0004000300000100
(1788970273.521427) can0 03FF1001#0000000000000000
(1788970273.529317) can0 04FF3602#0000000000000000
(1788970273.532374) can0 03FF1603#00AAD93A00000000
(1788970273.543319) can0 03FF1605#0100000000000000
(1788970273.549318) can0 04FF3604#0004000300000100
(1788970273.577320) can0 05FF4602#E00FE60FE10FE00F
(1788970273.579319) can0 04FF3604#0005000300000100
(1788970273.588321) can0 05FF4603#DD0FE40FDF0FE00F
(1788970273.598321) can0 05FF4604#DE0FE00FE20FE30F
(1788970273.608321) can0 05FF4605#DB0F000000000000
(1788970273.609320) can0 04FF3604#0004000300000100
(1788970273.618320) can0 03FF1000#0000112200000001
(1788970273.629324) can0 03FF1001#0000000000000000
(1788970273.637519) can0 05FF4606#141514
(1788970273.639321) can0 04FF3604#0005000300000100
(1788970273.640321) can0 03FF1603#00A6D93A00000000
(1788970273.647507) can0 05FF4607#141615
(1788970273.650449) can0 03FF1605#0100000000000000
(1788970273.657543) can0 05FF4608#0019007C
(1788970273.668323) can0 05FF4609#0300037003B600
(1788970273.669323) can0 04FF3604#0004000400000100
(1788970273.671485) can0 02181606#0100190001030200
(1788970273.699325) can0 04FF3604#0004000400000100
(1788970273.712326) can0 05FF4610#0000CE65FFFFFF87
(1788970273.723325) can0 02203606#0101000100000000
(1788970273.726326) can0 03FF1000#0000112200000001
(1788970273.729326) can0 04FF3604#0003000300000100
(1788970273.737326) can0 03FF1001#0000000000000000
(1788970273.748327) can0 03FF1603#00A2D93A00000000
(1788970273.751569) can0 02181608#0500000001000000
(1788970273.758420) can0 03FF1605#0100000000000000
(1788970273.759326) can0 04FF3604#0006000300000100
(1788970273.769466) can0 03121606#0000000000000000
(1788970273.781537) can0 02181609#0000000000000000
(1788970273.789329) can0 04FF3604#0003000300000100
(1788970273.812330) can0 02488600#0000000000000000
(1788970273.819330) can0 04FF3604#0006000300000100
(1788970273.834331) can0 03FF1000#0000112200000001
(1788970273.841355) can0 02213503#
(1788970273.845331) can0 03FF1001#0000000000000000
(1788970273.849331) can0 04F93503#0000000000000000
(1788970273.850331) can0 04FF3604#0004000300000100
(1788970273.855401) can0 03FF1603#00A0D93A00000000
(1788970273.866397) can0 03FF1605#0100000000000000
(1788970273.872333) can0 02FF2605#0000060909060104
(1788970273.879333) can0 04FF3604#0003000300000100
(1788970273.902334) can0 02FF2604#0000000000000000
(1788970273.909335) can0 04FF3604#0004000400000100
(1788970273.932336) can0 02FF2704#0200000000000000
(1788970273.939336) can0 04FF3604#0004000300000100
(1788970273.940428) can0 03FF1000#0000112200000001
(1788970273.951394) can0 03FF1001#0000000000000000
(1788970273.962337) can0 03FF1603#009ED93A00000000
(1788970273.963336) can0 0260B606#0000000000000000
(1788970273.969337) can0 04FF3604#0005000300000100
(1788970273.972402) can0 03FF1605#0100000000000000
(1788970273.975337) can0 05FF4610#0000CE65FFFFFF87
(1788970273.992341) can0 02203607#0000000300000000
(1788970273.999339) can0 04FF3604#0003000400000100
(1788970274.029342) can0 04FF3602#0000000000000000
(1788970274.030340) can0 04FF3604#0005000300000100
(1788970274.048344) can0 03FF1000#0000112200000001
(1788970274.059342) can0 03FF1001#0000000000000000
(1788970274.059535) can0 04FF3604#0005000400000100
(1788970274.069400) can0 03FF1603#009CD93A00000000
(1788970274.080343) can0 03FF1605#0100000000000000
(1788970274.089343) can0 04FF3604#0005000400000100
(1788970274.119344) can0 04FF3604#0002000300000100
(1788970274.122344) can0 03FF1600#142B000104001319
(1788970274.133348) can0 03FF1601#6E50000000000000
(1788970274.143404) can0 03FF1602#075A860000121324
(1788970274.149346) can0 04FF3604#0002000300000100
(1788970274.154345) can0 03FF1604#0081000500000000
(1788970274.165347) can0 03FF1000#0000112200000001
(1788970274.176347) can0 03FF1001#0000000000000000
(1788970274.179347) can0 04FF3604#0006000300000100
(1788970274.186406) can0 03FF1603#009BD93A00000000
(1788970274.197348) can0 03FF1605#0100000000000000
(1788970274.209349) can0 04FF3604#0006000300000100
(1788970274.239353) can0 04FF3604#0004000400000100
(1788970274.261351) can0 03FF1000#0000112200000001
(1788970274.264351) can0 05FF4610#0000CE67FFFFFF8C
(1788970274.269351) can0 04FF3604#0005000300000100
(1788970274.271567) can0 03FF1001#0000000000000000
(1788970274.282433) can0 03FF1603#009ED93A00000000
(1788970274.293352) can0 03FF1605#0100000000000000
(1788970274.299353) can0 04FF3604#0004000300000100
(1788970274.329356) can0 04FF3604#0004000400000100
(1788970274.359357) can0 04FF3604#0006000300000100
(1788970274.368356) can0 03FF1000#0000112200000001
(1788970274.379357) can0 03FF1001#0000000000000000
(1788970274.389357) can0 04FF3604#0005000300000100
(1788970274.390357) can0 03FF1603#00A4D93A00000000
(1788970274.400358) can0 03FF1605#0100000000000000
(1788970274.419362) can0 04FF3604#0005000400000100
(1788970274.432360) can0 02181606#0100190001030200
(1788970274.449361) can0 04FF3604#0003000300000100
(1788970274.462361) can0 02203606#0101000100000000
(1788970274.475476) can0 03FF1000#0000112200000001
(1788970274.479362) can0 04FF3604#0003000300000100
(1788970274.486363) can0 03FF1001#0000000000000000
(1788970274.492362) can0 02181608#0500000001000000
(1788970274.497362) can0 03FF1603#00AAD93A00000000
(1788970274.507498) can0 03FF1605#0100000000000000
(1788970274.509363) can0 04FF3604#0006000300000100
(1788970274.518364) can0 03121606#0000000000000000
(1788970274.522363) can0 02181609#0000000000000000
(1788970274.528365) can0 05FF4610#0000CE67FFFFFF8C
(1788970274.529363) can0 04FF3602#0000000000000000
(1788970274.530363) can0 05FF4001#0000000000000000
(1788970274.532363) can0 05FF4000#0000000000000000
(1788970274.539364) can0 04FF3604#0004000400000100
(1788970274.552368) can0 02488600#0000000000000000
(1788970274.569366) can0 04FF3604#0003000300000100
(1788970274.582425) can0 03FF1000#0000112200000001
(1788970274.587373) can0 02213504#
(1788970274.593367) can0 03FF1001#0000000000000000
(1788970274.594366) can0 04F93504#0000000000000000
(1788970274.599367) can0 04FF3604#0003000300000100
(1788970274.603432) can0 03FF1603#00B1D93A00000000
(1788970274.613543) can0 05FF4602#E00FE60FE10FE00F
(1788970274.614379) can0 03FF1605#0100000000000000
(1788970274.623530) can0 05FF4603#DE0FE40FDF0FE00F
(1788970274.629371) can0 04FF3604#0003000300000100
(1788970274.633508) can0 05FF4604#DE0FE00FE30FE30F
(1788970274.643497) can0 05FF4605#DB0F000000000000
(1788970274.659370) can0 04FF3604#0004000300000100
(1788970274.674371) can0 05FF4606#141514
(1788970274.684372) can0 05FF4607#141615
(1788970274.689371) can0 04FF3604#0004000400000100
(1788970274.690463) can0 03FF1000#0000112200000001
(1788970274.695371) can0 05FF4608#0019007C
(1788970274.701511) can0 03FF1001#0000000000000000
(1788970274.705406) can0 05FF4609#0300037003B600
(1788970274.712408) can0 03FF1603#00B6D93A00000000
(1788970274.719374) can0 04FF3604#0005000300000100
(1788970274.723442) can0 03FF1605#0100000000000000
(1788970274.742480) can0 02FF2605#0000060909060105
(1788970274.749375) can0 04FF3604#0004000300000100
(1788970274.772523) can0 02FF2604#0000000000000000
(1788970274.779376) can0 04FF3604#0005000300000100
(1788970274.792377) can0 05FF4610#0000CE67FFFFFF8C
(1788970274.799376) can0 03FF1000#0000112200000001
(1788970274.802592) can0 02FF2704#0200000000000000
(1788970274.809378) can0 04FF3604#0003000400000100
(1788970274.810377) can0 03FF1001#0000000000000000
(1788970274.821378) can0 03FF1603#00B8D93A00000000
(1788970274.831497) can0 03FF1605#0100000000000000
(1788970274.832610) can0 0260B606#0000000000000000
(1788970274.839378) can0 04FF3604#0004000400000100
(1788970274.862600) can0 02203607#0000000300000000
(1788970274.869380) can0 04FF3604#0003000300000100
(1788970274.899381) can0 04FF3604#0004000300000100
(1788970274.906382) can0 03FF1000#0000112200000001
(1788970274.916417) can0 03FF1001#0000000000000000
(1788970274.927413) can0 03FF1603#00B9D93A00000000
(1788970274.929383) can0 04FF3604#0005000300000100
(1788970274.938384) can0 03FF1605#0100000000000000
(1788970274.959385) can0 04FF3604#0004000300000100
(1788970274.989386) can0 04FF3604#0003000300000100
(1788970275.012387) can0 03FF1000#0000112200000001
(1788970275.019391) can0 04FF3604#0005000300000100
(1788970275.023387) can0 03FF1001#0000000000000000
(1788970275.029391) can0 04FF3602#0000000000000000
(1788970275.034388) can0 03FF1603#00BED93A00000000
(1788970275.045392) can0 03FF1605#0100000000000000
(1788970275.049388) can0 04FF3604#0005000300000100
(1788970275.055389) can0 05FF4610#0000CE67FFFFFF8C
(1788970275.079390) can0 04FF3604#0003000300000100
(1788970275.109392) can0 04FF3604#0004000300000100
(1788970275.120391) can0 03FF1000#0000112200000001
(1788970275.131395) can0 03FF1001#0000000000000000
(1788970275.139393) can0 04FF3604#0004000300000100
(1788970275.141578) can0 03FF1603#00C2D93A00000000
(1788970275.152579) can0 03FF1605#0100000000000000
(1788970275.163448) can0 03FF1600#142B000104001319
(1788970275.169394) can0 04FF3604#0003000400000100
(1788970275.174394) can0 03FF1601#6E50000000000000
(1788970275.185395) can0 03FF1602#075A870000171324
(1788970275.193396) can0 02181606#0100190001030200
(1788970275.196395) can0 03FF1604#008A000600000000
(1788970275.199395) can0 04FF3604#0004000300000100
(1788970275.223397) can0 02203606#0101000100000000
(1788970275.228470) can0 03FF1000#0000112200000001
(1788970275.229397) can0 04FF3604#0007000300000100
(1788970275.239421) can0 03FF1001#0000000000000000
(1788970275.250444) can0 03FF1603#00C5D93A00000000
(1788970275.253398) can0 02181608#0500000001000000
(1788970275.259398) can0 04FF3604#0004000400000100
(1788970275.261398) can0 03FF1605#0100000000000000
(1788970275.272399) can0 03121606#0000000000000000
(1788970275.283400) can0 02181609#0000000000000000
(1788970275.289399) can0 04FF3604#0003000300000100
(1788970275.313401) can0 02488600#0000000000000000
(1788970275.319401) can0 04FF3604#0003000400000100
(1788970275.336403) can0 03FF1000#0000112200000001
(1788970275.343402) can0 02213600#
(1788970275.346403) can0 05FF4610#0000CE65FFFFFF8C
(1788970275.346457) can0 03FF1001#0000000000000000
(1788970275.349402) can0 04FF3604#0003000300000100
(1788970275.357438) can0 03FF1603#00C7D93A00000000
(1788970275.368404) can0 03FF1605#0100000000000000
(1788970275.379405) can0 04FF3604#0004000300000100
(1788970275.409406) can0 04FF3604#0006000300000100
(1788970275.439407) can0 04FF3604#0004000300000100
(1788970275.441488) can0 03FF1000#0000112200000001
(1788970275.452454) can0 03FF1001#0000000000000000
(1788970275.463409) can0 03FF1603#00CFD93A00000000
(1788970275.469409) can0 04FF3604#0004000400000100
(1788970275.473420) can0 03FF1605#0100000000000000
(1788970275.499410) can0 04FF3604#0004000400000100
(1788970275.529412) can0 04FF3602#0000000000000000
(1788970275.530411) can0 04FF3604#0004000300000100
(1788970275.548415) can0 03FF1000#0000112200000001
(1788970275.559413) can0 04FF3604#0004000300000100
(1788970275.560412) can0 03FF1001#0000000000000000
(1788970275.568436) can0 05FF4001#0000000000000000
(1788970275.570413) can0 03FF1603#00D8D93A00000000
(1788970275.570514) can0 05FF4000#0000000000000000
(1788970275.581414) can0 03FF1605#0100000000000000
(1788970275.589415) can0 04FF3604#0004000300000100
(1788970275.609416) can0 05FF4610#0000CE65FFFFFF8C
(1788970275.619416) can0 04FF3604#0005000400000100
(1788970275.649420) can0 04FF3604#0003000400000100
(1788970275.650417) can0 05FF4602#E00FE60FE10FE00F
(1788970275.655417) can0 03FF1000#0000112200000001
(1788970275.660418) can0 05FF4603#DD0FE30FDF0FE00F
(1788970275.666418) can0 03FF1001#0000000000000000
(1788970275.671418) can0 05FF4604#DE0FE00FE30FE30F
(1788970275.677419) can0 03FF1603#00DED93A00000000
(1788970275.679418) can0 04FF3604#0004000400000100
(1788970275.681418) can0 05FF4605#DB0F000000000000
(1788970275.688419) can0 03FF1605#0100000000000000
(1788970275.709420) can0 04FF3604#0005000400000100
(1788970275.711419) can0 05FF4606#141514
(1788970275.722420) can0 05FF4607#141615
(1788970275.732421) can0 05FF4608#0019007C
(1788970275.739422) can0 04FF3604#0005000300000100
(1788970275.742421) can0 05FF4609#0300037003B600
(1788970275.753452) can0 02FF2605#0000060909060106
(1788970275.763654) can0 03FF1000#0000112200000001
(1788970275.769423) can0 04FF3604#0006000300000100
(1788970275.774515) can0 03FF1001#0000000000000000
(1788970275.783540) can0 02FF2604#0000000000000000
(1788970275.785527) can0 03FF1603#00E0D93A00000000
(1788970275.796448) can0 03FF1605#0100000000000000
(1788970275.799424) can0 04FF3604#0004000400000100
(1788970275.813490) can0 02FF2704#0200000000000000
(1788970275.829426) can0 04FF3604#0005000300000100
(1788970275.844428) can0 0260B606#0000000000000000
(1788970275.859427) can0 04FF3604#0005000300000100
(1788970275.872427) can0 03FF1000#0000112200000001
(1788970275.873427) can0 05FF4610#0000CE65FFFFFF8C
(1788970275.874427) can0 02203607#0000000300000000
(1788970275.883428) can0 03FF1001#0000000000000000
(1788970275.884427) can0 05FF4400#00000002
(1788970275.889428) can0 04FF3604#0003000300000100
(1788970275.893428) can0 03FF1603#00E0D93A00000000
(1788970275.904430) can0 03FF1605#0100000000000000
(1788970275.919430) can0 04FF3604#0004000300000100
(1788970275.935431) can0 05FF4600#0D0400C00303
(1788970275.949431) can0 04FF3604#0003000300000100
(1788970275.953674) can0 02181606#0100190001030200
(1788970275.979434) can0 03FF1000#0000112200000001
(1788970275.979581) can0 04FF3604#0002000300000100
(1788970275.984433) can0 02203606#0101000100000000
(1788970275.985433) can0 05FF4601#006600000000
(1788970275.990433) can0 03FF1001#0000000000000000
(1788970276.001433) can0 03FF1603#00E5D93A00000000
(1788970276.009434) can0 04FF3604#0005000300000100
(1788970276.012434) can0 03FF1605#0100000000000000
(1788970276.014433) can0 02181608#0500000001000000
(1788970276.022446) can0 03121606#0000000000000000
(1788970276.029436) can0 04FF3602#0000000000000000
(1788970276.039436) can0 04FF3604#0003000300000100
(1788970276.044439) can0 02181609#0000000000000000
(1788970276.069438) can0 04FF3604#0004000400000100
(1788970276.074437) can0 02488600#0000000000000000
(1788970276.086496) can0 03FF1000#0000112200000001
(1788970276.097438) can0 03FF1001#0000000000000000
(1788970276.099438) can0 04FF3604#0005000300000100
(1788970276.107438) can0 03FF1603#00E9D93A00000000
(1788970276.118439) can0 03FF1605#0100000000000000
(1788970276.129443) can0 04FF3604#0004000300000100
(1788970276.133567) can0 02213601#
(1788970276.136440) can0 05FF4610#0000CE65FFFFFF8C
(1788970276.139447) can0 03FF1600#142B000104001319
(1788970276.151440) can0 03FF1601#6E50000000000000
(1788970276.159442) can0 04FF3604#0005000400000100
(1788970276.161441) can0 03FF1602#075A8800001E1324
(1788970276.172442) can0 03FF1604#009A000700000000
(1788970276.189443) can0 04FF3604#0004000400000100
(1788970276.193442) can0 03FF1000#0000112200000001
(1788970276.204443) can0 03FF1001#0000000000000000
(1788970276.215444) can0 03FF1603#00ECD93A00000000
(1788970276.219444) can0 04FF3604#0004000400000100
(1788970276.226447) can0 03FF1605#0100000000000000
(1788970276.249448) can0 04FF3604#0004000300000100
(1788970276.279448) can0 04FF3604#0004000300000100
(1788970276.301448) can0 03FF1000#0000112200000001
(1788970276.309448) can0 04FF3604#0003000300000100
(1788970276.312448) can0 03FF1001#0000000000000000
(1788970276.322449) can0 03FF1603#00EDD93A00000000
(1788970276.333450) can0 03FF1605#0100000000000000
(1788970276.339449) can0 04FF3604#0004000300000100
(1788970276.369452) can0 04FF3604#0004000300000100
(1788970276.399452) can0 04FF3604#0003000400000100
(1788970276.408511) can0 03FF1000#0000112200000001
(1788970276.419454) can0 03FF1001#0000000000000000
(1788970276.427454) can0 05FF4610#0000CE66FFFFFF87
(1788970276.429454) can0 04FF3604#0003000400000100
(1788970276.430453) can0 03FF1603#00F0D93A00000000
(1788970276.441455) can0 03FF1605#0100000000000000
(1788970276.459456) can0 04FF3604#0003000400000100
(1788970276.489459) can0 04FF3604#0003000300000100
(1788970276.516505) can0 03FF1000#0000112200000001
(1788970276.519457) can0 04FF3604#0004000300000100
(1788970276.527458) can0 03FF1001#0000000000000000
(1788970276.529460) can0 04FF3602#0000000000000000
(1788970276.538460) can0 03FF1603#00F4D93A00000000
(1788970276.548462) can0 03FF1605#0100000000000000
(1788970276.549459) can0 04FF3604#0004000300000100
(1788970276.579461) can0 04FF3604#0003000300000100
(1788970276.605463) can0 05FF4001#0000000000000000
(1788970276.607462) can0 05FF4000#0000000000000000
(1788970276.609462) can0 04FF3604#0004000300000100
(1788970276.624463) can0 03FF1000#0000112200000001
(1788970276.635467) can0 03FF1001#0000000000000000
(1788970276.639464) can0 04FF3604#0007000300000100
(1788970276.646465) can0 03FF1603#00F4D93A00000000
(1788970276.657465) can0 03FF1605#0100000000000000
(1788970276.669466) can0 04FF3604#0004000300000100
(1788970276.689467) can0 05FF4602#E10FE60FE10FE00F
(1788970276.691466) can0 05FF4610#0000CE66FFFFFF87
(1788970276.699466) can0 05FF4603#DD0FE40FDF0FE00F
(1788970276.699523) can0 04FF3604#0004000300000100
(1788970276.709468) can0 05FF4604#DE0FE00FE20FE30F
(1788970276.714467) can0 02181606#0100190001030200
(1788970276.720468) can0 05FF4605#DB0F000000000000
(1788970276.729468) can0 04FF3604#0003000300000100
(1788970276.732468) can0 03FF1000#0000112200000001
(1788970276.743469) can0 03FF1001#0000000000000000
(1788970276.744468) can0 02203606#0101000100000000
(1788970276.749630) can0 05FF4606#141514
(1788970276.754471) can0 03FF1603#00F2D93A00000000
(1788970276.759470) can0 04FF3604#0003000400000100
(1788970276.759624) can0 05FF4607#141615
(1788970276.765469) can0 03FF1605#0100000000000000
(1788970276.769643) can0 05FF4608#0019007C
(1788970276.774505) can0 02181608#0500000001000000
(1788970276.776470) can0 03121606#0000000000000000
(1788970276.780470) can0 05FF4609#0300037003B600
(1788970276.789471) can0 04FF3604#0004000300000100
(1788970276.804471) can0 02181609#0000000000000000
(1788970276.819472) can0 04FF3604#0005000400000100
(1788970276.834519) can0 02488600#0000000000000000
(1788970276.840474) can0 03FF1000#0000112200000001
(1788970276.849474) can0 04FF3604#0005000300000100
(1788970276.851474) can0 03FF1001#0000000000000000
(1788970276.862476) can0 03FF1603#00F2D93A00000000
(1788970276.864474) can0 02294611#
(1788970276.866474) can0 05124611#005F46D800003E27
(1788970276.872475) can0 03FF1605#0100000000000000
(1788970276.879476) can0 04FF3604#0005000300000100
(1788970276.894557) can0 02FF2605#0000060909060107
(1788970276.909478) can0 04FF3604#0005000300000100
(1788970276.924577) can0 02FF2604#0000000000000000
(1788970276.939479) can0 04FF3604#0004000400000100
(1788970276.948479) can0 03FF1000#0000112200000001
(1788970276.953502) can0 05FF4610#0000CE66FFFFFF87
(1788970276.954647) can0 02FF2704#0200000000000000
(1788970276.959479) can0 03FF1001#0000000000000000
(1788970276.969480) can0 04FF3604#0005000400000100
(1788970276.970479) can0 03FF1603#00F0D93A00000000
(1788970276.980481) can0 03FF1605#0100000000000000
(1788970276.984700) can0 0260B606#0000000000000000
(1788970276.999481) can0 04FF3604#0004000300000100
(1788970277.014679) can0 02203607#0000000300000000
(1788970277.029484) can0 04FF3602#0000000000000000
(1788970277.030482) can0 04FF3604#0005000300000100
(1788970277.055603) can0 03FF1000#0000112200000001
(1788970277.059484) can0 04FF3604#0003000300000100
(1788970277.066572) can0 03FF1001#0000000000000000
(1788970277.077485) can0 03FF1603#00EED93A00000000
(1788970277.088485) can0 03FF1605#0100000000000000
(1788970277.089485) can0 04FF3604#0003000300000100
(1788970277.119487) can0 04FF3604#0004000300000100
(1788970277.140490) can0 03FF1600#142B000104001319
(1788970277.149489) can0 04FF3604#0006000300000100
(1788970277.151488) can0 03FF1601#6E50000000000000
(1788970277.161488) can0 03FF1602#075A880000251324
(1788970277.172490) can0 03FF1604#00A6000800000000
(1788970277.179489) can0 04FF3604#0003000300000100
(1788970277.182489) can0 03FF1000#0000112200000001
(1788970277.193490) can0 03FF1001#0000000000000000
(1788970277.203490) can0 03FF1603#00E8D93A00000000
(1788970277.209491) can0 04FF3604#0004000300000100
(1788970277.214490) can0 03FF1605#0100000000000000
(1788970277.239496) can0 04FF3604#0003000300000100
(1788970277.244494) can0 05FF4610#0000CE67FFFFFF8C
(1788970277.268494) can0 03FF1000#0000112200000001
(1788970277.269494) can0 04FF3604#0005000400000100
(1788970277.278494) can0 03FF1001#0000000000000000
(1788970277.289517) can0 03FF1603#00E3D93A00000000
(1788970277.299495) can0 04FF3604#0004000400000100
(1788970277.300494) can0 03FF1605#0100000000000000
(1788970277.329496) can0 04FF3604#0003000300000100
(1788970277.359502) can0 04FF3604#0003000400000100
(1788970277.374499) can0 03FF1000#0000112200000001
(1788970277.385500) can0 03FF1001#0000000000000000
(1788970277.389501) can0 04FF3604#0004000400000100
(1788970277.396500) can0 03FF1603#00DED93A00000000
(1788970277.406500) can0 03FF1605#0100000000000000
(1788970277.419501) can0 04FF3604#0003000300000100
(1788970277.449503) can0 04FF3604#0003000300000100
(1788970277.475505) can0 02181606#0100190001030200
(1788970277.479505) can0 04FF3604#0004000300000100
(1788970277.481504) can0 03FF1000#0000112200000001
(1788970277.492505) can0 03FF1001#0000000000000000
(1788970277.503505) can0 03FF1603#00D7D93A00000000
(1788970277.505505) can0 02203606#0101000100000000
(1788970277.508749) can0 05FF4610#0000CE67FFFFFF8C
(1788970277.509505) can0 04FF3604#0005000400000100
(1788970277.513505) can0 03FF1605#0100000000000000
(1788970277.529506) can0 04FF3602#0000000000000000
(1788970277.535508) can0 02181608#0500000001000000
(1788970277.539506) can0 04FF3604#0005000300000100
(1788970277.565511) can0 02181609#0000000000000000
(1788970277.569508) can0 04FF3604#0005000400000100
(1788970277.589511) can0 03FF1000#0000112200000001
(1788970277.595509) can0 02488600#0000000000000000
(1788970277.599510) can0 04FF3604#0004000400000100
(1788970277.599772) can0 03FF1001#0000000000000000
(1788970277.610511) can0 03FF1603#00D2D93A00000000
(1788970277.621511) can0 03FF1605#0100000000000000
(1788970277.627510) can0 02294612#
(1788970277.628545) can0 05124612#0000000000000000
(1788970277.629510) can0 04FF3604#0004000300000100
(1788970277.631514) can0 03121606#0000000000000000
(1788970277.643547) can0 05FF4001#0000000000000000
(1788970277.645546) can0 05FF4000#0000000000000000
(1788970277.659512) can0 04FF3604#0004000400000100
(1788970277.689514) can0 04FF3604#0003000400000100
(1788970277.696526) can0 03FF1000#0000112200000001
(1788970277.707514) can0 03FF1001#0000000000000000
(1788970277.718516) can0 03FF1603#00CDD93A00000000
(1788970277.719514) can0 04FF3604#0004000400000100
(1788970277.726516) can0 05FF4602#E10FE60FE10FE00F
(1788970277.728515) can0 03FF1605#0100000000000000
(1788970277.736518) can0 05FF4603#DD0FE40FDF0FE00F
(1788970277.746517) can0 05FF4604#DE0FE00FE30FE30F
(1788970277.749516) can0 04FF3604#0003000300000100
(1788970277.756516) can0 05FF4605#DB0F000000000000
(1788970277.771524) can0 05FF4610#0000CE67FFFFFF8C
(1788970277.775519) can0 02FF2605#0000060909060108
(1788970277.779518) can0 04FF3604#0003000300000100
(1788970277.786518) can0 05FF4606#141514
(1788970277.796520) can0 05FF4607#141615
(1788970277.805519) can0 03FF1000#0000112200000001
(1788970277.805724) can0 02FF2604#0000000000000000
(1788970277.806519) can0 05FF4608#0019007C
(1788970277.809519) can0 04FF3604#0004000300000100
(1788970277.815519) can0 03FF1001#0000000000000000
(1788970277.816519) can0 05FF4609#0300037003B600
(1788970277.826520) can0 03FF1603#00C7D93A00000000
(1788970277.837524) can0 03FF1605#0100000000000000
(1788970277.838520) can0 02FF2704#0200000000000000
(1788970277.839520) can0 04FF3604#0005000300000100
(1788970277.866522) can0 0260B606#0000000000000000
(1788970277.869522) can0 04FF3604#0005000300000100
(1788970277.895547) can0 02203607#0000000300000000
(1788970277.899523) can0 04FF3604#0003000300000100
(1788970277.913525) can0 03FF1000#0000112200000001
(1788970277.924525) can0 03FF1001#0000000000000000
(1788970277.929524) can0 04FF3604#0004000400000100
(1788970277.935526) can0 03FF1603#00C1D93A00000000
(1788970277.946526) can0 03FF1605#0100000000000000
(1788970277.959526) can0 04FF3604#0006000400000100
(1788970277.989529) can0 04FF3604#0004000400000100
(1788970278.019530) can0 04FF3604#0003000300000100
(1788970278.020529) can0 03FF1000#0000112200000001
(1788970278.029530) can0 04FF3602#0000000000000000
(1788970278.031530) can0 03FF1001#0000000000000000
(1788970278.034530) can0 05FF4610#0000CE67FFFFFF8C
(1788970278.042531) can0 03FF1603#00BCD93A00000000
(1788970278.049534) can0 04FF3604#0005000300000100
(1788970278.053531) can0 03FF1605#0100000000000000
(1788970278.079533) can0 04FF3604#0004000400000100
(1788970278.109533) can0 04FF3604#0005000300000100
(1788970278.126535) can0 03FF1000#0000112200000001
(1788970278.137539) can0 03FF1001#0000000000000000
(1788970278.139535) can0 04FF3604#0004000300000100
(1788970278.148536) can0 03FF1603#00B7D93A00000000
(1788970278.159535) can0 03FF1605#0100000000000000
(1788970278.169537) can0 04FF3604#0004000300000100
(1788970278.170536) can0 03FF1600#142B000104001319
(1788970278.180537) can0 03FF1601#6E50000000000000
(1788970278.191537) can0 03FF1602#075A8900002B1324
(1788970278.199538) can0 04FF3604#0004000300000100
(1788970278.202537) can0 03FF1604#00AC000900000000
(1788970278.229542) can0 04FF3604#0005000300000100
(1788970278.233542) can0 03FF1000#0000112200000001
(1788970278.236542) can0 02181606#0100190001030200
(1788970278.244541) can0 03FF1001#0000000000000000
(1788970278.255541) can0 03FF1603#00B5D93A00000000
(1788970278.259540) can0 04FF3604#0004000300000100
(1788970278.265541) can0 03FF1605#0100000000000000
(1788970278.266540) can0 02203606#0101000100000000
(1788970278.289542) can0 04FF3604#0004000300000100
(1788970278.296543) can0 02181608#0500000001000000
(1788970278.319544) can0 04FF3604#0005000300000100
(1788970278.324614) can0 05FF4610#0000CE63FFFFFF81
(1788970278.327543) can0 02181609#0000000000000000
(1788970278.340548) can0 03FF1000#0000112200000001
(1788970278.349546) can0 04FF3604#0006000400000100
(1788970278.351544) can0 03FF1001#0000000000000000
(1788970278.356545) can0 02488600#0000000000000000
(1788970278.362545) can0 03FF1603#00B6D93A00000000
(1788970278.373546) can0 03FF1605#0100000000000000
(1788970278.379546) can0 04FF3604#0004000300000100
(1788970278.383546) can0 03121606#0000000000000000
(1788970278.385731) can0 02294613#
(1788970278.386553) can0 05124613#0000000000000000
(1788970278.409547) can0 04FF3604#0005000400000100
(1788970278.439552) can0 04FF3604#0002000300000100
(1788970278.447550) can0 03FF1000#0000112200000001
(1788970278.458550) can0 03FF1001#0000000000000000
(1788970278.469551) can0 04FF3604#0004000300000100
(1788970278.469732) can0 03FF1603#00B8D93A00000000
(1788970278.480552) can0 03FF1605#0100000000000000
(1788970278.499552) can0 04FF3604#0002000300000100
(1788970278.529554) can0 04FF3602#0000000000000000
(1788970278.529759) can0 04FF3604#0004000300000100
(1788970278.554558) can0 03FF1000#0000112200000001
(1788970278.559556) can0 04FF3604#0005000400000100
(1788970278.565555) can0 03FF1001#0000000000000000
(1788970278.576556) can0 03FF1603#00BDD93A00000000
(1788970278.586556) can0 03FF1605#0100000000000000
(1788970278.587556) can0 05FF4610#0000CE63FFFFFF81
(1788970278.589556) can0 04FF3604#0004000400000100
(1788970278.619558) can0 04FF3604#0005000400000100
(1788970278.649562) can0 04FF3604#0003000400000100
(1788970278.661560) can0 03FF1000#0000112200000001
(1788970278.671560) can0 03FF1001#0000000000000000
(1788970278.679561) can0 05FF4001#0000000000000000
(1788970278.679715) can0 04FF3604#0004000400000100
(1788970278.681560) can0 05FF4000#0000000000000000
(1788970278.682560) can0 03FF1603#00C5D93A00000000
(1788970278.693561) can0 03FF1605#0100000000000000
(1788970278.709562) can0 04FF3604#0003000300000100
(1788970278.739565) can0 04FF3604#0005000300000100
(1788970278.763565) can0 05FF4602#E10FE60FE00FE00F
(1788970278.767564) can0 03FF1000#0000112200000001
(1788970278.769564) can0 04FF3604#0004000300000100
(1788970278.773565) can0 05FF4603#DD0FE30FDF0FE00F
(1788970278.778565) can0 03FF1001#0000000000000000
(1788970278.783565) can0 05FF4604#DD0FE00FE20FE30F
(1788970278.787565) can0 02FF2605#0000060909060109
(1788970278.788565) can0 03FF1603#00CAD93A00000000
(1788970278.793612) can0 05FF4605#DB0F000000000000
(1788970278.799567) can0 04FF3604#0006000300000100
(1788970278.799732) can0 03FF1605#0100000000000000
(1788970278.816567) can0 02FF2604#0000000000000000
(1788970278.823567) can0 05FF4606#141514
(1788970278.829567) can0 04FF3604#0004000400000100
(1788970278.833696) can0 05FF4607#141615
(1788970278.843731) can0 05FF4608#0019007C
(1788970278.846568) can0 02FF2704#0200000000000000
(1788970278.852569) can0 05FF4610#0000CE63FFFFFF81
(1788970278.853818) can0 05FF4609#0300037003B600
(1788970278.859568) can0 04FF3604#0005000300000100
(1788970278.875570) can0 03FF1000#0000112200000001
(1788970278.878569) can0 0260B606#0000000000000000
(1788970278.886570) can0 03FF1001#0000000000000000
(1788970278.889570) can0 04FF3604#0004000300000100
(1788970278.896571) can0 03FF1603#00C9D93A00000000
(1788970278.906571) can0 02203607#0000000300000000
(1788970278.907571) can0 03FF1605#0100000000000000
(1788970278.919572) can0 04FF3604#0003000300000100
(1788970278.949575) can0 04FF3604#0003000300000100
(1788970278.979576) can0 04FF3604#0005000400000100
(1788970278.981575) can0 03FF1000#0000112200000001
(1788970278.992576) can0 03FF1001#0000000000000000
(1788970278.996575) can0 02181606#0100190001030200
(1788970279.002575) can0 03FF1603#00C9D93A00000000
(1788970279.009576) can0 04FF3604#0005000400000100
(1788970279.013576) can0 03FF1605#0100000000000000
(1788970279.028659) can0 02203606#0101000100000000
(1788970279.029577) can0 04FF3602#0000000000000000
(1788970279.039580) can0 04FF3604#0004000400000100
(1788970279.057581) can0 02181608#0500000001000000
(1788970279.069581) can0 04FF3604#0004000400000100
(1788970279.086695) can0 02181609#0000000000000000
(1788970279.088579) can0 03FF1000#0000112200000001
(1788970279.099581) can0 03FF1001#0000000000000000
(1788970279.099647) can0 04FF3604#0005000400000100
(1788970279.109581) can0 03FF1603#00CDD93A00000000
(1788970279.116582) can0 05FF4610#0000CE63FFFFFF81
(1788970279.117581) can0 02488600#0000000000000000
(1788970279.120581) can0 03FF1605#0100000000000000
(1788970279.129582) can0 04FF3604#0003000400000100
(1788970279.131585) can0 03121606#0000000000000000
(1788970279.146584) can0 02294614#
(1788970279.147582) can0 05124614#0FE6010FDB0C000B
(1788970279.153583) can0 03FF1600#142B000104001319
(1788970279.159583) can0 04FF3604#0003000300000100
(1788970279.164584) can0 03FF1601#6E50000000000000
(1788970279.175585) can0 03FF1602#075A890000301324
(1788970279.185584) can0 03FF1604#00AC000A00000000
(1788970279.189584) can0 04FF3604#0004000300000100
(1788970279.196586) can0 03FF1000#0000112200000001
(1788970279.207585) can0 03FF1001#0000000000000000
(1788970279.218587) can0 03FF1603#00CFD93A00000000
(1788970279.219586) can0 04FF3604#0004000400000100
(1788970279.229590) can0 03FF1605#0100000000000000
(1788970279.249591) can0 04FF3604#0005000400000100
(1788970279.279590) can0 04FF3604#0005000300000100
(1788970279.303590) can0 03FF1000#0000112200000001
(1788970279.309592) can0 04FF3604#0003000300000100
(1788970279.313591) can0 03FF1001#0000000000000000
(1788970279.324592) can0 03FF1603#00D3D93A00000000
(1788970279.335594) can0 03FF1605#0100000000000000
(1788970279.339592) can0 04FF3604#0005000300000100
(1788970279.369594) can0 04FF3604#0003000300000100
(1788970279.399595) can0 04FF3604#0006000300000100
(1788970279.409595) can0 05FF4610#0000CE65FFFFFF87
(1788970279.409650) can0 03FF1000#0000112200000001
(1788970279.420596) can0 03FF1001#0000000000000000
(1788970279.429597) can0 04FF3604#0006000300000100
(1788970279.431596) can0 03FF1603#00D6D93A00000000
(1788970279.442598) can0 03FF1605#0100000000000000
(1788970279.459598) can0 04FF3604#0005000300000100
(1788970279.489602) can0 04FF3604#0004000400000100
(1788970279.517601) can0 03FF1000#0000112200000001
(1788970279.519600) can0 04FF3604#0004000400000100
(1788970279.527752) can0 03FF1001#0000000000000000
(1788970279.529600) can0 04FF3602#0000000000000000
(1788970279.538603) can0 03FF1603#00DCD93A00000000
(1788970279.549605) can0 03FF1605#0100000000000000
(1788970279.549659) can0 04FF3604#0004000300000100
(1788970279.579604) can0 04FF3604#0003000300000100
(1788970279.609606) can0 04FF3604#0006000300000100
(1788970279.624630) can0 03FF1000#0000112200000001
(1788970279.635612) can0 03FF1001#0000000000000000
(1788970279.639607) can0 04FF3604#0003000400000100
(1788970279.646607) can0 03FF1603#00E2D93A00000000
(1788970279.656607) can0 03FF1605#0100000000000000
(1788970279.669609) can0 04FF3604#0005000400000100
(1788970279.671758) can0 05FF4610#0000CE65FFFFFF87
(1788970279.699611) can0 04FF3604#0003000400000100
(1788970279.719611) can0 05FF4001#0000000000000000
(1788970279.721691) can0 05FF4000#0000000000000000
(1788970279.729611) can0 04FF3604#0003000300000100
(1788970279.731610) can0 03FF1000#0000112200000001
(1788970279.742613) can0 03FF1001#0000000000000000
(1788970279.753751) can0 03FF1603#00E7D93A00000000
(1788970279.757611) can0 02181606#0100190001030200
(1788970279.759612) can0 04FF3604#0004000300000100
(1788970279.764612) can0 03FF1605#0100000000000000
(1788970279.787613) can0 02203606#0101000100000000
(1788970279.789613) can0 04FF3604#0005000300000100
(1788970279.802614) can0 05FF4602#E00FE60FE10FE00F
(1788970279.813614) can0 05FF4603#DD0FE40FDF0FE00F
(1788970279.817616) can0 02181608#0500000001000000
(1788970279.819614) can0 04FF3604#0003000300000100
(1788970279.823615) can0 05FF4604#DE0FE00FE20FE30F
(1788970279.833616) can0 05FF4605#DB0F000000000000
(1788970279.841616) can0 03FF1000#0000112200000001
(1788970279.847615) can0 02181609#0000000000000000
(1788970279.849616) can0 04FF3604#0004000400000100
(1788970279.852617) can0 03FF1001#0000000000000000
(1788970279.863616) can0 03FF1603#00E6D93A00000000
(1788970279.863671) can0 05FF4606#141514
(1788970279.873617) can0 05FF4607#141615
(1788970279.873718) can0 03FF1605#0100000000000000
(1788970279.877617) can0 02488600#0000000000000000
(1788970279.879617) can0 04FF3604#0004000300000100
(1788970279.883617) can0 05FF4608#0019007C
(1788970279.884619) can0 03121606#0000000000000000
(1788970279.894620) can0 05FF4609#0300037003B600
(1788970279.907620) can0 02294615#
(1788970279.908619) can0 05124615#1502140101B6
(1788970279.909619) can0 04FF3604#0003000300000100
(1788970279.936623) can0 05FF4610#0000CE65FFFFFF87
(1788970279.937620) can0 02FF2605#0000060909060100
(1788970279.939620) can0 04FF3604#0004000300000100
(1788970279.949621) can0 03FF1000#0000112200000001
(1788970279.960623) can0 03FF1001#0000000000000000
(1788970279.967622) can0 02FF2604#0000000000000000
(1788970279.969622) can0 04FF3604#0003000300000100
(1788970279.971621) can0 03FF1603#00E3D93A00000000
(1788970279.982622) can0 03FF1605#0100000000000000
(1788970279.997624) can0 02FF2704#0200000000000000
(1788970279.999623) can0 04FF3604#0003000300000100
(1788970280.027625) can0 0260B606#0000000000000000
(1788970280.029624) can0 04FF3602#0000000000000000
(1788970280.029737) can0 04FF3604#0003000300000100
(1788970280.057630) can0 03FF1000#0000112200000001
(1788970280.057676) can0 02203607#0000000300000000
(1788970280.059626) can0 04FF3604#0005000300000100
(1788970280.067627) can0 03FF1001#0000000000000000
(1788970280.078627) can0 03FF1603#00E6D93A00000000
(1788970280.089628) can0 03FF1605#0100000000000000
(1788970280.089682) can0 04FF3604#0006000400000100
(1788970280.119630) can0 04FF3604#0002000300000100
(1788970280.149634) can0 04FF3604#0004000300000100
(1788970280.153630) can0 03FF1600#142B000104001319
(1788970280.164631) can0 03FF1601#6E50000000000000
(1788970280.175632) can0 03FF1602#075A8A0000371324
(1788970280.179631) can0 04FF3604#0005000400000100
(1788970280.185632) can0 03FF1604#00B4000B00000000
(1788970280.196632) can0 03FF1000#0000112200000001
(1788970280.207634) can0 03FF1001#0000000000000000
(1788970280.209633) can0 04FF3604#0004000300000100
(1788970280.217634) can0 03FF1603#00E6D93A00000000
(1788970280.225831) can0 05FF4610#0000CE66FFFFFF87
(1788970280.228638) can0 03FF1605#0100000000000000
(1788970280.239638) can0 04FF3604#0004000300000100
(1788970280.269637) can0 04FF3604#0003000300000100
(1788970280.271636) can0 03FF1000#0000112200000001
(1788970280.282637) can0 03FF1001#0000000000000000
(1788970280.293638) can0 03FF1603#00E6D93A00000000
(1788970280.299637) can0 04FF3604#0004000300000100
(1788970280.303637) can0 03FF1605#0100000000000000
(1788970280.329639) can0 04FF3604#0004000300000100
(1788970280.359647) can0 04FF3604#0003000300000100
(1788970280.378643) can0 03FF1000#0000112200000001
(1788970280.389641) can0 04FF3604#0004000400000100
(1788970280.389707) can0 03FF1001#0000000000000000
(1788970280.400643) can0 03FF1603#00EAD93A00000000
(1788970280.411643) can0 03FF1605#0100000000000000
(1788970280.419643) can0 04FF3604#0004000300000100
(1788970280.449649) can0 04FF3604#0004000300000100
(1788970280.479647) can0 04FF3604#0004000300000100
(1788970280.485647) can0 03FF1000#0000112200000001
(1788970280.488646) can0 05FF4610#0000CE66FFFFFF87
(1788970280.496647) can0 03FF1001#0000000000000000
(1788970280.507648) can0 03FF1603#00EED93A00000000
(1788970280.509647) can0 04FF3604#0004000300000100
(1788970280.518648) can0 02181606#0100190001030200
(1788970280.518703) can0 03FF1605#0100000000000000
(1788970280.529651) can0 04FF3602#0000000000000000
(1788970280.539650) can0 04FF3604#0005000300000100
(1788970280.548653) can0 02203606#0101000100000000
(1788970280.569651) can0 04FF3604#0003000300000100
(1788970280.578651) can0 02181608#0500000001000000
(1788970280.594653) can0 03FF1000#0000112200000001
(1788970280.599652) can0 04FF3604#0005000300000100
(1788970280.604779) can0 03FF1001#0000000000000000
(1788970280.608651) can0 02181609#0000000000000000
(1788970280.615652) can0 03FF1603#00F3D93A00000000
(1788970280.626653) can0 03FF1605#0100000000000000
(1788970280.629653) can0 04FF3604#0004000400000100
(1788970280.637656) can0 03121606#0000000000000000
(1788970280.638700) can0 02488600#0000000000000000
(1788970280.659654) can0 04FF3604#0003000300000100
(1788970280.667886) can0 02294616#
(1788970280.669654) can0 05124616#0000000000001DA7
(1788970280.689657) can0 04FF3604#0005000300000100
(1788970280.702657) can0 03FF1000#0000112200000001
(1788970280.713658) can0 03FF1001#0000000000000000
(1788970280.719657) can0 04FF3604#0002000300000100
(1788970280.723658) can0 03FF1603#00F0D93A00000000
(1788970280.734660) can0 03FF1605#0100000000000000
(1788970280.749659) can0 04FF3604#0004000400000100
(1788970280.751659) can0 05FF4610#0000CE66FFFFFF87
(1788970280.756660) can0 05FF4001#0000000000000000
(1788970280.758659) can0 05FF4000#0000000000000000
(1788970280.779660) can0 04FF3604#0004000300000100
(1788970280.808662) can0 02FF2605#0000060909060101
(1788970280.809661) can0 03FF1000#0000112200000001
(1788970280.809716) can0 04FF3604#0005000300000100
(1788970280.820662) can0 03FF1001#0000000000000000
(1788970280.831663) can0 03FF1603#00ECD93A00000000
(1788970280.837923) can0 05FF4602#E00FE60FE10FE00F
(1788970280.838663) can0 02FF2604#0000000000000000
(1788970280.839663) can0 04FF3604#0003000300000100
(1788970280.841762) can0 03FF1605#0100000000000000
(1788970280.847899) can0 05FF4603#DD0FE40FDF0FE00F
(1788970280.857862) can0 05FF4604#DE0FE00FE30FE30F
(1788970280.867861) can0 05FF4605#DB0F000000000000
(1788970280.868664) can0 02FF2704#0200000000000000
(1788970280.869664) can0 04FF3604#0004000300000100
(1788970280.897666) can0 05FF4606#141514
(1788970280.899665) can0 04FF3604#0005000400000100
(1788970280.900892) can0 0260B606#0000000000000000
(1788970280.907666) can0 05FF4607#141615
(1788970280.917667) can0 05FF4608#0019007C
(1788970280.918666) can0 03FF1000#0000112200000001
(1788970280.927760) can0 05FF4609#0300037003B600
(1788970280.928667) can0 02203607#0000000300000000
(1788970280.929667) can0 03FF1001#0000000000000000
(1788970280.929733) can0 04FF3604#0004000300000100
(1788970280.940671) can0 03FF1603#00EED93A00000000
(1788970280.951669) can0 03FF1605#0100000000000000
(1788970280.959669) can0 04FF3604#0002000300000100
(1788970280.989672) can0 04FF3604#0006000300000100
(1788970281.013672) can0 05FF4610#0000CE66FFFFFF87
(1788970281.019671) can0 04FF3604#0005000400000100
(1788970281.025672) can0 03FF1000#0000112200000001
(1788970281.029672) can0 04FF3602#0000000000000000
(1788970281.036673) can0 03FF1001#0000000000000000
(1788970281.046928) can0 03FF1603#00EED93A00000000
(1788970281.049676) can0 04FF3604#0004000300000100
(1788970281.057674) can0 03FF1605#0100000000000000
(1788970281.079676) can0 04FF3604#0003000300000100
(1788970281.109676) can0 04FF3604#0003000400000100
(1788970281.118676) can0 05FF4600#0D0400C00303
(1788970281.133679) can0 03FF1000#0000112200000001
(1788970281.139680) can0 04FF3604#0004000400000100
(1788970281.143677) can0 03FF1001#0000000000000000
(1788970281.154679) can0 03FF1603#00EAD93A00000000
(1788970281.165678) can0 03FF1605#0100000000000000
(1788970281.169679) can0 04FF3604#0003000300000100
(1788970281.175679) can0 03FF1600#142B000104001319
(1788970281.186679) can0 03FF1601#6E50000000000000
(1788970281.197681) can0 03FF1602#075A8B00003E1324
(1788970281.199679) can0 04FF3604#0005000400000100
(1788970281.208681) can0 03FF1604#00BA000C00000000
(1788970281.229684) can0 04FF3604#0004000300000100
(1788970281.241686) can0 03FF1000#0000112200000001
(1788970281.252684) can0 03FF1001#0000000000000000
(1788970281.259683) can0 04FF3604#0002000300000100
(1788970281.262683) can0 03FF1603#00EFD93A00000000
(1788970281.273772) can0 03FF1605#0100000000000000
(1788970281.280742) can0 02181606#0100190001030200
(1788970281.289684) can0 04FF3604#0004000300000100
(1788970281.303686) can0 05FF4610#0000CE66FFFFFF92
(1788970281.308778) can0 02203606#0101000100000000
(1788970281.319686) can0 04FF3604#0006000300000100
(1788970281.340944) can0 02181608#0500000001000000
(1788970281.349693) can0 04FF3604#0005000300000100
(1788970281.349749) can0 03FF1000#0000112200000001
(1788970281.360689) can0 03FF1001#0000000000000000
(1788970281.368815) can0 02181609#0000000000000000
(1788970281.371688) can0 03FF1603#00F2D93A00000000
(1788970281.379689) can0 04FF3604#0004000300000100
(1788970281.381688) can0 03FF1605#0100000000000000
(1788970281.392689) can0 03121606#0000000000000000
(1788970281.398909) can0 02488600#0000000000000000
(1788970281.409690) can0 04FF3604#0004000300000100
(1788970281.429692) can0 02294617#
(1788970281.430690) can0 05124617#0000000000000000
(1788970281.439694) can0 04FF3604#0004000300000100
(1788970281.457862) can0 03FF1000#0000112200000001
(1788970281.468693) can0 03FF1001#0000000000000000
(1788970281.469692) can0 04FF3604#0005000300000100
(1788970281.479694) can0 03FF1603#00F2D93A00000000
(1788970281.490695) can0 03FF1605#0100000000000000
(1788970281.499695) can0 04FF3604#0004000400000100
(1788970281.529696) can0 04FF3602#0000000000000000
(1788970281.529762) can0 04FF3604#0004000300000100
(1788970281.559701) can0 04FF3604#0003000300000100
(1788970281.563883) can0 05FF4610#0000CE66FFFFFF92
(1788970281.565697) can0 03FF1000#0000112200000001
(1788970281.576698) can0 03FF1001#0000000000000000
(1788970281.587699) can0 03FF1603#00F2D93A00000000
(1788970281.589698) can0 04FF3604#0005000300000100
(1788970281.597698) can0 03FF1605#0100000000000000
(1788970281.619699) can0 04FF3604#0003000300000100
(1788970281.649704) can0 04FF3604#0004000300000100
(1788970281.672703) can0 03FF1000#0000112200000001
(1788970281.679702) can0 04FF3604#0003000300000100
