(1788960247.173891) can0 02294609#
(1788960247.173969) can0 02294609#
(1788960247.174069) can0 02294609#
(1788960247.174831) can0 02294609#
(1788960247.174886) can0 02294609#
(1788960247.175069) can0 02294609#
(1788960247.175830) can0 02294609#
(1788960247.175885) can0 02294609#
(1788960247.176090) can0 02294609#
(1788960247.176830) can0 02294609#
(1788960247.176897) can0 02294609#
(1788960247.177086) can0 02294609#
(1788960247.177830) can0 02294609#
(1788960247.177896) can0 02294609#
(1788960247.178090) can0 02294609#
(1788960247.178830) can0 02294609#
(1788960247.178886) can0 02294609#
(1788960247.179103) can0 02294609#
(1788960247.179830) can0 02294609#
(1788960247.179896) can0 02294609#
(1788960247.180125) can0 02294609#
(1788960247.180830) can0 02294609#
(1788960247.180885) can0 02294609#
(1788960247.181829) can0 02294609#
(1788960247.181886) can0 02294609#
(1788960247.181940) can0 02294609#
(1788960247.182123) can0 02294609#
(1788960247.182829) can0 02294609#
(1788960247.182886) can0 02294609#
(1788960247.189830) can0 05124609#0100037003B600
(1788960326.090776) can0 02294503#0000000000000000
(1788960326.092783) can0 05124503#001702150000019A
(1788960326.095777) can0 02294503#0000000000000000
(1788960326.096834) can0 05124503#001702150000019A
(1788960326.100780) can0 02294503#0000000000000000
(1788960326.101847) can0 05124503#001702150000019A
(1788960326.105777) can0 02294503#0000000000000000
(1788960326.106818) can0 05124503#001702150000019A
(1788960326.110777) can0 02294503#0000000000000000
(1788960326.111834) can0 05124503#001702150000019A
(1788960326.191778) can0 03FF1000#0000112200000001
(1788960326.203779) can0 02181606#0100190001030200
(1788960326.302777) can0 03FF1000#0000112200000001
(1788960326.313777) can0 03FF1001#0000000000000000
(1788960326.313840) can0 02181606#0100190001030200
(1788960326.323775) can0 03FF1603#0000D9CF00000000
(1788960326.334776) can0 03FF1605#0100000000000000
(1788960326.336827) can0 05FF4610#0000CE79FFFFFFF5
(1788960326.344775) can0 03121606#0100000000000000
(1788960326.386776) can0 08F97603#0101000000000000
(1788960326.407774) can0 03FF1000#0000112200000001
(1788960326.418771) can0 03FF1001#0000000000000000
(1788960326.423840) can0 02181606#0100190001030200
(1788960326.428772) can0 03FF1603#0000D9CF00000000
(1788960326.439770) can0 03FF1605#0100000000000000
(1788960326.449774) can0 03121606#0000000000000000
(1788960326.464773) can0 05FF4001#0000000000000000
(1788960326.466944) can0 05FF4000#0000000000000000
(1788960326.512770) can0 03FF1000#0000112200000001
(1788960326.523773) can0 03FF1001#0000000000000000
(1788960326.533772) can0 03FF1603#0000D9CF00000000
(1788960326.544771) can0 03FF1605#0100000000000000
(1788960326.546772) can0 05FF4602#E40FE60FE20FE20F
(1788960326.554769) can0 03121606#0000000000000000
(1788960326.556768) can0 05FF4603#DF0FE50FE00FE10F
(1788960326.566769) can0 05FF4604#E00FE10FE40FE40F
(1788960326.576769) can0 05FF4605#DD0F000000000000
(1788960326.597768) can0 05FF4610#0000CE79FFFFFFF5
(1788960326.606768) can0 05FF4606#151514
(1788960326.616768) can0 05FF4607#141615
(1788960326.617767) can0 03FF1000#0000112200000001
(1788960326.626767) can0 05FF4608#0019007C
(1788960326.628767) can0 03FF1001#0000000000000000
(1788960326.636766) can0 05FF4609#0100037003B600
(1788960326.638766) can0 03FF1603#0000D9CF00000000
(1788960326.649769) can0 03FF1605#0100000000000000
(1788960326.687769) can0 08F97603#0101000000000000
(1788960326.722765) can0 03FF1000#0000112200000001
(1788960326.733765) can0 03FF1001#0000000000000000
(1788960326.743767) can0 03FF1603#0000D9CF00000000
(1788960326.754768) can0 03FF1605#0100000000000000
(1788960326.785904) can0 05FF4400#00000000
(1788960326.827766) can0 03FF1000#0000112200000001
(1788960326.835905) can0 05FF4600#0D0400C00303
(1788960326.838763) can0 03FF1001#0000000000000000
(1788960326.848766) can0 03FF1603#0000D9CF00000000
(1788960326.857917) can0 05FF4610#0000CE79FFFFFFF5
(1788960326.859765) can0 03FF1605#0100000000000000
(1788960326.885820) can0 05FF4601#006600000000
(1788960326.932761) can0 03FF1000#0000112200000001
(1788960326.943763) can0 03FF1001#0000000000000000
(1788960326.953765) can0 03FF1603#0000D9CF00000000
(1788960326.959760) can0 02191602#0000000000000000
(1788960326.964760) can0 03FF1605#0100000000000000
(1788960326.987853) can0 08F97603#0101000000000000
(1788960327.037759) can0 03FF1000#0000112200000001
(1788960327.048762) can0 03FF1001#0000000000000000
(1788960327.058762) can0 03FF1603#0000D9CF00000000
(1788960327.069758) can0 03FF1605#0100000000000000
(1788960327.090758) can0 03FF1600#142B000104001319
(1788960327.100762) can0 03FF1601#6E50000000000000
(1788960327.111761) can0 03FF1602#075A850000001324
(1788960327.121757) can0 03FF1604#0000000000000000
(1788960327.142758) can0 03FF1000#0000112200000001
(1788960327.146760) can0 05FF4610#0000CE6FFFFFFFB3
(1788960327.153760) can0 03FF1001#0000000000000000
(1788960327.163757) can0 03FF1603#0000D9CF00000000
(1788960327.174755) can0 03FF1605#0100000000000000
(1788960327.247758) can0 03FF1000#0000112200000001
(1788960327.258758) can0 03FF1001#0000000000000000
(1788960327.268755) can0 03FF1603#0000D9CF00000000
(1788960327.279754) can0 03FF1605#0100000000000000
(1788960327.352756) can0 03FF1000#0000112200000001
(1788960327.363756) can0 03FF1001#0000000000000000
(1788960327.373755) can0 03FF1603#0000D9CF00000000
(1788960327.384752) can0 03FF1605#0100000000000000
(1788960327.407751) can0 05FF4610#0000CE6FFFFFFFB3
(1788960327.457754) can0 03FF1000#0000112200000001
(1788960327.468753) can0 03FF1001#0000000000000000
(1788960327.478751) can0 03FF1603#0000D9CF00000000
(1788960327.489750) can0 03FF1605#0100000000000000
(1788960327.492749) can0 05FF4001#0000000000000000
(1788960327.494749) can0 05FF4000#0000000000000000
(1788960327.562751) can0 03FF1000#0000112200000001
(1788960327.573750) can0 03FF1001#0000000000000000
(1788960327.573965) can0 05FF4602#E20FE60FE20FE10F
(1788960327.583748) can0 03FF1603#0000D9CF00000000
(1788960327.584747) can0 05FF4603#DE0FE40FE00FE10F
(1788960327.593963) can0 05FF4604#DF0FE00FE30FE40F
(1788960327.594747) can0 03FF1605#0100000000000000
(1788960327.603932) can0 05FF4605#DB0F000000000000
(1788960327.633747) can0 05FF4606#151514
(1788960327.643747) can0 05FF4607#141615
(1788960327.653750) can0 05FF4608#0019007C
(1788960327.663853) can0 05FF4609#0100037003B600
(1788960327.667746) can0 03FF1000#0000112200000001
(1788960327.668746) can0 05FF4610#0000CE6FFFFFFFB3
(1788960327.678746) can0 03FF1001#0000000000000000
(1788960327.688746) can0 03FF1603#0000D9CF00000000
(1788960327.699746) can0 03FF1605#0100000000000000
(1788960327.772746) can0 03FF1000#0000112200000001
(1788960327.783746) can0 03FF1001#0000000000000000
(1788960327.793745) can0 03FF1603#0000D9CF00000000
(1788960327.804744) can0 03FF1605#0100000000000000
(1788960327.877745) can0 03FF1000#0000112200000001
(1788960327.888745) can0 03FF1001#0000000000000000
(1788960327.898742) can0 03FF1603#0000D9CF00000000
(1788960327.909742) can0 03FF1605#0100000000000000
(1788960327.928741) can0 05FF4610#0000CE6FFFFFFFB3
(1788960327.975743) can0 02FF2602#6011E7050305A43F
(1788960327.975948) can0 02294609#0000000000000000
(1788960327.977739) can0 05124609#0300037003B600
(1788960327.982739) can0 03FF1000#0000112200000001
(1788960327.993740) can0 03FF1001#0000000000000000
(1788960328.004740) can0 03FF1603#0000D9CF00000000
(1788960328.014739) can0 03FF1605#0100000000000000
(1788960328.088741) can0 03FF1000#0000112200000001
(1788960328.098741) can0 03FF1001#0000000000000000
(1788960328.109740) can0 03FF1603#0000D9CF00000000
(1788960328.119739) can0 03FF1605#0100000000000000
(1788960328.130737) can0 03FF1600#142B000104001319
(1788960328.140736) can0 03FF1601#6E50000000000000
(1788960328.151739) can0 03FF1602#075A850000001324
(1788960328.161739) can0 03FF1604#0000000000000000
(1788960328.193736) can0 03FF1000#0000112200000001
(1788960328.203735) can0 03FF1001#0000000000000000
(1788960328.214736) can0 03FF1603#0000D9CF00000000
(1788960328.217735) can0 05FF4610#0000CE6EFFFFFFB3
(1788960328.224734) can0 03FF1605#0100000000000000
(1788960328.298736) can0 03FF1000#0000112200000001
(1788960328.308737) can0 03FF1001#0000000000000000
(1788960328.319737) can0 03FF1603#0000D9CF00000000
(1788960328.329737) can0 03FF1605#0100000000000000
(1788960328.403735) can0 03FF1000#0000112200000001
(1788960328.413735) can0 03FF1001#0000000000000000
(1788960328.424731) can0 03FF1603#0000D9CF00000000
(1788960328.434731) can0 03FF1605#0100000000000000
(1788960328.478779) can0 05FF4610#0000CE6EFFFFFFB3
(1788960328.485733) can0 02FF2602#6011E7050305A43F
(1788960328.486730) can0 02294609#0000000000000000
(1788960328.487729) can0 05124609#0300037003B600
(1788960328.508730) can0 03FF1000#0000112200000001
(1788960328.518730) can0 03FF1001#0000000000000000
(1788960328.520741) can0 05FF4001#0000000000000000
(1788960328.522740) can0 05FF4000#0000000000000000
(1788960328.529729) can0 03FF1603#0000D9CF00000000
(1788960328.539729) can0 03FF1605#0100000000000000
(1788960328.597730) can0 02203606#0101000100000000
(1788960328.602730) can0 05FF4602#E20FE60FE20FE10F
(1788960328.605727) can0 13B76400#01
(1788960328.605898) can0 02181606#0000000000030200
(1788960328.612728) can0 05FF4603#DE0FE40FE00FE00F
(1788960328.613728) can0 03FF1000#0000112200000001
(1788960328.613783) can0 03FF1605#0000000000000000
(1788960328.632726) can0 04FF3604#0004000400000100
(1788960328.662728) can0 04FF3604#0003000300000100
(1788960328.662795) can0 13B76400#01
(1788960328.665727) can0 02203606#0200000000000000
(1788960328.695726) can0 02181608#0500000001000000
(1788960328.725724) can0 02181609#0000000000000000
(1788960328.755726) can0 02488600#0000000000000000
(1788960328.805723) can0 02294500#
(1788960328.806722) can0 05124500#0500
(1788960328.811721) can0 03FF1001#0000000000000000
(1788960328.821722) can0 03FF1603#0000D9CF00000000
(1788960328.831757) can0 03FF1605#0100000000000000
(1788960328.834721) can0 05FF4610#0000CE6EFFFFFFB3
(1788960328.835825) can0 02FF2605#0000060909030506
(1788960328.842722) can0 1FF8B028#0000000000000000
(1788960328.852721) can0 03FF1000#0000112200000001
(1788960328.863725) can0 03FF1605#0000000000000000
(1788960328.866721) can0 02FF2604#0000000000000000
(1788960328.873728) can0 03121606#0100000000000000
(1788960328.897720) can0 02FF2704#0200000000000000
(1788960328.915732) can0 03FF1000#0000112200000001
(1788960328.927719) can0 0260B606#0000000000000000
(1788960328.935720) can0 13B76400#01
(1788960328.955896) can0 02203607#0000000300000000
(1788960328.985916) can0 02F82400#CF8D000000000000
(1788960329.015892) can0 02FF2602#33A1D0BD2FA28A4B
(1788960329.020717) can0 03FF1000#0000112200000001
(1788960329.045926) can0 02181606#0100190001030200
(1788960329.075949) can0 02203606#0100000100000000
(1788960329.082717) can0 04FF3602#0000000000000000
(1788960329.082952) can0 04FF3604#0005000300000000
(1788960329.106720) can0 02181608#0500000001000000
(1788960329.111717) can0 03FF1600#142B000104001319
(1788960329.112716) can0 04FF3604#0004000300000000
(1788960329.122716) can0 03FF1601#6E50000000000000
(1788960329.132716) can0 03FF1602#075A850000001324
(1788960329.136715) can0 02181609#0000000000000000
(1788960329.142715) can0 04FF3604#0002000300000000
(1788960329.143715) can0 03FF1604#0000000000000000
(1788960329.153718) can0 03FF1000#0000112200000001
(1788960329.164715) can0 03FF1001#0000000000000000
(1788960329.166714) can0 02488600#0000000000000000
(1788960329.172714) can0 04FF3604#0005000300000000
(1788960329.174714) can0 03FF1603#0000D9CF00000000
(1788960329.185714) can0 03FF1605#0100000000000000
(1788960329.186807) can0 05FF4610#0000CE72FFFFFFC4
(1788960329.195715) can0 03121606#0100000000000000
(1788960329.195874) can0 02294501#
(1788960329.196714) can0 05124501#0104
(1788960329.202714) can0 04FF3604#0003000400000000
(1788960329.215876) can0 13B76400#01
(1788960329.226713) can0 02FF2605#0000060909030508
(1788960329.227713) can0 03FF1000#0000112200000001
(1788960329.232714) can0 04FF3604#0005000400000000
(1788960329.237713) can0 03FF1001#0000000000000000
(1788960329.248715) can0 03FF1603#0000D9CF00000000
(1788960329.256714) can0 02FF2604#0000000000000000
(1788960329.258713) can0 03FF1605#0100000000000000
(1788960329.262713) can0 04FF3604#0004000400000000
(1788960329.292713) can0 04FF3604#0005000300000000
(1788960329.314712) can0 05FF4001#0000000000000000
(1788960329.316712) can0 05FF4000#0000000000000000
(1788960329.322711) can0 04FF3604#0004000400000000
(1788960329.332712) can0 03FF1000#0000112200000001
(1788960329.336711) can0 02FF2704#0200000000000000
(1788960329.342711) can0 03FF1001#0000000000000000
(1788960329.352713) can0 04FF3604#0004000300000000
(1788960329.352986) can0 03FF1603#0000D9CF00000000
(1788960329.363714) can0 03FF1605#0100000000000000
(1788960329.367892) can0 0260B606#0000000000000000
(1788960329.382711) can0 04FF3604#0004000300000000
(1788960329.396711) can0 05FF4602#E30FE60FE20FE10F
(1788960329.398709) can0 02203607#0000000300000000
(1788960329.406710) can0 05FF4603#DF0FE40FE00FE10F
(1788960329.412710) can0 04FF3604#0004000300000000
(1788960329.416710) can0 05FF4604#DF0FE00FE30FE40F
(1788960329.426710) can0 05FF4605#DC0F000000000000
(1788960329.428709) can0 02181606#0100190001030200
(1788960329.437710) can0 03FF1000#0000112200000001
(1788960329.442709) can0 04FF3604#0004000300000000
(1788960329.447713) can0 05FF4610#0000CE72FFFFFFC4
(1788960329.448709) can0 03FF1001#0000000000000000
(1788960329.456710) can0 05FF4606#151514
(1788960329.457709) can0 02203606#0101000100000000
(1788960329.457972) can0 03FF1603#0000D9CF00000000
(1788960329.466709) can0 05FF4607#141615
(1788960329.468708) can0 03FF1605#0100000000000000
(1788960329.472709) can0 04FF3604#0005000300000100
(1788960329.476708) can0 05FF4608#0019007C
(1788960329.486708) can0 05FF4609#0300037003B600
(1788960329.487708) can0 02181608#0500000001000000
(1788960329.496708) can0 13B76400#01
(1788960329.502708) can0 04FF3604#0004000300000100
(1788960329.532708) can0 04FF3604#0004000300000100
(1788960329.534707) can0 02181609#0000000000000000
(1788960329.542708) can0 03FF1000#0000112200000001
(1788960329.552708) can0 03FF1001#0000000000000000
(1788960329.557707) can0 02488600#0000000000000000
(1788960329.562707) can0 04FF3604#0004000300000100
(1788960329.562981) can0 03FF1603#0000D9CF00000000
(1788960329.573707) can0 03FF1605#0100000000000000
(1788960329.582707) can0 04FF3602#0000000000000000
(1788960329.584706) can0 03121606#0000000000000000
(1788960329.588706) can0 02191500#
(1788960329.592706) can0 04FF3604#0004000300000100
(1788960329.605705) can0 03FF1500#000000C300000000
(1788960329.622705) can0 04FF3604#0004000300000100
(1788960329.636705) can0 05FF4400#00000001
(1788960329.647709) can0 03FF1000#0000112200000001
(1788960329.652706) can0 04FF3604#0004000400000100
(1788960329.657705) can0 03FF1001#0000000000000000
(1788960329.668705) can0 03FF1603#0000D9CF00000000
(1788960329.668933) can0 02FF2605#0000060909030509
(1788960329.678704) can0 03FF1605#0100000000000000
(1788960329.682704) can0 04FF3604#0003000400000100
(1788960329.686704) can0 05FF4600#0D0400C00303
(1788960329.698705) can0 02FF2604#0000000000000000
(1788960329.708704) can0 05FF4610#0000CE72FFFFFFC4
(1788960329.712704) can0 04FF3604#0005000300000100
(1788960329.727703) can0 02FF2704#0200000000000000
(1788960329.735936) can0 05FF4601#006600000000
(1788960329.742704) can0 04FF3604#0003000300000100
(1788960329.752707) can0 03FF1000#0000112200000001
(1788960329.757703) can0 0260B606#0000000000000000
(1788960329.762703) can0 03FF1001#0000000000000000
(1788960329.772709) can0 04FF3604#0004000300000100
(1788960329.772944) can0 03FF1603#0000D9CF00000000
(1788960329.778702) can0 13B76400#01
(1788960329.783702) can0 03FF1605#0100000000000000
(1788960329.786767) can0 02203607#0000000300000000
(1788960329.802702) can0 04FF3604#0005000300000100
(1788960329.832706) can0 04FF3604#0003000300000100
(1788960329.857704) can0 03FF1000#0000112200000001
(1788960329.862705) can0 04FF3604#0005000400000100
(1788960329.867702) can0 03FF1001#0000000000000000
(1788960329.878701) can0 03FF1603#0000D9CF00000000
(1788960329.888701) can0 03FF1605#0100000000000000
(1788960329.892700) can0 04FF3604#0004000400000100
(1788960329.922700) can0 04FF3604#0003000300000100
(1788960329.952703) can0 04FF3604#0005000400000100
(1788960329.962701) can0 03FF1000#0000112200000001
(1788960329.968717) can0 05FF4610#0000CE72FFFFFFC4
(1788960329.972699) can0 03FF1001#0000000000000000
(1788960329.982699) can0 04FF3604#0005000300000100
(1788960329.982950) can0 03FF1603#0000D9CF00000000
(1788960329.993699) can0 03FF1605#0100000000000000
(1788960330.012699) can0 04FF3604#0003000300000100
(1788960330.042698) can0 04FF3604#0002000300000100
(1788960330.057699) can0 13B76400#01
(1788960330.067697) can0 03FF1000#0000112200000001
(1788960330.072697) can0 04FF3604#0004000400000100
(1788960330.077696) can0 03FF1001#0000000000000000
(1788960330.082696) can0 04FF3602#0000000000000000
(1788960330.087935) can0 03FF1603#0000D9CF00000000
(1788960330.098700) can0 03FF1605#0100000000000000
(1788960330.102697) can0 04FF3604#0005000400000100
(1788960330.119697) can0 03FF1600#142B000104001319
(1788960330.129939) can0 03FF1601#6E50000000000000
(1788960330.132695) can0 04FF3604#0004000300000100
(1788960330.139695) can0 02181606#0100190001030200
(1788960330.140701) can0 03FF1602#075A850000001324
(1788960330.151699) can0 03FF1604#0000000000000000
(1788960330.162696) can0 04FF3604#0004000300000100
(1788960330.168695) can0 02203606#0101000100000000
(1788960330.172695) can0 03FF1000#0000112200000001
(1788960330.182694) can0 03FF1001#0000000000000000
(1788960330.192695) can0 04FF3604#0005000300000100
(1788960330.192934) can0 03FF1603#0000D9CF00000000
(1788960330.199694) can0 02181608#0500000001000000
(1788960330.203694) can0 03FF1605#0100000000000000
(1788960330.214694) can0 03121606#0000000000000000
(1788960330.222694) can0 04FF3604#0004000300000100
(1788960330.227693) can0 02181609#0000000000000000
(1788960330.252697) can0 04FF3604#0004000400000100
(1788960330.257694) can0 05FF4610#0000CE6CFFFFFF81
(1788960330.277693) can0 03FF1000#0000112200000001
(1788960330.279692) can0 02488600#0000000000000000
(1788960330.282692) can0 04FF3604#0004000300000100
(1788960330.287692) can0 03FF1001#0000000000000000
(1788960330.297936) can0 03FF1603#0000D9CF00000000
(1788960330.306808) can0 02191501#
(1788960330.308692) can0 03FF1605#0100000000000000
(1788960330.312692) can0 04FF3604#0005000300000100
(1788960330.318935) can0 03FF1501#0000005100000000
(1788960330.339692) can0 13B76400#01
(1788960330.342691) can0 04FF3604#0006000400000100
(1788960330.342840) can0 05FF4001#0000000000000000
(1788960330.344691) can0 05FF4000#0000000000000000
(1788960330.372696) can0 04FF3604#0005000300000100
(1788960330.382691) can0 03FF1000#0000112200000001
(1788960330.392691) can0 03FF1001#0000000000000000
(1788960330.402690) can0 04FF3604#0004000300000100
(1788960330.402930) can0 03FF1603#0000D9CF00000000
(1788960330.413691) can0 03FF1605#0100000000000000
(1788960330.424691) can0 05FF4602#E10FE60FE10FE10F
(1788960330.432691) can0 04FF3604#0003000400000100
(1788960330.434690) can0 05FF4603#DE0FE40FE00FE00F
(1788960330.444689) can0 05FF4604#DF0FE00FE30FE40F
(1788960330.454692) can0 05FF4605#DB0F000000000000
(1788960330.462691) can0 04FF3604#0005000400000100
(1788960330.483839) can0 05FF4606#151514
(1788960330.487689) can0 03FF1000#0000112200000001
(1788960330.492689) can0 04FF3604#0004000400000100
(1788960330.493839) can0 05FF4607#141615
(1788960330.497688) can0 03FF1001#0000000000000000
(1788960330.503850) can0 05FF4608#0019007C
(1788960330.508689) can0 03FF1603#0000D9CF00000000
(1788960330.514688) can0 05FF4609#0300037003B600
(1788960330.518689) can0 05FF4610#0000CE6CFFFFFF81
(1788960330.518739) can0 03FF1605#0100000000000000
(1788960330.522688) can0 04FF3604#0004000300000100
(1788960330.552690) can0 04FF3604#0005000300000100
(1788960330.582687) can0 04FF3602#0000000000000000
(1788960330.582830) can0 04FF3604#0005000300000100
(1788960330.592687) can0 03FF1000#0000112200000001
(1788960330.602687) can0 03FF1001#0000000000000000
(1788960330.612687) can0 04FF3604#0003000300000100
(1788960330.612914) can0 03FF1603#0000D9CF00000000
(1788960330.617686) can0 13B76400#01
(1788960330.623686) can0 03FF1605#0100000000000000
(1788960330.637685) can0 02FF2605#0000060909030500
(1788960330.642686) can0 04FF3604#0004000400000100
(1788960330.667692) can0 02FF2604#0000000000000000
(1788960330.672686) can0 04FF3604#0003000300000100
(1788960330.696940) can0 03FF1000#0000112200000001
(1788960330.697684) can0 02FF2704#0200000000000000
(1788960330.702686) can0 04FF3604#0005000400000100
(1788960330.707684) can0 03FF1001#0000000000000000
(1788960330.717917) can0 03FF1603#0000D9CF00000000
(1788960330.727685) can0 0260B606#0000000000000000
(1788960330.728684) can0 03FF1605#0100000000000000
(1788960330.732684) can0 04FF3604#0005000300000100
(1788960330.757687) can0 02203607#0000000300000000
(1788960330.762684) can0 04FF3604#0004000300000100
(1788960330.778684) can0 05FF4610#0000CE6CFFFFFF81
(1788960330.792684) can0 04FF3604#0005000300000100
(1788960330.802683) can0 03FF1000#0000112200000001
(1788960330.812683) can0 03FF1001#0000000000000000
(1788960330.822683) can0 04FF3604#0003000300000100
(1788960330.822888) can0 03FF1603#0000D9CF00000000
(1788960330.833682) can0 03FF1605#0100000000000000
(1788960330.852683) can0 04FF3604#0003000300000100
(1788960330.882685) can0 04FF3604#0004000400000100
(1788960330.897682) can0 13B76400#01
(1788960330.897921) can0 02181606#0100190001030200
(1788960330.906918) can0 03FF1000#0000112200000001
(1788960330.912681) can0 04FF3604#0005000300000100
(1788960330.917680) can0 03FF1001#0000000000000000
(1788960330.927877) can0 03FF1603#0000D9CF00000000
(1788960330.928680) can0 02203606#0101000100000000
(1788960330.938680) can0 03FF1605#0100000000000000
(1788960330.942680) can0 04FF3604#0003000300000100
(1788960330.957682) can0 02181608#0500000001000000
(1788960330.972681) can0 04FF3604#0004000400000100
(1788960330.987703) can0 02181609#0000000000000000
(1788960331.002679) can0 04FF3604#0004000300000100
(1788960331.011934) can0 03FF1000#0000112200000001
(1788960331.017755) can0 02488600#0000000000000000
(1788960331.022678) can0 03FF1001#0000000000000000
(1788960331.032678) can0 04FF3604#0003000300000100
(1788960331.032883) can0 03FF1603#0000D9CF00000000
(1788960331.040679) can0 05FF4610#0000CE6CFFFFFF81
(1788960331.043677) can0 03FF1605#0100000000000000
(1788960331.047678) can0 02213500#
(1788960331.053911) can0 03121606#0000000000000000
(1788960331.057677) can0 04F93500#000000EB00000000
(1788960331.062677) can0 04FF3604#0003000300000100
(1788960331.082677) can0 04FF3602#0000000000000000
(1788960331.092677) can0 04FF3604#0004000300000100
(1788960331.116919) can0 03FF1000#0000112200000001
(1788960331.122676) can0 04FF3604#0005000300000100
(1788960331.127676) can0 03FF1001#0000000000000000
(1788960331.137885) can0 03FF1603#0000D9CF00000000
(1788960331.148679) can0 03FF1605#0100000000000000
(1788960331.152681) can0 04FF3604#0004000400000100
(1788960331.158908) can0 03FF1600#142B000104001319
(1788960331.169676) can0 03FF1601#6E50000000000000
(1788960331.177676) can0 13B76400#01
(1788960331.179860) can0 03FF1602#075A850000001324
(1788960331.182675) can0 04FF3604#0004000300000100
(1788960331.190675) can0 03FF1604#0000000000000000
(1788960331.212676) can0 04FF3604#0003000300000100
(1788960331.221918) can0 03FF1000#0000112200000001
(1788960331.232674) can0 03FF1001#0000000000000000
(1788960331.242674) can0 04FF3604#0004000400000100
(1788960331.242886) can0 03FF1603#0000D9CF00000000
(1788960331.253677) can0 03FF1605#0100000000000000
(1788960331.272676) can0 04FF3604#0004000300000100
(1788960331.302674) can0 04FF3604#0004000400000100
(1788960331.326905) can0 03FF1000#0000112200000001
(1788960331.329673) can0 05FF4610#0000CE6CFFFFFF92
(1788960331.332672) can0 04FF3604#0003000300000100
(1788960331.337672) can0 03FF1001#0000000000000000
(1788960331.347865) can0 03FF1603#0000D9CF00000000
(1788960331.358673) can0 03FF1605#0100000000000000
(1788960331.362672) can0 04FF3604#0005000300000100
(1788960331.371675) can0 05FF4001#0000000000000000
(1788960331.373672) can0 05FF4000#0000000000000000
(1788960331.392672) can0 04FF3604#0004000300000100
(1788960331.422671) can0 04FF3604#0003000400000100
(1788960331.431925) can0 03FF1000#0000112200000001
(1788960331.442671) can0 03FF1001#0000000000000000
(1788960331.452673) can0 04FF3604#0003000300000100
(1788960331.452830) can0 05FF4602#E10FE60FE10FE10F
(1788960331.453670) can0 03FF1603#0000D9CF00000000
(1788960331.458669) can0 13B76400#01
(1788960331.462820) can0 05FF4603#DE0FE40FE00FE00F
(1788960331.463670) can0 03FF1605#0100000000000000
(1788960331.472809) can0 05FF4604#DF0FE00FE30FE40F
(1788960331.482669) can0 04FF3604#0004000300000100
(1788960331.482807) can0 05FF4605#DB0F000000000000
(1788960331.512670) can0 04FF3604#0004000300000100
(1788960331.512723) can0 05FF4606#151514
(1788960331.522668) can0 05FF4607#141615
(1788960331.532668) can0 05FF4608#0019007C
(1788960331.537668) can0 03FF1000#0000112200000001
(1788960331.542668) can0 04FF3604#0005000300000100
(1788960331.542736) can0 05FF4609#0300037003B600
(1788960331.547668) can0 03FF1001#0000000000000000
(1788960331.557877) can0 03FF1603#0000D9CF00000000
(1788960331.568668) can0 03FF1605#0100000000000000
(1788960331.572667) can0 04FF3604#0005000300000100
(1788960331.582667) can0 04FF3602#0000000000000000
(1788960331.589668) can0 05FF4610#0000CE6CFFFFFF92
(1788960331.602667) can0 04FF3604#0004000400000100
(1788960331.632667) can0 04FF3604#0004000300000100
(1788960331.641910) can0 03FF1000#0000112200000001
(1788960331.648667) can0 02FF2605#0000060909030501
(1788960331.652666) can0 03FF1001#0000000000000000
(1788960331.662671) can0 04FF3604#0005000400000100
(1788960331.662849) can0 03FF1603#0000D9CF00000000
(1788960331.673667) can0 03FF1605#0100000000000000
(1788960331.678754) can0 02FF2604#0000000000000000
(1788960331.692665) can0 04FF3604#0005000300000100
(1788960331.708665) can0 02FF2704#0200000000000000
(1788960331.722665) can0 04FF3604#0003000300000100
(1788960331.738665) can0 13B76400#01
(1788960331.738731) can0 0260B606#0000000000000000
(1788960331.746884) can0 03FF1000#0000112200000001
(1788960331.752667) can0 04FF3604#0003000300000100
(1788960331.757665) can0 03FF1001#0000000000000000
(1788960331.767885) can0 03FF1603#0000D9CF00000000
(1788960331.771664) can0 02203607#0000000300000000
(1788960331.778664) can0 03FF1605#0100000000000000
(1788960331.782664) can0 04FF3604#0006000300000100
(1788960331.798664) can0 02181606#0100190001030200
(1788960331.812664) can0 04FF3604#0003000300000100
(1788960331.828664) can0 02203606#0101000100000000
(1788960331.842663) can0 04FF3604#0005000300000100
(1788960331.850664) can0 05FF4610#0000CE6CFFFFFF92
(1788960331.851882) can0 03FF1000#0000112200000001
(1788960331.858662) can0 02181608#0500000001000000
(1788960331.862662) can0 03FF1001#0000000000000000
(1788960331.872666) can0 04FF3604#0005000400000100
(1788960331.872868) can0 03FF1603#0000D9CF00000000
(1788960331.883662) can0 03FF1605#0100000000000000
(1788960331.888662) can0 02181609#0000000000000000
(1788960331.893858) can0 03121606#0000000000000000
(1788960331.902662) can0 04FF3604#0003000300000100
(1788960331.918661) can0 02488600#0000000000000000
(1788960331.932661) can0 04FF3604#0004000300000100
(1788960331.948661) can0 02213501#
(1788960331.956907) can0 03FF1000#0000112200000001
(1788960331.957660) can0 04F93501#0000000400000000
(1788960331.962660) can0 04FF3604#0004000300000100
(1788960331.967660) can0 03FF1001#0000000000000000
(1788960331.977834) can0 03FF1603#0000D9CF00000000
(1788960331.988661) can0 03FF1605#0100000000000000
(1788960331.992659) can0 04FF3604#0006000300000100
(1788960332.018660) can0 13B76400#01
(1788960332.022659) can0 04FF3604#0005000300000100
(1788960332.052659) can0 04FF3604#0004000300000100
(1788960332.061913) can0 03FF1000#0000112200000001
(1788960332.072658) can0 03FF1001#0000000000000000
(1788960332.082662) can0 04FF3602#0000000000000000
(1788960332.082725) can0 04FF3604#0003000300000100
(1788960332.083657) can0 03FF1603#0000D9CF00000000
(1788960332.093658) can0 03FF1605#0100000000000000
(1788960332.112661) can0 05FF4610#0000CE6CFFFFFF92
(1788960332.112714) can0 04FF3604#0003000400000100
(1788960332.135657) can0 03FF1600#142B000104001319
(1788960332.142657) can0 04FF3604#0005000400000100
(1788960332.145853) can0 03FF1601#6E50000000000000
(1788960332.156660) can0 03FF1602#075A850000001324
(1788960332.166892) can0 03FF1604#0000000000000000
(1788960332.172658) can0 04FF3604#0003000300000100
(1788960332.177658) can0 03FF1000#0000112200000001
(1788960332.187865) can0 03FF1001#0000000000000000
(1788960332.198656) can0 03FF1603#0000D9CF00000000
(1788960332.202655) can0 04FF3604#0003000400000100
(1788960332.208875) can0 03FF1605#0100000000000000
(1788960332.232655) can0 04FF3604#0005000300000100
(1788960332.262658) can0 04FF3604#0006000300000100
(1788960332.271874) can0 03FF1000#0000112200000001
(1788960332.282653) can0 03FF1001#0000000000000000
(1788960332.292654) can0 04FF3604#0003000400000100
(1788960332.292836) can0 03FF1603#0000D9CF00000000
(1788960332.298653) can0 13B76400#01
(1788960332.303654) can0 03FF1605#0100000000000000
(1788960332.322654) can0 04FF3604#0003000300000100
(1788960332.352653) can0 04FF3604#0004000300000100
(1788960332.376865) can0 03FF1000#0000112200000001
(1788960332.382652) can0 04FF3604#0004000300000100
(1788960332.387652) can0 03FF1001#0000000000000000
(1788960332.397845) can0 03FF1603#0000D9CF00000000
(1788960332.398651) can0 05FF4001#0000000000000000
(1788960332.399791) can0 05FF4610#0000CE6CFFFFFF92
(1788960332.400652) can0 05FF4000#0000000000000000
(1788960332.408651) can0 03FF1605#0100000000000000
(1788960332.412651) can0 04FF3604#0002000300000100
(1788960332.419651) can0 02181606#0100190001030200
(1788960332.442651) can0 04FF3604#0004000300000100
(1788960332.450869) can0 02203606#0101000100000000
(1788960332.472651) can0 04FF3604#0005000300000100
(1788960332.480651) can0 05FF4602#E10FE60FE10FE10F
(1788960332.481650) can0 02181608#0500000001000000
(1788960332.481874) can0 03FF1000#0000112200000001
(1788960332.490651) can0 05FF4603#DE0FE40FE00FE00F
(1788960332.492650) can0 03FF1001#0000000000000000
(1788960332.500651) can0 05FF4604#DF0FE00FE30FE40F
(1788960332.502649) can0 04FF3604#0004000300000100
(1788960332.502832) can0 03FF1603#0000D9CF00000000
(1788960332.509649) can0 02181609#0000000000000000
(1788960332.510649) can0 05FF4605#DB0F000000000000
(1788960332.513649) can0 03FF1605#0100000000000000
(1788960332.523835) can0 03121606#0000000000000000
(1788960332.532650) can0 04FF3604#0003000300000100
(1788960332.539649) can0 02488600#0000000000000000
(1788960332.540649) can0 05FF4606#151514
(1788960332.550652) can0 05FF4607#141615
(1788960332.560649) can0 05FF4608#0019007C
(1788960332.562649) can0 04FF3604#0003000400000100
(1788960332.568823) can0 02294502#
(1788960332.569648) can0 05124502#5250313353333541
(1788960332.570648) can0 05FF4609#0300037003B600
(1788960332.579650) can0 13B76400#01
(1788960332.582648) can0 04FF3602#0000000000000000
(1788960332.586857) can0 03FF1000#0000112200000001
(1788960332.592648) can0 04FF3604#0004000300000100
(1788960332.597648) can0 03FF1001#0000000000000000
(1788960332.607793) can0 03FF1603#0000D9CF00000000
(1788960332.618648) can0 03FF1605#0100000000000000
(1788960332.622647) can0 04FF3604#0005000300000100
(1788960332.652649) can0 04FF3604#0005000400000100
(1788960332.659647) can0 02FF2605#0000060909030502
(1788960332.660653) can0 05FF4610#0000CE6CFFFFFF92
(1788960332.682648) can0 04FF3604#0005000300000100
(1788960332.691647) can0 02FF2604#0000000000000000
(1788960332.691835) can0 03FF1000#0000112200000001
(1788960332.702646) can0 03FF1001#0000000000000000
(1788960332.712645) can0 04FF3604#0004000400000100
(1788960332.712817) can0 03FF1603#0000D9CF00000000
(1788960332.721645) can0 02FF2704#0200000000000000
(1788960332.723645) can0 03FF1605#0100000000000000
(1788960332.742645) can0 04FF3604#0004000300000100
(1788960332.749645) can0 0260B606#0000000000000000
(1788960332.772648) can0 04FF3604#0004000400000100
(1788960332.779645) can0 02203607#0000000300000000
(1788960332.796830) can0 03FF1000#0000112200000001
(1788960332.802644) can0 04FF3604#0004000400000100
(1788960332.807644) can0 03FF1001#0000000000000000
(1788960332.817795) can0 03FF1603#0000D9CF00000000
(1788960332.828645) can0 03FF1605#0100000000000000
(1788960332.832643) can0 04FF3604#0003000400000100
(1788960332.859644) can0 13B76400#01
(1788960332.862643) can0 04FF3604#0003000300000100
(1788960332.892647) can0 04FF3604#0004000300000100
(1788960332.901817) can0 03FF1000#0000112200000001
(1788960332.912641) can0 03FF1001#0000000000000000
(1788960332.921643) can0 05FF4610#0000CE6CFFFFFF92
(1788960332.922641) can0 04FF3604#0006000300000100
(1788960332.922789) can0 03FF1603#0000D9CF00000000
(1788960332.933641) can0 03FF1605#0100000000000000
(1788960332.952644) can0 04FF3604#0003000300000100
(1788960332.982642) can0 04FF3604#0004000300000100
(1788960333.006848) can0 03FF1000#0000112200000001
(1788960333.012640) can0 04FF3604#0005000300000100
(1788960333.017640) can0 03FF1001#0000000000000000
(1788960333.027803) can0 03FF1603#0000D9CF00000000
(1788960333.038639) can0 03FF1605#0100000000000000
(1788960333.042639) can0 04FF3604#0003000300000100
(1788960333.072639) can0 04FF3604#0004000300000100
(1788960333.082639) can0 04FF3602#0000000000000000
(1788960333.102642) can0 04FF3604#0005000300000100
(1788960333.111842) can0 03FF1000#0000112200000001
(1788960333.122638) can0 03FF1001#0000000000000000
(1788960333.132638) can0 04FF3604#0006000300000100
(1788960333.132785) can0 03FF1603#0000D9CF00000000
(1788960333.139637) can0 13B76400#01
(1788960333.143637) can0 03FF1605#0100000000000000
(1788960333.153791) can0 03FF1600#142B000104001319
(1788960333.162637) can0 04FF3604#0002000300000100
(1788960333.164638) can0 03FF1601#6E50000000000000
(1788960333.174741) can0 03FF1602#075A850000001324
(1788960333.179672) can0 02181606#0100190001030200
(1788960333.185637) can0 03FF1604#0000000000000000
(1788960333.192637) can0 04FF3604#0004000300000100
(1788960333.210636) can0 02203606#0101000100000000
(1788960333.210691) can0 05FF4610#0000CE6DFFFFFF92
(1788960333.216821) can0 03FF1000#0000112200000001
(1788960333.222636) can0 04FF3604#0003000400000100
(1788960333.227636) can0 03FF1001#0000000000000000
(1788960333.237786) can0 03FF1603#0000D9CF00000000
(1788960333.248636) can0 03FF1605#0100000000000000
(1788960333.252637) can0 04FF3604#0004000300000100
(1788960333.258809) can0 03121606#0000000000000000
(1788960333.259692) can0 02181608#0500000001000000
(1788960333.282636) can0 04FF3604#0004000300000100
(1788960333.292636) can0 02181609#0000000000000000
(1788960333.312634) can0 04FF3604#0004000300000100
(1788960333.319797) can0 02488600#0000000000000000
(1788960333.321807) can0 03FF1000#0000112200000001
(1788960333.332635) can0 03FF1001#0000000000000000
(1788960333.342634) can0 04FF3604#0004000300000100
(1788960333.342839) can0 03FF1603#0000D9CF00000000
(1788960333.349633) can0 02294503#
(1788960333.350634) can0 05124503#001702150000019A
(1788960333.353633) can0 03FF1605#0100000000000000
(1788960333.372636) can0 04FF3604#0006000300000100
(1788960333.402635) can0 04FF3604#0003000300000100
(1788960333.419633) can0 13B76400#01
(1788960333.426794) can0 03FF1000#0000112200000001
(1788960333.427631) can0 05FF4001#0000000000000000
(1788960333.429632) can0 05FF4000#0000000000000000
(1788960333.432632) can0 04FF3604#0005000400000100
(1788960333.437631) can0 03FF1001#0000000000000000
(1788960333.447760) can0 03FF1603#0000D9CF00000000
(1788960333.458634) can0 03FF1605#0100000000000000
(1788960333.462631) can0 04FF3604#0004000300000100
(1788960333.471632) can0 05FF4610#0000CE6DFFFFFF92
(1788960333.492631) can0 04FF3604#0002000400000100
(1788960333.510631) can0 05FF4602#E20FE60FE10FE10F
(1788960333.520631) can0 05FF4603#DE0FE40FE00FE00F
(1788960333.522630) can0 04FF3604#0004000400000100
(1788960333.530631) can0 05FF4604#DF0FE00FE30FE40F
(1788960333.531826) can0 03FF1000#0000112200000001
(1788960333.540630) can0 05FF4605#DB0F000000000000
(1788960333.542629) can0 03FF1001#0000000000000000
(1788960333.552630) can0 04FF3604#0004000300000100
(1788960333.552765) can0 03FF1603#0000D9CF00000000
(1788960333.563629) can0 03FF1605#0100000000000000
(1788960333.569861) can0 05FF4606#151514
(1788960333.579850) can0 05FF4607#141615
(1788960333.582629) can0 04FF3602#0000000000000000
(1788960333.582679) can0 04FF3604#0004000400000100
(1788960333.590628) can0 05FF4608#0019007C
(1788960333.601629) can0 05FF4609#0300037003B600
(1788960333.612628) can0 04FF3604#0004000300000100
(1788960333.636820) can0 03FF1000#0000112200000001
(1788960333.642627) can0 04FF3604#0004000300000100
(1788960333.647627) can0 03FF1001#0000000000000000
(1788960333.657756) can0 03FF1603#0000D9CF00000000
(1788960333.668628) can0 03FF1605#0100000000000000
(1788960333.670628) can0 02FF2605#0000060909030503
(1788960333.672627) can0 04FF3604#0004000300000100
(1788960333.699801) can0 13B76400#01
(1788960333.700626) can0 02FF2604#0000000000000000
(1788960333.702626) can0 04FF3604#0004000400000100
(1788960333.732627) can0 04FF3604#0005000400000100
(1788960333.732681) can0 02FF2704#0200000000000000
(1788960333.733829) can0 05FF4610#0000CE6DFFFFFF92
(1788960333.741799) can0 03FF1000#0000112200000001
(1788960333.752626) can0 03FF1001#0000000000000000
(1788960333.760626) can0 0260B606#0000000000000000
(1788960333.762625) can0 04FF3604#0003000300000100
(1788960333.762761) can0 03FF1603#0000D9CF00000000
(1788960333.773625) can0 03FF1605#0100000000000000
(1788960333.790625) can0 02203607#0000000300000000
(1788960333.792625) can0 04FF3604#0005000400000100
(1788960333.822625) can0 04FF3604#0006000300000100
(1788960333.846776) can0 03FF1000#0000112200000001
(1788960333.852624) can0 04FF3604#0005000300000100
(1788960333.857623) can0 03FF1001#0000000000000000
(1788960333.867790) can0 03FF1603#0000D9CF00000000
(1788960333.878625) can0 03FF1605#0100000000000000
(1788960333.882623) can0 04FF3604#0006000300000100
(1788960333.912623) can0 04FF3604#0005000300000100
(1788960333.940622) can0 02181606#0100190001030200
(1788960333.942622) can0 04FF3604#0004000300000100
(1788960333.951782) can0 03FF1000#0000112200000001
(1788960333.962622) can0 03FF1001#0000000000000000
(1788960333.970622) can0 02203606#0101000100000000
(1788960333.972622) can0 04FF3604#0006000300000100
(1788960333.972730) can0 03FF1603#0000D9CF00000000
(1788960333.980622) can0 13B76400#01
(1788960333.983621) can0 03FF1605#0100000000000000
(1788960333.993760) can0 03121606#0000000000000000
(1788960333.996621) can0 05FF4610#0000CE6DFFFFFF92
(1788960334.000620) can0 02181608#0500000001000000
(1788960334.002620) can0 04FF3604#0003000400000100
(1788960334.030621) can0 02181609#0000000000000000
(1788960334.032620) can0 04FF3604#0003000400000100
(1788960334.056760) can0 03FF1000#0000112200000001
(1788960334.060619) can0 02488600#0000000000000000
(1788960334.062620) can0 04FF3604#0004000400000100
(1788960334.067619) can0 03FF1001#0000000000000000
(1788960334.077724) can0 03FF1603#0000D9CF00000000
(1788960334.082619) can0 04FF3602#0000000000000000
(1788960334.088619) can0 03FF1605#0100000000000000
(1788960334.090619) can0 02294504#
(1788960334.091619) can0 05124504#1D
(1788960334.092619) can0 04FF3604#0006000300000100
(1788960334.122622) can0 04FF3604#0004000300000100
(1788960334.151621) can0 03FF1600#142B000104001319
(1788960334.152619) can0 04FF3604#0005000300000100
(1788960334.161781) can0 03FF1601#6E50000000000000
(1788960334.172618) can0 03FF1602#075A850000001324
(1788960334.182619) can0 04FF3604#0003000300000100
(1788960334.182755) can0 03FF1604#0000000000000000
(1788960334.193618) can0 03FF1000#0000112200000001
(1788960334.203745) can0 03FF1001#0000000000000000
(1788960334.212617) can0 04FF3604#0004000300000100
(1788960334.214617) can0 03FF1603#0000D9CF00000000
(1788960334.224721) can0 03FF1605#0100000000000000
(1788960334.242616) can0 04FF3604#0003000300000100
(1788960334.266763) can0 03FF1000#0000112200000001
(1788960334.272616) can0 04FF3604#0004000300000100
(1788960334.277615) can0 03FF1001#0000000000000000
(1788960334.287616) can0 05FF4610#0000CE6CFFFFFF92
(1788960334.287805) can0 03FF1603#0000D9CF00000000
(1788960334.298616) can0 03FF1605#0100000000000000
(1788960334.302615) can0 04FF3604#0004000300000100
(1788960334.332616) can0 04FF3604#0004000300000100
(1788960334.362617) can0 04FF3604#0003000300000100
(1788960334.371828) can0 03FF1000#0000112200000001
(1788960334.382614) can0 03FF1001#0000000000000000
(1788960334.392614) can0 04FF3604#0005000300000100
(1788960334.392721) can0 03FF1603#0000D9CF00000000
(1788960334.403614) can0 03FF1605#0100000000000000
(1788960334.422613) can0 04FF3604#0005000300000100
(1788960334.452615) can0 04FF3604#0006000300000100
(1788960334.461613) can0 05FF4001#0000000000000000
(1788960334.463612) can0 05FF4000#0000000000000000
(1788960334.476763) can0 03FF1000#0000112200000001
(1788960334.482611) can0 04FF3604#0003000300000100
(1788960334.487611) can0 03FF1001#0000000000000000
(1788960334.497705) can0 03FF1603#0000D9CF00000000
(1788960334.508612) can0 03FF1605#0100000000000000
(1788960334.512611) can0 04FF3604#0004000400000100
(1788960334.542611) can0 04FF3604#0004000300000100
(1788960334.542736) can0 05FF4602#E10FE60FE10FE10F
(1788960334.547739) can0 05FF4610#0000CE6CFFFFFF92
(1788960334.552729) can0 05FF4603#DE0FE40FE00FE00F
(1788960334.562734) can0 05FF4604#DF0FE00FE30FE40F
(1788960334.572611) can0 04FF3604#0004000300000100
(1788960334.572700) can0 05FF4605#DB0F000000000000
(1788960334.581772) can0 03FF1000#0000112200000001
(1788960334.582610) can0 04FF3602#0000000000000000
(1788960334.592610) can0 03FF1001#0000000000000000
(1788960334.602610) can0 04FF3604#0004000300000100
(1788960334.602664) can0 05FF4606#151514
(1788960334.603609) can0 03FF1603#0000D9CF00000000
(1788960334.612610) can0 05FF4607#141615
(1788960334.613609) can0 03FF1605#0100000000000000
(1788960334.622610) can0 05FF4608#0019007C
(1788960334.632610) can0 04FF3604#0004000400000100
(1788960334.632665) can0 05FF4609#0300037003B600
(1788960334.662609) can0 04FF3604#0003000300000100
(1788960334.681609) can0 02FF2605#0000060909030504
(1788960334.686748) can0 03FF1000#0000112200000001
(1788960334.692608) can0 04FF3604#0005000300000100
(1788960334.697607) can0 03FF1001#0000000000000000
(1788960334.707701) can0 03FF1603#0000D9CF00000000
(1788960334.711608) can0 02FF2604#0000000000000000
(1788960334.718607) can0 03FF1605#0100000000000000
(1788960334.722607) can0 04FF3604#0004000300000100
(1788960334.741607) can0 02FF2704#0200000000000000
(1788960334.752607) can0 04FF3604#0004000300000100
(1788960334.771607) can0 0260B606#0000000000000000
(1788960334.782606) can0 04FF3604#0004000400000100
(1788960334.791745) can0 03FF1000#0000112200000001
(1788960334.802606) can0 03FF1001#0000000000000000
(1788960334.802811) can0 02203607#0000000300000000
(1788960334.808607) can0 05FF4610#0000CE6CFFFFFF92
(1788960334.812605) can0 04FF3604#0004000300000100
(1788960334.812691) can0 03FF1603#0000D9CF00000000
(1788960334.823605) can0 03FF1605#0100000000000000
(1788960334.828605) can0 05FF4600#0D0400C00303
(1788960334.831605) can0 02181606#0100190001030200
(1788960334.842605) can0 04FF3604#0005000400000100
(1788960334.861608) can0 02203606#0101000100000000
(1788960334.871863) can0 04FF3604#0005000300000100
(1788960334.891608) can0 02181608#0500000001000000
(1788960334.896778) can0 03FF1000#0000112200000001
(1788960334.902604) can0 04FF3604#0004000300000100
(1788960334.907604) can0 03FF1001#0000000000000000
(1788960334.917674) can0 03FF1603#0000D9CF00000000
(1788960334.921692) can0 02181609#0000000000000000
(1788960334.928604) can0 03FF1605#0100000000000000
(1788960334.932604) can0 04FF3604#0004000300000100
(1788960334.938673) can0 03121606#0000000000000000
(1788960334.951603) can0 02488600#0000000000000000
(1788960334.962606) can0 04FF3604#0004000300000100
(1788960334.981606) can0 02191502#
(1788960334.992603) can0 04FF3604#0003000300000100
(1788960335.001753) can0 03FF1000#0000112200000001
(1788960335.012603) can0 03FF1001#0000000000000000
(1788960335.022602) can0 04FF3604#0003000400000100
(1788960335.022692) can0 03FF1502#0100000000000000
(1788960335.033602) can0 03FF1603#0000D9CF00000000
(1788960335.043717) can0 03FF1605#0100000000000000
(1788960335.052604) can0 04FF3604#0003000300000100
(1788960335.073604) can0 05FF4610#0000CE6CFFFFFF92
(1788960335.082602) can0 04FF3602#0000000000000000
(1788960335.082657) can0 04FF3604#0006000300000100
(1788960335.106744) can0 03FF1000#0000112200000001
(1788960335.111846) can0 04FF3604#0003000300000100
(1788960335.117601) can0 03FF1001#0000000000000000
(1788960335.127670) can0 03FF1603#0000D9CF00000000
(1788960335.138600) can0 03FF1605#0100000000000000
(1788960335.141855) can0 04FF3604#0005000300000100
(1788960335.159603) can0 03FF1600#142B000104001319
(1788960335.169671) can0 03FF1601#6E50000000000000
(1788960335.171854) can0 04FF3604#0003000300000100
(1788960335.180599) can0 03FF1602#075A850000001324
(1788960335.190698) can0 03FF1604#0000000000000000
(1788960335.201831) can0 04FF3604#0005000300000100
(1788960335.211727) can0 03FF1000#0000112200000001
(1788960335.222599) can0 03FF1001#0000000000000000
(1788960335.231853) can0 04FF3604#0004000300000100
(1788960335.232667) can0 03FF1603#0000D9CF00000000
(1788960335.243598) can0 03FF1605#0100000000000000
(1788960335.261843) can0 04FF3604#0003000400000100
(1788960335.291827) can0 04FF3604#0005000300000100
(1788960335.316713) can0 03FF1000#0000112200000001
(1788960335.321853) can0 04FF3604#0003000300000100
(1788960335.327599) can0 03FF1001#0000000000000000
(1788960335.337673) can0 03FF1603#0000D9CF00000000
(1788960335.348597) can0 03FF1605#0100000000000000
(1788960335.351850) can0 04FF3604#0005000400000100
(1788960335.363645) can0 05FF4610#0000CE6BFFFFFF8C
(1788960335.381843) can0 04FF3604#0004000400000100
(1788960335.411853) can0 04FF3604#0004000300000100
(1788960335.421712) can0 03FF1000#0000112200000001
(1788960335.432595) can0 03FF1001#0000000000000000
(1788960335.441832) can0 04FF3604#0003000300000100
(1788960335.442663) can0 03FF1603#0000D9CF00000000
(1788960335.453597) can0 03FF1605#0100000000000000
(1788960335.461678) can0 02181606#0100190001030200
(1788960335.471821) can0 04FF3604#0005000300000100
(1788960335.491720) can0 02203606#0101000100000000
(1788960335.495639) can0 05FF4001#0000000000000000
(1788960335.497593) can0 05FF4000#0000000000000000
(1788960335.501836) can0 04FF3604#0004000300000100
(1788960335.521743) can0 02181608#0500000001000000
(1788960335.526696) can0 03FF1000#0000112200000001
(1788960335.531824) can0 04FF3604#0004000300000100
(1788960335.537593) can0 03FF1001#0000000000000000
(1788960335.547685) can0 03FF1603#0000D9CF00000000
(1788960335.551754) can0 02181609#0000000000000000
(1788960335.558594) can0 03FF1605#0100000000000000
(1788960335.561809) can0 04FF3604#0005000400000100
(1788960335.568661) can0 03121606#0000000000000000
(1788960335.577592) can0 05FF4602#E10FE60FE10FE10F
(1788960335.581822) can0 04FF3602#0000000000000000
(1788960335.583811) can0 02488600#0000000000000000
(1788960335.587591) can0 05FF4603#DE0FE40FE00FE00F
(1788960335.591811) can0 04FF3604#0005000300000100
(1788960335.597592) can0 05FF4604#DF0FE00FE30FE30F
(1788960335.607591) can0 05FF4605#DB0F000000000000
(1788960335.613591) can0 02191503#
(1788960335.621822) can0 04FF3604#0005000300000100
(1788960335.625591) can0 05FF4610#0000CE6BFFFFFF8C
(1788960335.631713) can0 03FF1000#0000112200000001
(1788960335.637591) can0 05FF4606#151514
(1788960335.642590) can0 03FF1001#0000000000000000
(1788960335.647590) can0 05FF4607#141615
(1788960335.651810) can0 04FF3604#0004000300000100
(1788960335.652648) can0 03FF1503#0100000000000000
(1788960335.657592) can0 05FF4608#0019007C
(1788960335.663593) can0 03FF1603#0000D9CF00000000
(1788960335.667590) can0 05FF4609#0300037003B600
(1788960335.673740) can0 03FF1605#0100000000000000
(1788960335.681809) can0 04FF3604#0004000300000100
(1788960335.692589) can0 02FF2605#0000060909030505
(1788960335.711817) can0 04FF3604#0004000300000100
(1788960335.722647) can0 02FF2604#0000000000000000
(1788960335.736716) can0 03FF1000#0000112200000001
(1788960335.741820) can0 04FF3604#0003000400000100
(1788960335.747588) can0 03FF1001#0000000000000000
(1788960335.753695) can0 02FF2704#0200000000000000
(1788960335.757648) can0 03FF1603#0000D9CF00000000
(1788960335.768595) can0 03FF1605#0100000000000000
(1788960335.771818) can0 04FF3604#0004000300000100
(1788960335.782588) can0 0260B606#0000000000000000
(1788960335.801819) can0 04FF3604#0005000300000100
(1788960335.813587) can0 02203607#0000000300000000
(1788960335.831794) can0 04FF3604#0006000300000100
(1788960335.841694) can0 03FF1000#0000112200000001
(1788960335.852587) can0 03FF1001#0000000000000000
(1788960335.861797) can0 04FF3604#0004000300000100
(1788960335.862647) can0 03FF1603#0000D9CF00000000
(1788960335.873591) can0 03FF1605#0100000000000000
(1788960335.887589) can0 05FF4610#0000CE6BFFFFFF8C
(1788960335.891783) can0 04FF3604#0004000300000100
(1788960335.921800) can0 04FF3604#0004000400000100
(1788960335.946677) can0 03FF1000#0000112200000001
(1788960335.951782) can0 04FF3604#0004000300000100
(1788960335.957587) can0 03FF1001#0000000000000000
(1788960335.967628) can0 03FF1603#0000D9CF00000000
(1788960335.978585) can0 03FF1605#0100000000000000
(1788960335.981781) can0 04FF3604#0005000300000100
(1788960336.011781) can0 04FF3604#0004000400000100
(1788960336.041781) can0 04FF3604#0004000300000100
(1788960336.051664) can0 03FF1000#0000112200000001
(1788960336.062585) can0 03FF1001#0000000000000000
(1788960336.071770) can0 04FF3604#0004000300000100
(1788960336.072624) can0 03FF1603#0000D9CF00000000
(1788960336.081791) can0 04FF3400#0000000000000000
(1788960336.082582) can0 04FF3602#0000000000000000
(1788960336.083582) can0 03FF1605#0100000000000000
(1788960336.093658) can0 03FF1400#0000000000000000
(1788960336.101793) can0 04FF3604#0003000300000100
(1788960336.112585) can0 02F82400#D08D000000000000
(1788960336.131779) can0 04FF3604#0004000300000100
(1788960336.142581) can0 02FF2602#64D173750B9C41CF
(1788960336.149616) can0 05FF4610#0000CE6BFFFFFF8C
(1788960336.156688) can0 03FF1000#0000112200000001
(1788960336.161792) can0 04FF3604#0003000300000100
(1788960336.167581) can0 03FF1001#0000000000000000
(1788960336.177638) can0 03FF1603#0000D9CF00000000
(1788960336.188581) can0 03FF1605#0100000000000000
(1788960336.191765) can0 04FF3604#0005000400000100
(1788960336.198622) can0 03FF1600#142B000104001319
(1788960336.209580) can0 03FF1601#6E50000000000000
(1788960336.219602) can0 03FF1602#075A850000001324
(1788960336.221753) can0 04FF3604#0005000300000100
(1788960336.222579) can0 02181606#0100190001030200
(1788960336.230579) can0 03FF1604#0000000000000000
(1788960336.251764) can0 04FF3604#0005000400000100
(1788960336.261686) can0 03FF1000#0000112200000001
(1788960336.262639) can0 02203606#0101000100000000
(1788960336.272579) can0 03FF1001#0000000000000000
(1788960336.281753) can0 04FF3604#0002000300000100
(1788960336.282620) can0 03FF1603#0000D9CF00000000
(1788960336.293578) can0 03FF1605#0100000000000000
(1788960336.293714) can0 02181608#0500000001000000
(1788960336.303624) can0 03121606#0000000000000000
(1788960336.311763) can0 04FF3604#0003000400000100
(1788960336.322580) can0 02181609#0000000000000000
(1788960336.341766) can0 04FF3604#0003000400000100
(1788960336.352577) can0 02488600#0000000000000000
(1788960336.366667) can0 03FF1000#0000112200000001
(1788960336.371777) can0 04FF3604#0004000300000100
(1788960336.377579) can0 03FF1001#0000000000000000
(1788960336.382576) can0 02191504#
(1788960336.387618) can0 03FF1603#0000D9CF00000000
(1788960336.398576) can0 03FF1605#0100000000000000
(1788960336.401761) can0 04FF3604#0005000400000100
(1788960336.408658) can0 03FF1504#0000001D00000000
(1788960336.431762) can0 04FF3604#0004000400000100
(1788960336.438576) can0 05FF4610#0000CE6AFFFFFF8C
(1788960336.461752) can0 04FF3604#0005000300000100
(1788960336.471647) can0 03FF1000#0000112200000001
(1788960336.482575) can0 03FF1001#0000000000000000
(1788960336.491748) can0 04FF3604#0004000300000100
(1788960336.492609) can0 03FF1603#0000D9CF00000000
(1788960336.503574) can0 03FF1605#0100000000000000
(1788960336.521731) can0 04FF3604#0004000400000100
(1788960336.526573) can0 05FF4001#0000000000000000
(1788960336.528573) can0 05FF4000#0000000000000000
(1788960336.551747) can0 04FF3604#0005000400000100
(1788960336.576633) can0 03FF1000#0000112200000001
(1788960336.581749) can0 04FF3602#0000000000000000
(1788960336.582573) can0 04FF3604#0004000300000100
(1788960336.587573) can0 03FF1001#0000000000000000
(1788960336.597592) can0 03FF1603#0000D9CF00000000
(1788960336.608573) can0 05FF4602#E10FE60FE10FE10F
(1788960336.608628) can0 03FF1605#0100000000000000
(1788960336.611734) can0 04FF3604#0004000300000100
(1788960336.618573) can0 05FF4603#DE0FE40FE00FE00F
(1788960336.628573) can0 05FF4604#DE0FE00FE30FE30F
(1788960336.638572) can0 05FF4605#DB0F000000000000
(1788960336.641734) can0 04FF3604#0005000300000100
(1788960336.667761) can0 05FF4606#151514
(1788960336.671736) can0 04FF3604#0005000300000100
(1788960336.677757) can0 05FF4607#141615
(1788960336.681663) can0 03FF1000#0000112200000001
(1788960336.688798) can0 05FF4608#0019007C
(1788960336.692570) can0 03FF1001#0000000000000000
(1788960336.699570) can0 05FF4609#0300037003B600
(1788960336.700571) can0 05FF4610#0000CE6AFFFFFF8C
(1788960336.701728) can0 04FF3604#0004000300000100
(1788960336.702640) can0 03FF1603#0000D9CF00000000
(1788960336.703570) can0 02FF2605#0000060909030506
(1788960336.713570) can0 03FF1605#0100000000000000
(1788960336.731721) can0 04FF3604#0004000400000100
(1788960336.732825) can0 02FF2604#0000000000000000
(1788960336.761723) can0 04FF3604#0004000400000100
(1788960336.763572) can0 02FF2704#0200000000000000
(1788960336.786646) can0 03FF1000#0000112200000001
(1788960336.791719) can0 04FF3604#0003000300000100
(1788960336.793569) can0 0260B606#0000000000000000
(1788960336.797569) can0 03FF1001#0000000000000000
(1788960336.807599) can0 03FF1603#0000D9CF00000000
(1788960336.818571) can0 03FF1605#0100000000000000
(1788960336.821710) can0 04FF3604#0006000300000100
(1788960336.823569) can0 02203607#0000000300000000
(1788960336.851718) can0 04FF3604#0004000300000100
(1788960336.881721) can0 04FF3604#0003000400000100
(1788960336.891651) can0 03FF1000#0000112200000001
(1788960336.902567) can0 03FF1001#0000000000000000
(1788960336.911701) can0 04FF3604#0006000400000100
(1788960336.912590) can0 03FF1603#0000D9CF00000000
(1788960336.923566) can0 03FF1605#0100000000000000
(1788960336.941706) can0 04FF3604#0005000400000100
(1788960336.960587) can0 05FF4610#0000CE6AFFFFFF8C
(1788960336.971695) can0 04FF3604#0003000300000100
(1788960336.983565) can0 02181606#0100190001030200
(1788960336.996623) can0 03FF1000#0000112200000001
(1788960337.001692) can0 04FF3604#0005000300000100
(1788960337.007565) can0 03FF1001#0000000000000000
(1788960337.013565) can0 02203606#0101000100000000
(1788960337.017588) can0 03FF1603#0000D9CF00000000
(1788960337.028565) can0 03FF1605#0100000000000000
(1788960337.031703) can0 04FF3604#0005000400000100
(1788960337.038564) can0 03121606#0000000000000000
(1788960337.043564) can0 02181608#0500000001000000
(1788960337.061689) can0 04FF3604#0005000400000100
(1788960337.073567) can0 02181609#0000000000000000
(1788960337.081703) can0 04FF3602#0000000000000000
(1788960337.091691) can0 04FF3604#0005000400000100
(1788960337.101624) can0 03FF1000#0000112200000001
(1788960337.103566) can0 02488600#0000000000000000
(1788960337.112564) can0 03FF1001#0000000000000000
(1788960337.121690) can0 04FF3604#0003000300000100
(1788960337.122604) can0 03FF1603#0000D9CF00000000
(1788960337.133562) can0 03FF1605#0100000000000000
(1788960337.133617) can0 02213502#
(1788960337.141689) can0 04F93502#0000000000000000
(1788960337.151697) can0 04FF3604#0003000300000100
(1788960337.175565) can0 03FF1600#142B000104001319
(1788960337.181704) can0 04FF3604#0005000400000100
(1788960337.185561) can0 03FF1601#6E50000000000000
(1788960337.196561) can0 03FF1602#075A850000001324
(1788960337.206608) can0 03FF1604#0000000000000000
(1788960337.211700) can0 04FF3604#0003000300000100
(1788960337.217561) can0 03FF1000#0000112200000001
(1788960337.227602) can0 03FF1001#0000000000000000
(1788960337.238561) can0 03FF1603#0000D9CF00000000
(1788960337.241676) can0 04FF3604#0003000300000100
(1788960337.248595) can0 03FF1605#0100000000000000
(1788960337.250561) can0 05FF4610#0000CE6BFFFFFF8C
(1788960337.271690) can0 04FF3604#0004000300000100
(1788960337.301678) can0 04FF3604#0003000400000100
(1788960337.311617) can0 03FF1000#0000112200000001
(1788960337.322561) can0 03FF1001#0000000000000000
(1788960337.331689) can0 04FF3604#0004000300000100
(1788960337.332571) can0 03FF1603#0000D9CF00000000
(1788960337.343558) can0 03FF1605#0100000000000000
(1788960337.361648) can0 04FF3604#0005000300000100
(1788960337.391677) can0 04FF3604#0003000400000100
(1788960337.416619) can0 03FF1000#0000112200000001
(1788960337.421674) can0 04FF3604#0005000300000100
(1788960337.427557) can0 03FF1001#0000000000000000
(1788960337.437558) can0 03FF1603#0000D9CF00000000
(1788960337.448556) can0 03FF1605#0100000000000000
(1788960337.451648) can0 04FF3604#0004000300000100
(1788960337.481664) can0 04FF3604#0003000400000100
(1788960337.511560) can0 05FF4610#0000CE6BFFFFFF8C
(1788960337.511669) can0 04FF3604#0005000300000100
(1788960337.521590) can0 03FF1000#0000112200000001
(1788960337.532556) can0 03FF1001#0000000000000000
(1788960337.541648) can0 04FF3604#0003000400000100
(1788960337.542555) can0 03FF1603#0000D9CF00000000
(1788960337.553555) can0 03FF1605#0100000000000000
(1788960337.556557) can0 05FF4001#0000000000000000
(1788960337.558557) can0 05FF4000#0000000000000000
(1788960337.571672) can0 04FF3604#0003000300000100
(1788960337.581682) can0 04FF3602#0000000000000000
(1788960337.601646) can0 04FF3604#0003000300000100
(1788960337.626588) can0 03FF1000#0000112200000001
(1788960337.631669) can0 04FF3604#0006000300000100
(1788960337.637554) can0 03FF1001#0000000000000000
(1788960337.638699) can0 05FF4602#E10FE60FE10FE10F
(1788960337.647553) can0 03FF1603#0000D9CF00000000
(1788960337.648703) can0 05FF4603#DE0FE40FDF0FE00F
(1788960337.658555) can0 03FF1605#0100000000000000
(1788960337.658733) can0 05FF4604#DF0FE00FE30FE40F
(1788960337.661646) can0 04FF3604#0004000400000100
(1788960337.668681) can0 05FF4605#DB0F000000000000
(1788960337.691645) can0 04FF3604#0006000400000100
(1788960337.698552) can0 05FF4606#151514
(1788960337.708553) can0 05FF4607#141615
(1788960337.714552) can0 02FF2605#0000060909030507
(1788960337.718551) can0 05FF4608#0019007C
(1788960337.721639) can0 04FF3604#0004000300000100
(1788960337.728587) can0 05FF4609#0300037003B600
(1788960337.731632) can0 03FF1000#0000112200000001
(1788960337.742552) can0 03FF1001#0000000000000000
(1788960337.744569) can0 02FF2604#0000000000000000
(1788960337.751643) can0 04FF3604#0004000300000100
(1788960337.752551) can0 03FF1603#0000D9CF00000000
(1788960337.763554) can0 03FF1605#0100000000000000
(1788960337.774553) can0 02FF2704#0200000000000000
(1788960337.775551) can0 05FF4610#0000CE6BFFFFFF8C
(1788960337.781633) can0 04FF3604#0004000400000100
(1788960337.803770) can0 0260B606#0000000000000000
(1788960337.811649) can0 04FF3604#0003000400000100
(1788960337.833772) can0 02203607#0000000300000000
(1788960337.836598) can0 03FF1000#0000112200000001
(1788960337.841630) can0 04FF3604#0003000300000100
(1788960337.847549) can0 03FF1001#0000000000000000
(1788960337.857551) can0 03FF1603#0000D9CF00000000
(1788960337.864552) can0 02181606#0100190001030200
(1788960337.868550) can0 03FF1605#0100000000000000
(1788960337.871633) can0 04FF3604#0004000400000100
(1788960337.894551) can0 02203606#0101000100000000
(1788960337.901630) can0 04FF3604#0004000400000100
(1788960337.924548) can0 02181608#0500000001000000
(1788960337.931612) can0 04FF3604#0003000300000100
(1788960337.941594) can0 03FF1000#0000112200000001
(1788960337.952548) can0 03FF1001#0000000000000000
(1788960337.954616) can0 02181609#0000000000000000
(1788960337.961616) can0 04FF3604#0005000300000100
(1788960337.962550) can0 03FF1603#0000D9CF00000000
(1788960337.973547) can0 03FF1605#0100000000000000
(1788960337.983547) can0 03121606#0000000000000000
(1788960337.984546) can0 02488600#0000000000000000
(1788960337.991627) can0 04FF3604#0004000300000100
(1788960338.013651) can0 02213503#
(1788960338.021616) can0 04F93503#0000000000000000
(1788960338.022546) can0 04FF3604#0005000300000100
(1788960338.036546) can0 05FF4610#0000CE6BFFFFFF8C
(1788960338.046557) can0 03FF1000#0000112200000001
(1788960338.051615) can0 04FF3604#0005000400000100
(1788960338.057547) can0 03FF1001#0000000000000000
(1788960338.067549) can0 03FF1603#0000D9CF00000000
(1788960338.078545) can0 03FF1605#0100000000000000
(1788960338.081626) can0 04FF3602#0000000000000000
(1788960338.082544) can0 04FF3604#0004000300000100
(1788960338.111594) can0 04FF3604#0005000300000100
(1788960338.141605) can0 04FF3604#0005000300000100
(1788960338.151567) can0 03FF1000#0000112200000001
(1788960338.162547) can0 03FF1001#0000000000000000
(1788960338.171604) can0 04FF3604#0004000300000100
(1788960338.172544) can0 03FF1603#0000D9CF00000000
(1788960338.183543) can0 03FF1605#0100000000000000
(1788960338.193543) can0 03FF1600#142B000104001319
(1788960338.201589) can0 04FF3604#0003000400000100
(1788960338.204542) can0 03FF1601#6E50000000000000
(1788960338.214542) can0 03FF1602#075A850000001324
(1788960338.225542) can0 03FF1604#0000000000000000
(1788960338.231612) can0 04FF3604#0004000300000100
(1788960338.256602) can0 03FF1000#0000112200000001
(1788960338.261602) can0 04FF3604#0004000300000100
(1788960338.267541) can0 03FF1001#0000000000000000
(1788960338.277541) can0 03FF1603#0000D9CF00000000
(1788960338.288541) can0 03FF1605#0100000000000000
(1788960338.291598) can0 04FF3604#0005000300000100
(1788960338.321596) can0 04FF3604#0004000300000100
(1788960338.325543) can0 05FF4610#0000CE6BFFFFFF8C
(1788960338.351599) can0 04FF3604#0004000400000100
(1788960338.361577) can0 03FF1000#0000112200000001
(1788960338.372543) can0 03FF1001#0000000000000000
(1788960338.381600) can0 04FF3604#0003000300000100
(1788960338.382540) can0 03FF1603#0000D9CF00000000
(1788960338.393539) can0 03FF1605#0100000000000000
(1788960338.411581) can0 04FF3604#0003000300000100
(1788960338.441586) can0 04FF3604#0004000300000100
(1788960338.466564) can0 03FF1000#0000112200000001
(1788960338.471598) can0 04FF3604#0002000400000100
(1788960338.477537) can0 03FF1001#0000000000000000
(1788960338.487538) can0 03FF1603#0000D9CF00000000
(1788960338.498537) can0 03FF1605#0100000000000000
(1788960338.501572) can0 04FF3604#0003000300000100
(1788960338.504537) can0 02181606#0100190001030200
(1788960338.531583) can0 04FF3604#0005000400000100
(1788960338.534536) can0 02203606#0101000100000000
(1788960338.561573) can0 04FF3604#0004000300000100
(1788960338.564538) can0 02181608#0500000001000000
(1788960338.571536) can0 03FF1000#0000112200000001
(1788960338.581571) can0 04FF3602#0000000000000000
(1788960338.582535) can0 03FF1001#0000000000000000
(1788960338.586589) can0 05FF4610#0000CE6BFFFFFF8C
(1788960338.588616) can0 05FF4001#0000000000000000
(1788960338.590604) can0 05FF4000#0000000000000000
(1788960338.591570) can0 04FF3604#0003000400000100
(1788960338.592535) can0 03FF1603#0000D9CF00000000
(1788960338.594651) can0 02181609#0000000000000000
(1788960338.603535) can0 03FF1605#0100000000000000
(1788960338.613535) can0 03121606#0000000000000000
(1788960338.621570) can0 04FF3604#0005000300000100
(1788960338.624558) can0 02488600#0000000000000000
(1788960338.651569) can0 04FF3604#0003000300000100
(1788960338.654534) can0 02213504#
(1788960338.661572) can0 04F93504#0000000000000000
(1788960338.672538) can0 05FF4602#E10FE60FE10FE10F
(1788960338.676546) can0 03FF1000#0000112200000001
(1788960338.681568) can0 04FF3604#0004000300000100
(1788960338.682534) can0 05FF4603#DE0FE40FE00FE00F
(1788960338.687534) can0 03FF1001#0000000000000000
(1788960338.692534) can0 05FF4604#DE0FE00FE30FE40F
(1788960338.697533) can0 03FF1603#0000D9CF00000000
(1788960338.702533) can0 05FF4605#DB0F000000000000
(1788960338.708533) can0 03FF1605#0100000000000000
(1788960338.711556) can0 04FF3604#0004000300000100
(1788960338.724597) can0 02FF2605#0000060909030508
(1788960338.732533) can0 05FF4606#151514
(1788960338.741579) can0 04FF3604#0004000300000100
(1788960338.742532) can0 05FF4607#141615
(1788960338.752533) can0 05FF4608#0019007C
(1788960338.754613) can0 02FF2604#0000000000000000
(1788960338.762535) can0 05FF4609#0300037003B600
(1788960338.771546) can0 04FF3604#0005000300000100
(1788960338.781551) can0 03FF1000#0000112200000001
(1788960338.785532) can0 02FF2704#0200000000000000
(1788960338.792532) can0 03FF1001#0000000000000000
(1788960338.801555) can0 04FF3604#0005000300000100
(1788960338.802531) can0 03FF1603#0000D9CF00000000
(1788960338.813531) can0 03FF1605#0100000000000000
(1788960338.814693) can0 0260B606#0000000000000000
(1788960338.831557) can0 04FF3604#0003000300000100
(1788960338.844696) can0 02203607#0000000300000000
(1788960338.850751) can0 05FF4610#0000CE6BFFFFFF8C
(1788960338.861544) can0 04FF3604#0003000400000100
(1788960338.886568) can0 03FF1000#0000112200000001
(1788960338.891539) can0 04FF3604#0003000300000100
(1788960338.897531) can0 03FF1001#0000000000000000
(1788960338.907530) can0 03FF1603#0000D9CF00000000
(1788960338.918529) can0 03FF1605#0100000000000000
(1788960338.921536) can0 04FF3604#0002000300000100
(1788960338.951541) can0 04FF3604#0004000400000100
(1788960338.981566) can0 04FF3604#0004000300000100
(1788960338.991532) can0 03FF1000#0000112200000001
(1788960339.002528) can0 03FF1001#0000000000000000
(1788960339.011539) can0 04FF3604#0006000300000100
(1788960339.012528) can0 03FF1603#0000D9CF00000000
(1788960339.023527) can0 03FF1605#0100000000000000
(1788960339.041546) can0 04FF3604#0004000300000100
(1788960339.071541) can0 04FF3604#0004000400000100
(1788960339.081542) can0 04FF3602#0000000000000000
(1788960339.096527) can0 03FF1000#0000112200000001
(1788960339.101529) can0 04FF3604#0005000400000100
(1788960339.107529) can0 03FF1001#0000000000000000
(1788960339.112526) can0 05FF4610#0000CE6BFFFFFF8C
(1788960339.117526) can0 03FF1603#0000D9CF00000000
(1788960339.128525) can0 03FF1605#0100000000000000
(1788960339.131537) can0 04FF3604#0003000300000100
(1788960339.161528) can0 04FF3604#0003000300000100
(1788960339.191528) can0 03FF1600#142B000104001319
(1788960339.191586) can0 04FF3604#0003000300000100
(1788960339.201524) can0 03FF1601#6E50000000000000
(1788960339.212525) can0 03FF1602#075A850000001324
(1788960339.221524) can0 04FF3604#0005000300000100
(1788960339.222523) can0 03FF1604#0000000000000000
(1788960339.233524) can0 03FF1000#0000112200000001
(1788960339.243523) can0 03FF1001#0000000000000000
(1788960339.251523) can0 04FF3604#0004000400000100
(1788960339.254523) can0 03FF1603#0000D9CF00000000
(1788960339.264525) can0 03FF1605#0100000000000000
(1788960339.281526) can0 04FF3604#0004000300000100
(1788960339.297523) can0 02181606#0100190001030200
(1788960339.306522) can0 03FF1000#0000112200000001
(1788960339.311522) can0 04FF3604#0004000300000100
(1788960339.317522) can0 03FF1001#0000000000000000
(1788960339.325525) can0 02203606#0101000100000000
(1788960339.327525) can0 03FF1603#0000D9CF00000000
(1788960339.338523) can0 03FF1605#0100000000000000
(1788960339.341522) can0 04FF3604#0004000300000100
(1788960339.355521) can0 02181608#0500000001000000
(1788960339.371523) can0 04FF3604#0004000400000100
(1788960339.385525) can0 02181609#0000000000000000
(1788960339.399524) can0 05FF4610#0000CE6AFFFFFF8C
(1788960339.401520) can0 04FF3604#0005000300000100
(1788960339.411521) can0 03FF1000#0000112200000001
(1788960339.415520) can0 02488600#0000000000000000
(1788960339.422520) can0 03FF1001#0000000000000000
(1788960339.431520) can0 04FF3604#0002000300000100
(1788960339.432520) can0 03FF1603#0000D9CF00000000
(1788960339.443519) can0 03FF1605#0100000000000000
(1788960339.445520) can0 02213600#
(1788960339.453519) can0 03121606#0000000000000000
(1788960339.461522) can0 04FF3604#0005000300000100
(1788960339.491522) can0 04FF3604#0003000300000100
(1788960339.516520) can0 03FF1000#0000112200000001
(1788960339.521518) can0 04FF3604#0004000300000100
(1788960339.527518) can0 03FF1001#0000000000000000
(1788960339.537519) can0 03FF1603#0000D9CF00000000
(1788960339.548518) can0 03FF1605#0100000000000000
(1788960339.551517) can0 04FF3604#0005000300000100
(1788960339.581520) can0 04FF3602#0000000000000000
(1788960339.582520) can0 04FF3604#0004000300000100
(1788960339.611516) can0 04FF3604#0003000300000100
(1788960339.620517) can0 05FF4001#0000000000000000
(1788960339.621516) can0 03FF1000#0000112200000001
(1788960339.622516) can0 05FF4000#0000000000000000
(1788960339.632517) can0 03FF1001#0000000000000000
(1788960339.641516) can0 04FF3604#0003000300000100
(1788960339.642516) can0 03FF1603#0000D9CF00000000
(1788960339.653516) can0 03FF1605#0100000000000000
(1788960339.661519) can0 05FF4610#0000CE6AFFFFFF8C
(1788960339.671519) can0 04FF3604#0003000400000100
(1788960339.701516) can0 04FF3604#0004000300000100
(1788960339.702515) can0 05FF4602#E10FE60FE10FE10F
(1788960339.712517) can0 05FF4603#DE0FE40FDF0FE00F
(1788960339.722516) can0 05FF4604#DE0FE00FE30FE40F
(1788960339.726515) can0 03FF1000#0000112200000001
(1788960339.731514) can0 04FF3604#0003000300000100
(1788960339.732515) can0 05FF4605#DB0F000000000000
(1788960339.735537) can0 02FF2605#0000060909030509
(1788960339.737514) can0 03FF1001#0000000000000000
(1788960339.747514) can0 03FF1603#0000D9CF00000000
(1788960339.758517) can0 03FF1605#0100000000000000
(1788960339.761517) can0 04FF3604#0004000300000100
(1788960339.762514) can0 05FF4606#151514
(1788960339.765618) can0 02FF2604#0000000000000000
(1788960339.772515) can0 05FF4607#141615
(1788960339.782513) can0 05FF4608#0019007C
(1788960339.791514) can0 04FF3604#0005000300000100
(1788960339.792513) can0 05FF4609#0300037003B600
(1788960339.795606) can0 02FF2704#0200000000000000
(1788960339.821518) can0 04FF3604#0003000300000100
(1788960339.827515) can0 0260B606#0000000000000000
(1788960339.831513) can0 03FF1000#0000112200000001
(1788960339.842513) can0 03FF1001#0000000000000000
(1788960339.851512) can0 04FF3604#0003000300000100
(1788960339.852512) can0 03FF1603#0000D9CF00000000
(1788960339.855662) can0 02203607#0000000300000000
(1788960339.863514) can0 03FF1605#0100000000000000
(1788960339.881515) can0 04FF3604#0005000400000100
(1788960339.911515) can0 04FF3604#0005000300000100
(1788960339.922512) can0 05FF4610#0000CE6AFFFFFF8C
(1788960339.933512) can0 05FF4400#00000002
(1788960339.936510) can0 03FF1000#0000112200000001
(1788960339.941510) can0 04FF3604#0004000300000100
(1788960339.947510) can0 03FF1001#0000000000000000
(1788960339.957514) can0 03FF1603#0000D9CF00000000
(1788960339.968514) can0 03FF1605#0100000000000000
(1788960339.971510) can0 04FF3604#0005000400000100
(1788960339.984511) can0 05FF4600#0D0400C00303
(1788960340.001511) can0 04FF3604#0003000300000100
(1788960340.031510) can0 04FF3604#0003000300000100
(1788960340.032717) can0 05FF4601#006600000000
(1788960340.038508) can0 02181606#0100190001030200
(1788960340.041509) can0 03FF1000#0000112200000001
(1788960340.052509) can0 03FF1001#0000000000000000
(1788960340.061511) can0 04FF3604#0004000300000100
(1788960340.062511) can0 03FF1603#0000D9CF00000000
(1788960340.068510) can0 02203606#0101000100000000
(1788960340.073509) can0 03FF1605#0100000000000000
(1788960340.081508) can0 04FF3602#0000000000000000
(1788960340.091578) can0 04FF3604#0004000400000100
(1788960340.096508) can0 02181608#0500000001000000
(1788960340.121511) can0 04FF3604#0003000300000100
(1788960340.126510) can0 02181609#0000000000000000
(1788960340.146508) can0 03FF1000#0000112200000001
(1788960340.151507) can0 04FF3604#0004000300000100
(1788960340.156507) can0 02488600#0000000000000000
(1788960340.157506) can0 03FF1001#0000000000000000
(1788960340.167510) can0 03FF1603#0000D9CF00000000
(1788960340.178510) can0 03FF1605#0100000000000000
(1788960340.181507) can0 04FF3604#0005000400000100
(1788960340.185606) can0 05FF4610#0000CE6AFFFFFF8C
(1788960340.186506) can0 02213601#
(1788960340.188506) can0 03121606#0000000000000000
(1788960340.199506) can0 03FF1600#142B000104001319
(1788960340.209506) can0 03FF1601#6E50000000000000
(1788960340.211505) can0 04FF3604#0004000300000100
(1788960340.220506) can0 03FF1602#075A850000001324
(1788960340.230505) can0 03FF1604#0000000000000000
(1788960340.241506) can0 04FF3604#0004000300000100
(1788960340.251505) can0 03FF1000#0000112200000001
(1788960340.262507) can0 03FF1001#0000000000000000
(1788960340.271508) can0 04FF3604#0004000300000100
(1788960340.272505) can0 03FF1603#0000D9CF00000000
(1788960340.283504) can0 03FF1605#0100000000000000
(1788960340.301505) can0 04FF3604#0004000400000100
(1788960340.331507) can0 04FF3604#0004000400000100
(1788960340.356506) can0 03FF1000#0000112200000001
(1788960340.361506) can0 04FF3604#0005000300000100
(1788960340.367505) can0 03FF1001#0000000000000000
(1788960340.377506) can0 03FF1603#0000D9CF00000000
(1788960340.388505) can0 03FF1605#0100000000000000
(1788960340.391502) can0 04FF3604#0004000300000100
(1788960340.421503) can0 04FF3604#0003000300000100
(1788960340.451502) can0 04FF3604#0005000300000100
(1788960340.461504) can0 03FF1000#0000112200000001
(1788960340.472505) can0 03FF1001#0000000000000000
(1788960340.477501) can0 05FF4610#0000CE6BFFFFFF87
(1788960340.481501) can0 04FF3604#0004000400000100
(1788960340.482501) can0 03FF1603#0000D9CF00000000
(1788960340.493501) can0 03FF1605#0100000000000000
(1788960340.511500) can0 04FF3604#0004000400000100
(1788960340.541501) can0 04FF3604#0006000300000100
(1788960340.566502) can0 03FF1000#0000112200000001
(1788960340.571502) can0 04FF3604#0002000300000100
(1788960340.577501) can0 03FF1001#0000000000000000
(1788960340.581499) can0 04FF3602#0000000000000000
(1788960340.587499) can0 03FF1603#0000D9CF00000000
(1788960340.598499) can0 03FF1605#0100000000000000
(1788960340.601498) can0 04FF3604#0005000300000100
(1788960340.631498) can0 04FF3604#0005000400000100
(1788960340.656498) can0 05FF4001#0000000000000000
(1788960340.658501) can0 05FF4000#0000000000000000
(1788960340.661500) can0 04FF3604#0004000300000100
(1788960340.671499) can0 03FF1000#0000112200000001
(1788960340.682497) can0 03FF1001#0000000000000000
(1788960340.691497) can0 04FF3604#0005000300000100
(1788960340.692497) can0 03FF1603#0000D9CF00000000
(1788960340.703497) can0 03FF1605#0100000000000000
(1788960340.721497) can0 04FF3604#0003000300000100
(1788960340.738497) can0 05FF4602#E10FE60FE10FE10F
(1788960340.740496) can0 05FF4610#0000CE6BFFFFFF87
(1788960340.747496) can0 02FF2605#0000060909030500
(1788960340.748496) can0 05FF4603#DE0FE40FE00FE00F
(1788960340.751496) can0 04FF3604#0006000400000100
(1788960340.758500) can0 05FF4604#DE0FE00FE30FE40F
(1788960340.768500) can0 05FF4605#DB0F000000000000
(1788960340.776496) can0 03FF1000#0000112200000001
(1788960340.777495) can0 02FF2604#0000000000000000
(1788960340.781495) can0 04FF3604#0003000300000100
(1788960340.787495) can0 03FF1001#0000000000000000
(1788960340.797495) can0 03FF1603#0000D9CF00000000
(1788960340.798495) can0 05FF4606#151514
(1788960340.806517) can0 02FF2704#0200000000000000
(1788960340.808495) can0 03FF1605#0100000000000000
(1788960340.808550) can0 05FF4607#141615
(1788960340.811494) can0 04FF3604#0004000300000100
(1788960340.817737) can0 05FF4608#0019007C
(1788960340.828498) can0 05FF4609#0300037003B600
(1788960340.836516) can0 0260B606#0000000000000000
(1788960340.841494) can0 04FF3604#0003000300000100
(1788960340.867497) can0 02203607#0000000300000000
(1788960340.871496) can0 04FF3604#0004000300000100
(1788960340.881497) can0 03FF1000#0000112200000001
(1788960340.892497) can0 03FF1001#0000000000000000
(1788960340.896517) can0 02181606#0100190001030200
(1788960340.901493) can0 04FF3604#0005000300000100
(1788960340.902493) can0 03FF1603#0000D9CF00000000
(1788960340.913493) can0 03FF1605#0100000000000000
(1788960340.926574) can0 02203606#0101000100000000
(1788960340.931492) can0 04FF3604#0005000300000100
(1788960340.956580) can0 02181608#0500000001000000
(1788960340.961495) can0 04FF3604#0003000300000100
(1788960340.986494) can0 03FF1000#0000112200000001
(1788960340.987492) can0 02181609#0000000000000000
(1788960340.991491) can0 04FF3604#0004000300000100
(1788960340.997492) can0 03FF1001#0000000000000000
(1788960341.001723) can0 05FF4610#0000CE6BFFFFFF87
(1788960341.007491) can0 03FF1603#0000D9CF00000000
(1788960341.016677) can0 02488600#0000000000000000
(1788960341.018491) can0 03FF1605#0100000000000000
(1788960341.021491) can0 04FF3604#0003000300000100
(1788960341.028491) can0 03121606#0000000000000000
(1788960341.046491) can0 02294611#
(1788960341.047664) can0 05124611#005F46D800003E48
(1788960341.051490) can0 04FF3604#0005000400000100
(1788960341.081492) can0 04FF3602#0000000000000000
(1788960341.082493) can0 04FF3604#0005000300000100
(1788960341.091491) can0 03FF1000#0000112200000001
(1788960341.102493) can0 03FF1001#0000000000000000
(1788960341.111492) can0 04FF3604#0004000300000100
(1788960341.112489) can0 03FF1603#0000D9CF00000000
(1788960341.123490) can0 03FF1605#0100000000000000
(1788960341.141490) can0 04FF3604#0005000300000100
(1788960341.171492) can0 04FF3604#0004000400000100
(1788960341.196491) can0 03FF1000#0000112200000001
(1788960341.201488) can0 04FF3604#0004000300000100
(1788960341.207487) can0 03FF1001#0000000000000000
(1788960341.217488) can0 03FF1603#0000D9CF00000000
(1788960341.228487) can0 03FF1605#0100000000000000
(1788960341.231487) can0 04FF3604#0005000300000100
(1788960341.238488) can0 03FF1600#142B000104001319
(1788960341.249487) can0 03FF1601#6E50000000000000
(1788960341.259490) can0 03FF1602#075A850000001324
(1788960341.261489) can0 04FF3604#0004000300000100
(1788960341.270488) can0 03FF1604#0000000000000000
(1788960341.291487) can0 04FF3604#0005000400000100
(1788960341.292486) can0 05FF4610#0000CE6BFFFFFF8C
(1788960341.301487) can0 03FF1000#0000112200000001
(1788960341.312487) can0 03FF1001#0000000000000000
(1788960341.321488) can0 04FF3604#0004000300000100
(1788960341.322488) can0 03FF1603#0000D9CF00000000
(1788960341.333486) can0 03FF1605#0100000000000000
(1788960341.351485) can0 04FF3604#0004000300000100
(1788960341.381490) can0 04FF3604#0003000300000100
(1788960341.406487) can0 03FF1000#0000112200000001
(1788960341.411484) can0 04FF3604#0003000300000100
(1788960341.417484) can0 03FF1001#0000000000000000
(1788960341.427484) can0 03FF1603#0000D9CF00000000
(1788960341.438484) can0 03FF1605#0100000000000000
(1788960341.441483) can0 04FF3604#0003000300000100
(1788960341.471486) can0 04FF3604#0005000300000100
(1788960341.501485) can0 04FF3604#0004000400000100
(1788960341.511483) can0 03FF1000#0000112200000001
(1788960341.522482) can0 03FF1001#0000000000000000
(1788960341.531481) can0 04FF3604#0003000300000100
(1788960341.532482) can0 03FF1603#0000D9CF00000000
(1788960341.543481) can0 03FF1605#0100000000000000
(1788960341.554482) can0 05FF4610#0000CE6BFFFFFF8C
(1788960341.557481) can0 02181606#0100190001030200
(1788960341.561484) can0 04FF3604#0004000300000100
(1788960341.581483) can0 04FF3602#0000000000000000
(1788960341.587481) can0 02203606#0101000100000000
(1788960341.591481) can0 04FF3604#0003000300000100
(1788960341.616481) can0 03FF1000#0000112200000001
(1788960341.617480) can0 02181608#0500000001000000
(1788960341.621480) can0 04FF3604#0005000400000100
(1788960341.627480) can0 03FF1001#0000000000000000
(1788960341.637480) can0 03FF1603#0000D9CF00000000
(1788960341.647480) can0 02181609#0000000000000000
(1788960341.648479) can0 03FF1605#0100000000000000
(1788960341.651479) can0 04FF3604#0006000400000100
(1788960341.658479) can0 03121606#0000000000000000
(1788960341.677482) can0 02488600#0000000000000000
(1788960341.681482) can0 04FF3604#0005000300000100
(1788960341.689479) can0 05FF4001#0000000000000000
(1788960341.691479) can0 05FF4000#0000000000000000
(1788960341.707479) can0 02294612#
(1788960341.708478) can0 05124612#0000000000000000
(1788960341.711478) can0 04FF3604#0004000300000100
(1788960341.721480) can0 03FF1000#0000112200000001
(1788960341.732479) can0 03FF1001#0000000000000000
(1788960341.741478) can0 04FF3604#0003000300000100
(1788960341.742478) can0 03FF1603#0000D9CF00000000
(1788960341.753479) can0 03FF1605#0100000000000000
(1788960341.757478) can0 02FF2605#0000060909030501
(1788960341.771485) can0 05FF4602#E10FE60FE10FE10F
(1788960341.771548) can0 04FF3604#0005000300000100
(1788960341.781480) can0 05FF4603#DE0FE40FE00FE00F
(1788960341.787477) can0 02FF2604#0000000000000000
(1788960341.791477) can0 05FF4604#DE0FE00FE30FE40F
(1788960341.801477) can0 05FF4605#DB0F000000000000
(1788960341.801532) can0 04FF3604#0004000400000100
(1788960341.816477) can0 05FF4610#0000CE6BFFFFFF8C
(1788960341.817476) can0 02FF2704#0200000000000000
(1788960341.826480) can0 03FF1000#0000112200000001
(1788960341.830602) can0 05FF4606#151514
(1788960341.831477) can0 04FF3604#0003000400000100
(1788960341.837476) can0 03FF1001#0000000000000000
(1788960341.840592) can0 05FF4607#141615
(1788960341.847476) can0 03FF1603#0000D9CF00000000
(1788960341.848476) can0 0260B606#0000000000000000
(1788960341.850614) can0 05FF4608#0019007C
(1788960341.858476) can0 03FF1605#0100000000000000
(1788960341.860721) can0 05FF4609#0300037003B600
(1788960341.861479) can0 04FF3604#0003000300000100
(1788960341.877480) can0 02203607#0000000300000000
(1788960341.891478) can0 04FF3604#0004000300000100
(1788960341.921475) can0 04FF3604#0002000300000100
(1788960341.931476) can0 03FF1000#0000112200000001
(1788960341.942475) can0 03FF1001#0000000000000000
(1788960341.951474) can0 04FF3604#0004000300000100
(1788960341.952474) can0 03FF1603#0000D9CF00000000
(1788960341.963477) can0 03FF1605#0100000000000000
(1788960341.981477) can0 04FF3604#0004000400000100
(1788960342.011474) can0 04FF3604#0003000300000100
(1788960342.036473) can0 03FF1000#0000112200000001
(1788960342.041473) can0 04FF3604#0004000300000100
(1788960342.047472) can0 03FF1001#0000000000000000
(1788960342.057473) can0 03FF1603#0000D9CF00000000
(1788960342.068476) can0 03FF1605#0100000000000000
(1788960342.071475) can0 04FF3604#0004000300000100
(1788960342.077681) can0 05FF4610#0000CE6BFFFFFF8C
(1788960342.081472) can0 04FF3602#0000000000000000
(1788960342.101474) can0 04FF3604#0005000300000100
(1788960342.131475) can0 04FF3604#0005000300000100
(1788960342.141472) can0 03FF1000#0000112200000001
(1788960342.152471) can0 03FF1001#0000000000000000
(1788960342.161473) can0 04FF3604#0003000300000100
(1788960342.162473) can0 03FF1603#0000D9CF00000000
(1788960342.173471) can0 03FF1605#0100000000000000
(1788960342.191470) can0 04FF3604#0005000300000100
(1788960342.215469) can0 03FF1600#142B000104001319
(1788960342.221470) can0 04FF3604#0005000300000100
(1788960342.225470) can0 03FF1601#6E50000000000000
(1788960342.236469) can0 03FF1602#075A850000001324
(1788960342.246469) can0 03FF1604#0000000000000000
(1788960342.251469) can0 04FF3604#0005000300000100
(1788960342.257469) can0 03FF1000#0000112200000001
(1788960342.267471) can0 03FF1001#0000000000000000
(1788960342.278471) can0 03FF1603#0000D9CF00000000
(1788960342.281469) can0 04FF3604#0005000400000100
(1788960342.288468) can0 03FF1605#0100000000000000
(1788960342.311468) can0 04FF3604#0006000300000100
(1788960342.318470) can0 02181606#0100190001030200
(1788960342.341470) can0 04FF3604#0005000400000100
(1788960342.348468) can0 02203606#0101000100000000
(1788960342.351467) can0 03FF1000#0000112200000001
(1788960342.362470) can0 03FF1001#0000000000000000
(1788960342.366470) can0 05FF4610#0000CE6AFFFFFF8C
(1788960342.371470) can0 04FF3604#0003000300000100
(1788960342.372469) can0 03FF1603#0000D9CF00000000
(1788960342.378470) can0 02181608#0500000001000000
(1788960342.383467) can0 03FF1605#0100000000000000
(1788960342.393466) can0 03121606#0000000000000000
(1788960342.401466) can0 04FF3604#0004000400000100
(1788960342.408465) can0 02181609#0000000000000000
(1788960342.431466) can0 04FF3604#0006000300000100
(1788960342.438465) can0 02488600#0000000000000000
(1788960342.456466) can0 03FF1000#0000112200000001
(1788960342.461469) can0 04FF3604#0003000300000100
(1788960342.467465) can0 03FF1001#0000000000000000
(1788960342.467658) can0 02294613#
(1788960342.469464) can0 05124613#0000000000000000
(1788960342.477465) can0 03FF1603#0000D9CF00000000
(1788960342.488465) can0 03FF1605#0100000000000000
(1788960342.491465) can0 04FF3604#0003000300000100
(1788960342.521464) can0 04FF3604#0003000300000100
(1788960342.551465) can0 04FF3604#0002000400000100
(1788960342.561465) can0 03FF1000#0000112200000001
(1788960342.572464) can0 03FF1001#0000000000000000
(1788960342.581462) can0 04FF3602#0000000000000000
(1788960342.582462) can0 04FF3604#0003000300000100
(1788960342.582519) can0 03FF1603#0000D9CF00000000
(1788960342.593462) can0 03FF1605#0100000000000000
(1788960342.611462) can0 04FF3604#0002000300000100
(1788960342.628462) can0 05FF4610#0000CE6AFFFFFF8C
(1788960342.641463) can0 04FF3604#0005000300000100
(1788960342.666461) can0 03FF1000#0000112200000001
(1788960342.671461) can0 04FF3604#0004000400000100
(1788960342.677461) can0 03FF1001#0000000000000000
(1788960342.687462) can0 03FF1603#0000D9CF00000000
(1788960342.698460) can0 03FF1605#0100000000000000
(1788960342.701460) can0 04FF3604#0004000300000100
(1788960342.719460) can0 05FF4001#0000000000000000
(1788960342.721460) can0 05FF4000#0000000000000000
(1788960342.731460) can0 04FF3604#0004000300000100
(1788960342.761461) can0 04FF3604#0003000300000100
(1788960342.768460) can0 02FF2605#0000060909030502
(1788960342.771459) can0 03FF1000#0000112200000001
(1788960342.782459) can0 03FF1001#0000000000000000
(1788960342.791459) can0 04FF3604#0003000300000100
(1788960342.792459) can0 03FF1603#0000D9CF00000000
(1788960342.798458) can0 02FF2604#0000000000000000
(1788960342.801459) can0 05FF4602#E10FE60FE10FE10F
(1788960342.803459) can0 03FF1605#0100000000000000
(1788960342.811460) can0 05FF4603#DE0FE40FDF0FE00F
(1788960342.821459) can0 05FF4604#DE0FE00FE30FE40F
(1788960342.821525) can0 04FF3604#0004000300000100
(1788960342.828459) can0 02FF2704#0200000000000000
(1788960342.831457) can0 05FF4605#DB0F000000000000
(1788960342.851458) can0 04FF3604#0003000300000100
(1788960342.859457) can0 0260B606#0000000000000000
(1788960342.860527) can0 05FF4606#151514
(1788960342.870523) can0 05FF4607#141615
(1788960342.876457) can0 03FF1000#0000112200000001
(1788960342.880553) can0 05FF4608#0019007C
(1788960342.881457) can0 04FF3604#0005000300000100
(1788960342.887457) can0 03FF1001#0000000000000000
(1788960342.888457) can0 02203607#0000000300000000
(1788960342.889688) can0 05FF4610#0000CE6AFFFFFF8C
(1788960342.891665) can0 05FF4609#0300037003B600
(1788960342.897457) can0 03FF1603#0000D9CF00000000
(1788960342.908457) can0 03FF1605#0100000000000000
(1788960342.911456) can0 04FF3604#0003000300000100
(1788960342.941456) can0 04FF3604#0004000300000100
(1788960342.971458) can0 04FF3604#0006000400000100
(1788960342.981456) can0 03FF1000#0000112200000001
(1788960342.992456) can0 03FF1001#0000000000000000
(1788960343.001455) can0 04FF3604#0004000300000100
(1788960343.002454) can0 03FF1603#0000D9CF00000000
(1788960343.013454) can0 03FF1605#0100000000000000
(1788960343.031455) can0 04FF3604#0005000300000100
(1788960343.061455) can0 04FF3604#0004000300000100
(1788960343.078455) can0 02181606#0100190001030200
(1788960343.081453) can0 04FF3602#0000000000000000
(1788960343.086453) can0 03FF1000#0000112200000001
(1788960343.091453) can0 04FF3604#0004000300000100
(1788960343.097454) can0 03FF1001#0000000000000000
(1788960343.107458) can0 03FF1603#0000D9CF00000000
(1788960343.108512) can0 02203606#0101000100000000
(1788960343.118453) can0 03FF1605#0100000000000000
(1788960343.121452) can0 04FF3604#0003000400000100
(1788960343.138522) can0 02181608#0500000001000000
(1788960343.151453) can0 04FF3604#0005000300000100
(1788960343.152452) can0 05FF4610#0000CE6AFFFFFF8C
(1788960343.168536) can0 02181609#0000000000000000
(1788960343.181452) can0 04FF3604#0004000300000100
(1788960343.191452) can0 03FF1000#0000112200000001
(1788960343.198603) can0 02488600#0000000000000000
(1788960343.202451) can0 03FF1001#0000000000000000
(1788960343.211452) can0 04FF3604#0005000300000100
(1788960343.212451) can0 03FF1603#0000D9CF00000000
(1788960343.223451) can0 03FF1605#0100000000000000
(1788960343.233451) can0 03121606#0000000000000000
(1788960343.241451) can0 04FF3604#0004000300000100
(1788960343.244451) can0 03FF1600#142B000104001319
(1788960343.253694) can0 02294614#
(1788960343.254450) can0 03FF1601#6E50000000000000
(1788960343.255450) can0 05124614#0FE6010FDB0C000B
(1788960343.265452) can0 03FF1602#075A850000001324
(1788960343.271451) can0 04FF3604#0003000300000100
(1788960343.275450) can0 03FF1604#0000000000000000
(1788960343.296449) can0 03FF1000#0000112200000001
(1788960343.301449) can0 04FF3604#0004000400000100
(1788960343.307449) can0 03FF1001#0000000000000000
(1788960343.317449) can0 03FF1603#0000D9CF00000000
(1788960343.328451) can0 03FF1605#0100000000000000
(1788960343.331449) can0 04FF3604#0005000400000100
(1788960343.361450) can0 04FF3604#0004000300000100
(1788960343.391451) can0 04FF3604#0004000300000100
(1788960343.401449) can0 03FF1000#0000112200000001
(1788960343.412448) can0 03FF1001#0000000000000000
(1788960343.421447) can0 04FF3604#0004000300000100
(1788960343.422447) can0 03FF1603#0000D9CF00000000
(1788960343.433447) can0 03FF1605#0100000000000000
(1788960343.439447) can0 05FF4610#0000CE6BFFFFFF97
(1788960343.451448) can0 04FF3604#0003000300000100
(1788960343.481450) can0 04FF3604#0003000400000100
(1788960343.506447) can0 03FF1000#0000112200000001
(1788960343.511446) can0 04FF3604#0004000300000100
(1788960343.517446) can0 03FF1001#0000000000000000
(1788960343.527447) can0 03FF1603#0000D9CF00000000
(1788960343.538445) can0 03FF1605#0100000000000000
(1788960343.541445) can0 04FF3604#0004000300000100
(1788960343.571447) can0 04FF3604#0006000300000100
(1788960343.581445) can0 04FF3602#0000000000000000
(1788960343.601445) can0 04FF3604#0002000300000100
(1788960343.611445) can0 03FF1000#0000112200000001
(1788960343.622444) can0 03FF1001#0000000000000000
(1788960343.631444) can0 04FF3604#0003000300000100
(1788960343.632443) can0 03FF1603#0000D9CF00000000
(1788960343.643443) can0 03FF1605#0100000000000000
(1788960343.661455) can0 04FF3604#0006000300000100
(1788960343.691444) can0 04FF3604#0003000300000100
(1788960343.700443) can0 05FF4610#0000CE6BFFFFFF97
(1788960343.716443) can0 03FF1000#0000112200000001
(1788960343.721442) can0 04FF3604#0005000300000100
(1788960343.727442) can0 03FF1001#0000000000000000
(1788960343.737442) can0 03FF1603#0000D9CF00000000
(1788960343.748442) can0 03FF1605#0100000000000000
(1788960343.748492) can0 05FF4001#0000000000000000
(1788960343.750441) can0 05FF4000#0000000000000000
(1788960343.751441) can0 04FF3604#0004000300000100
(1788960343.779443) can0 02FF2605#0000060909030503
(1788960343.781442) can0 04FF3604#0005000300000100
(1788960343.809441) can0 02FF2604#0000000000000000
(1788960343.811440) can0 04FF3604#0005000400000100
(1788960343.821441) can0 03FF1000#0000112200000001
(1788960343.831441) can0 05FF4602#E10FE60FE10FE10F
(1788960343.832440) can0 03FF1001#0000000000000000
(1788960343.839440) can0 02FF2704#0200000000000000
(1788960343.841440) can0 05FF4603#DE0FE40FE00FE00F
(1788960343.841502) can0 04FF3604#0003000300000100
(1788960343.842440) can0 03FF1603#0000D9CF00000000
(1788960343.851441) can0 05FF4604#DE0FE00FE30FE40F
(1788960343.853440) can0 03FF1605#0100000000000000
(1788960343.861440) can0 05FF4605#DB0F000000000000
(1788960343.869441) can0 0260B606#0000000000000000
(1788960343.871440) can0 04FF3604#0003000300000100
(1788960343.890571) can0 05FF4606#151514
(1788960343.899439) can0 02203607#0000000300000000
(1788960343.900554) can0 05FF4607#141615
(1788960343.901439) can0 04FF3604#0005000300000100
(1788960343.910590) can0 05FF4608#0019007C
(1788960343.920688) can0 05FF4609#0300037003B600
(1788960343.926438) can0 03FF1000#0000112200000001
(1788960343.929438) can0 02181606#0100190001030200
(1788960343.931438) can0 04FF3604#0003000300000100
(1788960343.937439) can0 03FF1001#0000000000000000
(1788960343.947438) can0 03FF1603#0000D9CF00000000
(1788960343.958438) can0 03FF1605#0100000000000000
(1788960343.959437) can0 02203606#0101000100000000
(1788960343.961437) can0 04FF3604#0003000300000100
(1788960343.961702) can0 05FF4610#0000CE6BFFFFFF97
(1788960343.989441) can0 02181608#0500000001000000
(1788960343.991437) can0 04FF3604#0003000300000100
(1788960344.019437) can0 02181609#0000000000000000
(1788960344.021436) can0 04FF3604#0003000400000100
(1788960344.031437) can0 03FF1000#0000112200000001
(1788960344.042436) can0 03FF1001#0000000000000000
(1788960344.049436) can0 02488600#0000000000000000
(1788960344.051436) can0 04FF3604#0004000300000100
(1788960344.052436) can0 03FF1603#0000D9CF00000000
(1788960344.063437) can0 03FF1605#0100000000000000
(1788960344.073436) can0 03121606#0000000000000000
(1788960344.079437) can0 02294615#
(1788960344.080436) can0 05124615#1501140301FF
(1788960344.081435) can0 04FF3602#0000000000000000
(1788960344.081694) can0 04FF3604#0005000300000100
(1788960344.111438) can0 04FF3604#0003000300000100
(1788960344.136436) can0 03FF1000#0000112200000001
(1788960344.141434) can0 04FF3604#0004000400000100
(1788960344.147434) can0 03FF1001#0000000000000000
(1788960344.157435) can0 03FF1603#0000D9CF00000000
(1788960344.168437) can0 03FF1605#0100000000000000
(1788960344.171434) can0 04FF3604#0003000300000100
(1788960344.201434) can0 04FF3604#0006000300000100
(1788960344.231435) can0 03FF1600#142B000104001319
(1788960344.231489) can0 04FF3604#0004000300000100
(1788960344.241433) can0 03FF1601#6E50000000000000
(1788960344.252433) can0 03FF1602#075A850000001324
(1788960344.252489) can0 05FF4610#0000CE6BFFFFFF97
(1788960344.261433) can0 04FF3604#0004000300000100
(1788960344.262433) can0 03FF1604#0000000000000000
(1788960344.273433) can0 03FF1000#0000112200000001
(1788960344.283433) can0 03FF1001#0000000000000000
(1788960344.291433) can0 04FF3604#0004000300000100
(1788960344.294432) can0 03FF1603#0000D9CF00000000
(1788960344.304432) can0 03FF1605#0100000000000000
(1788960344.321433) can0 04FF3604#0004000300000100
(1788960344.346431) can0 03FF1000#0000112200000001
(1788960344.351431) can0 04FF3604#0002000300000100
(1788960344.357431) can0 03FF1001#0000000000000000
(1788960344.367433) can0 03FF1603#0000D9CF00000000
(1788960344.378434) can0 03FF1605#0100000000000000
(1788960344.381433) can0 04FF3604#0005000300000100
(1788960344.411432) can0 04FF3604#0004000300000100
(1788960344.441430) can0 04FF3604#0003000400000100
(1788960344.451429) can0 03FF1000#0000112200000001
(1788960344.462432) can0 03FF1001#0000000000000000
(1788960344.471430) can0 04FF3604#0004000300000100
(1788960344.472429) can0 03FF1603#0000D9CF00000000
(1788960344.483429) can0 03FF1605#0100000000000000
(1788960344.501429) can0 04FF3604#0004000300000100
(1788960344.515429) can0 05FF4610#0000CE6BFFFFFF97
(1788960344.531428) can0 04FF3604#0005000300000100
(1788960344.556428) can0 03FF1000#0000112200000001
(1788960344.561427) can0 04FF3604#0004000300000100
(1788960344.567429) can0 03FF1001#0000000000000000
(1788960344.577427) can0 03FF1603#0000D9CF00000000
(1788960344.581426) can0 04FF3602#0000000000000000
(1788960344.588428) can0 03FF1605#0100000000000000
(1788960344.591426) can0 04FF3604#0005000300000100
(1788960344.600427) can0 02181606#0100190001030200
(1788960344.621426) can0 04FF3604#0005000300000100
(1788960344.630426) can0 02203606#0101000100000000
(1788960344.651426) can0 04FF3604#0005000400000100
(1788960344.660426) can0 02181608#0500000001000000
(1788960344.661425) can0 03FF1000#0000112200000001
(1788960344.672426) can0 03FF1001#0000000000000000
(1788960344.681426) can0 04FF3604#0003000300000100
(1788960344.682425) can0 03FF1603#0000D9CF00000000
(1788960344.690426) can0 02181609#0000000000000000
(1788960344.693425) can0 03FF1605#0100000000000000
(1788960344.703425) can0 03121606#0000000000000000
(1788960344.711425) can0 04FF3604#0003000300000100
(1788960344.720424) can0 02488600#0000000000000000
(1788960344.741425) can0 04FF3604#0005000400000100
(1788960344.750424) can0 02294616#
(1788960344.751424) can0 05124616#0000000000001DA7
(1788960344.766424) can0 03FF1000#0000112200000001
(1788960344.771423) can0 04FF3604#0004000300000100
(1788960344.777424) can0 03FF1001#0000000000000000
(1788960344.778423) can0 05FF4610#0000CE6BFFFFFF97
(1788960344.783423) can0 05FF4001#0000000000000000
(1788960344.785423) can0 05FF4000#0000000000000000
(1788960344.787424) can0 03FF1603#0000D9CF00000000
(1788960344.790423) can0 02FF2605#0000060909030504
(1788960344.798423) can0 03FF1605#0100000000000000
(1788960344.801423) can0 04FF3604#0006000300000100
(1788960344.820424) can0 02FF2604#0000000000000000
(1788960344.831423) can0 04FF3604#0005000300000100
(1788960344.850422) can0 02FF2704#0200000000000000
(1788960344.861423) can0 04FF3604#0005000300000100
(1788960344.865424) can0 05FF4602#E10FE60FE10FE10F
(1788960344.871422) can0 03FF1000#0000112200000001
(1788960344.875422) can0 05FF4603#DE0FE40FE00FE00F
(1788960344.880425) can0 0260B606#0000000000000000
(1788960344.882421) can0 03FF1001#0000000000000000
(1788960344.885422) can0 05FF4604#DE0FE00FE30FE40F
(1788960344.891421) can0 04FF3604#0004000400000100
(1788960344.892421) can0 03FF1603#0000D9CF00000000
(1788960344.895421) can0 05FF4605#DB0F000000000000
(1788960344.903422) can0 03FF1605#0100000000000000
(1788960344.910421) can0 02203607#0000000300000000
(1788960344.921421) can0 04FF3604#0003000300000100
(1788960344.925421) can0 05FF4606#151514
(1788960344.935421) can0 05FF4607#141615
(1788960344.945421) can0 05FF4608#0019007C
(1788960344.951420) can0 04FF3604#0004000400000100
(1788960344.955496) can0 05FF4609#0300037003B600
(1788960344.976424) can0 03FF1000#0000112200000001
(1788960344.981420) can0 04FF3604#0005000300000100
(1788960344.987419) can0 03FF1001#0000000000000000
(1788960344.997420) can0 03FF1603#0000D9CF00000000
(1788960345.008419) can0 03FF1605#0100000000000000
(1788960345.011419) can0 04FF3604#0006000300000100
(1788960345.039444) can0 05FF4610#0000CE6BFFFFFF97
(1788960345.041419) can0 04FF3604#0005000300000100
(1788960345.071420) can0 04FF3604#0005000300000100
(1788960345.081419) can0 04FF3602#0000000000000000
(1788960345.081623) can0 03FF1000#0000112200000001
(1788960345.092419) can0 03FF1001#0000000000000000
(1788960345.101422) can0 04FF3604#0004000300000100
(1788960345.102418) can0 03FF1603#0000D9CF00000000
(1788960345.113418) can0 03FF1605#0100000000000000
(1788960345.131418) can0 04FF3604#0005000300000100
(1788960345.145418) can0 05FF4600#0D0400C00303
(1788960345.161417) can0 04FF3604#0006000300000100
(1788960345.186420) can0 03FF1000#0000112200000001
(1788960345.191417) can0 04FF3604#0004000300000100
(1788960345.197416) can0 03FF1001#0000000000000000
(1788960345.207416) can0 03FF1603#0000D9CF00000000
(1788960345.218416) can0 03FF1605#0100000000000000
(1788960345.221415) can0 04FF3604#0004000300000100
(1788960345.239416) can0 03FF1600#142B000104001319
(1788960345.249415) can0 03FF1601#6E50000000000000
(1788960345.251415) can0 04FF3604#0003000400000100
(1788960345.259666) can0 03FF1602#075A850000001324
(1788960345.270416) can0 03FF1604#0000000000000000
(1788960345.281415) can0 04FF3604#0003000300000100
(1788960345.291414) can0 03FF1000#0000112200000001
(1788960345.302415) can0 03FF1001#0000000000000000
(1788960345.311415) can0 04FF3604#0005000300000100
(1788960345.312414) can0 03FF1603#0000D9CF00000000
(1788960345.323414) can0 03FF1605#0100000000000000
(1788960345.330415) can0 05FF4610#0000CE6BFFFFFF92
(1788960345.341414) can0 04FF3604#0004000400000100
