(1788787642.155218) can0 03FF1000#0840112200000001
(1788787642.260213) can0 03FF1000#0840112200000001
(1788787642.365218) can0 03FF1000#0840112200000001
(1788787642.470222) can0 03FF1000#0840112200000001
(1788787642.575227) can0 03FF1000#0840112200000001
(1788787642.680233) can0 03FF1000#0840112200000001
(1788787642.785241) can0 03FF1000#0840112200000001
(1788787642.890245) can0 03FF1000#0840112200000001
(1788787642.995249) can0 03FF1000#0840112200000001
(1788787643.100254) can0 03FF1000#0840112200000001
(1788787643.205261) can0 03FF1000#0840112200000001
(1788787643.310266) can0 03FF1000#0840112200000001
(1788787643.415271) can0 03FF1000#0840112200000001
(1788787643.520276) can0 03FF1000#0840112200000001
(1788787643.625282) can0 03FF1000#0840112200000001
(1788787643.730288) can0 03FF1000#0840112200000001
(1788787643.835295) can0 03FF1000#0840112200000001
(1788787643.940300) can0 03FF1000#0840112200000001
(1788787644.045307) can0 03FF1000#0840112200000001
(1788787644.150312) can0 03FF1000#0840112200000001
(1788787644.255317) can0 03FF1000#0840112200000001
(1788787644.360323) can0 03FF1000#0840112200000001
(1788787644.465327) can0 03FF1000#0840112200000001
(1788787644.570334) can0 03FF1000#0840112200000001
(1788787644.675340) can0 03FF1000#0840112200000001
(1788787644.780344) can0 03FF1000#0840112200000001
(1788787644.885352) can0 03FF1000#0840112200000001
(1788787644.990357) can0 03FF1000#0840112200000001
(1788787645.095366) can0 03FF1000#0840112200000001
(1788787645.200369) can0 03FF1000#0840112200000001
(1788787645.305373) can0 03FF1000#0840112200000001
(1788787645.410380) can0 03FF1000#0840112200000001
(1788787645.515384) can0 03FF1000#0840112200000001
(1788787645.620389) can0 03FF1000#0840112200000001
(1788787645.725395) can0 03FF1000#0840112200000001
(1788787645.830401) can0 03FF1000#0840112200000001
(1788787645.935407) can0 03FF1000#0840112200000001
(1788787646.040413) can0 03FF1000#0840112200000001
(1788787646.145418) can0 03FF1000#0840112200000001
(1788787646.250423) can0 03FF1000#0840112200000001
(1788787646.355428) can0 03FF1000#0840112200000001
(1788787646.460437) can0 03FF1000#0840112200000001
(1788787646.565441) can0 03FF1000#0840112200000001
(1788787646.670446) can0 03FF1000#0840112200000001
(1788787646.775450) can0 03FF1000#0840112200000001
(1788787646.880457) can0 03FF1000#0840112200000001
(1788787646.985465) can0 03FF1000#0840112200000001
(1788787647.090472) can0 03FF1000#0840112200000001
(1788787647.195478) can0 03FF1000#0840112200000001
(1788787647.300481) can0 03FF1000#0840112200000001
(1788787647.404741) can0 03FF1000#0840112200000001
(1788787647.510496) can0 03FF1000#0840112200000001
(1788787647.615499) can0 03FF1000#0840112200000001
(1788787647.655502) can0 04FF3400#0000056D00000000
(1788787647.720504) can0 03FF1000#0840112200000001
(1788787647.824766) can0 03FF1000#0840112200000001
(1788787647.929765) can0 03FF1000#0840112200000001
(1788787648.034767) can0 03FF1000#0840112200000001
(1788787648.140526) can0 03FF1000#0840112200000001
(1788787648.244788) can0 03FF1000#0840112200000001
(1788787648.349769) can0 03FF1000#0840112200000001
(1788787648.454774) can0 03FF1000#0840112200000001
(1788787648.559806) can0 03FF1000#0840112200000001
(1788787648.664811) can0 03FF1000#0840112200000001
(1788787648.769788) can0 03FF1000#0840112200000001
(1788787648.874776) can0 03FF1000#0840112200000001
(1788787648.979781) can0 03FF1000#0840112200000001
(1788787649.084800) can0 03FF1000#0840112200000001
(1788787649.189811) can0 03FF1000#0840112200000001
(1788787649.294808) can0 03FF1000#0840112200000001
(1788787649.399802) can0 03FF1000#0840112200000001
(1788787649.504807) can0 03FF1000#0840112200000001
(1788787649.609793) can0 03FF1000#0840112200000001
(1788787649.714821) can0 03FF1000#0840112200000001
(1788787649.819817) can0 03FF1000#0840112200000001
(1788787649.924807) can0 03FF1000#0840112200000001
(1788787650.029808) can0 03FF1000#0840112200000001
(1788787650.134833) can0 03FF1000#0840112200000001
(1788787650.239837) can0 03FF1000#0840112200000001
(1788787650.344841) can0 03FF1000#0840112200000001
(1788787650.449866) can0 03FF1000#0840112200000001
(1788787650.554830) can0 03FF1000#0840112200000001
(1788787650.659827) can0 03FF1000#0840112200000001
(1788787650.764842) can0 03FF1000#0840112200000001
(1788787650.869847) can0 03FF1000#0840112200000001
(1788787650.974887) can0 03FF1000#0840112200000001
(1788787651.079834) can0 03FF1000#0840112200000001
(1788787651.184836) can0 03FF1000#0840112200000001
(1788787651.289854) can0 03FF1000#0840112200000001
(1788787651.394863) can0 03FF1000#0840112200000001
(1788787651.499857) can0 03FF1000#0840112200000001
(1788787651.604840) can0 03FF1000#0840112200000001
(1788787651.709845) can0 03FF1000#0840112200000001
(1788787651.814878) can0 03FF1000#0840112200000001
(1788787651.919868) can0 03FF1000#0840112200000001
(1788787652.024865) can0 03FF1000#0840112200000001
(1788787652.129856) can0 03FF1000#0840112200000001
(1788787652.234854) can0 03FF1000#0840112200000001
(1788787652.339879) can0 03FF1000#0840112200000001
(1788787652.444886) can0 03FF1000#0840112200000001
(1788787652.549862) can0 03FF1000#0840112200000001
(1788787652.654875) can0 03FF1000#0840112200000001
(1788787652.759882) can0 03FF1000#0840112200000001
(1788787652.864885) can0 03FF1000#0840112200000001
(1788787652.969897) can0 03FF1000#0840112200000001
(1788787653.074894) can0 03FF1000#0840112200000001
(1788787653.179891) can0 03FF1000#0840112200000001
(1788787653.284934) can0 03FF1000#0840112200000001
(1788787653.389901) can0 03FF1000#0840112200000001
(1788787653.494906) can0 03FF1000#0840112200000001
(1788787653.599879) can0 03FF1000#0840112200000001
(1788787653.704896) can0 03FF1000#0840112200000001
(1788787653.809946) can0 03FF1000#0840112200000001
(1788787653.914918) can0 03FF1000#0840112200000001
(1788787654.019923) can0 03FF1000#0840112200000001
(1788787654.124893) can0 03FF1000#0840112200000001
(1788787654.229907) can0 03FF1000#0840112200000001
(1788787654.334954) can0 03FF1000#0840112200000001
(1788787654.439921) can0 03FF1000#0840112200000001
(1788787654.544927) can0 03FF1000#0840112200000001
(1788787654.649921) can0 03FF1000#0840112200000001
(1788787654.754918) can0 03FF1000#0840112200000001
(1788787654.859926) can0 03FF1000#0840112200000001
(1788787654.964940) can0 03FF1000#0840112200000001
(1788787655.069940) can0 03FF1000#0840112200000001
(1788787655.174941) can0 03FF1000#0840112200000001
(1788787655.279933) can0 03FF1000#0840112200000001
(1788787655.384943) can0 03FF1000#0840112200000001
(1788787655.489964) can0 03FF1000#0840112200000001
(1788787655.594960) can0 03FF1000#0840112200000001
(1788787655.699945) can0 03FF1000#0840112200000001
(1788787655.804940) can0 03FF1000#0840112200000001
(1788787655.909947) can0 03FF1000#0840112200000001
(1788787656.014962) can0 03FF1000#0840112200000001
(1788787656.119965) can0 03FF1000#0840112200000001
(1788787656.224964) can0 03FF1000#0840112200000001
(1788787656.329969) can0 03FF1000#0840112200000001
(1788787656.434977) can0 03FF1000#0840112200000001
(1788787656.539978) can0 03FF1000#0840112200000001
(1788787656.645007) can0 03FF1000#0840112200000001
(1788787656.749991) can0 03FF1000#0840112200000001
(1788787656.854996) can0 03FF1000#0840112200000001
(1788787656.960003) can0 03FF1000#0840112200000001
(1788787657.065006) can0 03FF1000#0840112200000001
(1788787657.170028) can0 03FF1000#0840112200000001
(1788787657.275020) can0 03FF1000#0840112200000001
(1788787657.380025) can0 03FF1000#0840112200000001
(1788787657.485031) can0 03FF1000#0840112200000001
(1788787657.590035) can0 03FF1000#0840112200000001
(1788787657.655039) can0 04FF3400#0000056E00000000
(1788787657.695041) can0 03FF1000#0840112200000001
(1788787657.800048) can0 03FF1000#0840112200000001
(1788787657.905052) can0 03FF1000#0840112200000001
(1788787658.010060) can0 03FF1000#0840112200000001
(1788787658.115063) can0 03FF1000#0840112200000001
(1788787658.220069) can0 03FF1000#0840112200000001
(1788787658.325074) can0 03FF1000#0840112200000001
(1788787658.430081) can0 03FF1000#0840112200000001
(1788787658.535088) can0 03FF1000#0840112200000001
(1788787658.640091) can0 03FF1000#0840112200000001
(1788787658.745098) can0 03FF1000#0840112200000001
(1788787658.850103) can0 03FF1000#0840112200000001
(1788787658.955110) can0 03FF1000#0840112200000001
(1788787659.060117) can0 03FF1000#0840112200000001
(1788787659.165123) can0 03FF1000#0840112200000001
(1788787659.270126) can0 03FF1000#0840112200000001
(1788787659.375132) can0 03FF1000#0840112200000001
(1788787659.480137) can0 03FF1000#0840112200000001
(1788787659.585144) can0 03FF1000#0840112200000001
(1788787659.690149) can0 03FF1000#0840112200000001
(1788787659.795153) can0 03FF1000#0840112200000001
(1788787659.900159) can0 03FF1000#0840112200000001
(1788787660.005165) can0 03FF1000#0840112200000001
(1788787660.110172) can0 03FF1000#0840112200000001
(1788787660.215178) can0 03FF1000#0840112200000001
(1788787660.320182) can0 03FF1000#0840112200000001
(1788787660.425188) can0 03FF1000#0840112200000001
(1788787660.530194) can0 03FF1000#0840112200000001
(1788787660.635200) can0 03FF1000#0840112200000001
(1788787660.740205) can0 03FF1000#0840112200000001
(1788787660.845210) can0 03FF1000#0840112200000001
(1788787660.950216) can0 03FF1000#0840112200000001
(1788787661.055221) can0 03FF1000#0840112200000001
(1788787661.160228) can0 03FF1000#0840112200000001
(1788787661.265233) can0 03FF1000#0840112200000001
(1788787661.370239) can0 03FF1000#0840112200000001
(1788787661.475244) can0 03FF1000#0840112200000001
(1788787661.580249) can0 03FF1000#0840112200000001
(1788787661.685258) can0 03FF1000#0840112200000001
(1788787661.790261) can0 03FF1000#0840112200000001
(1788787661.895266) can0 03FF1000#0840112200000001
(1788787662.000273) can0 03FF1000#0840112200000001
(1788787662.105277) can0 03FF1000#0840112200000001
(1788787662.210286) can0 03FF1000#0840112200000001
(1788787662.315290) can0 03FF1000#0840112200000001
(1788787662.420295) can0 03FF1000#0840112200000001
(1788787662.525302) can0 03FF1000#0840112200000001
(1788787662.630305) can0 03FF1000#0840112200000001
(1788787662.735314) can0 03FF1000#0840112200000001
(1788787662.840317) can0 03FF1000#0840112200000001
(1788787662.945322) can0 03FF1000#0840112200000001
(1788787663.050330) can0 03FF1000#0840112200000001
(1788787663.155337) can0 03FF1000#0840112200000001
(1788787663.260343) can0 03FF1000#0840112200000001
(1788787663.365345) can0 03FF1000#0840112200000001
(1788787663.470352) can0 03FF1000#0840112200000001
(1788787663.575358) can0 03FF1000#0840112200000001
(1788787663.680364) can0 03FF1000#0840112200000001
(1788787663.785370) can0 03FF1000#0840112200000001
(1788787663.890374) can0 03FF1000#0840112200000001
(1788787663.995380) can0 03FF1000#0840112200000001
(1788787664.100384) can0 03FF1000#0840112200000001
(1788787664.205391) can0 03FF1000#0840112200000001
(1788787664.310399) can0 03FF1000#0840112200000001
(1788787664.415401) can0 03FF1000#0840112200000001
(1788787664.520407) can0 03FF1000#0840112200000001
(1788787664.625413) can0 03FF1000#0840112200000001
(1788787664.730420) can0 03FF1000#0840112200000001
(1788787664.835429) can0 03FF1000#0840112200000001
(1788787664.940430) can0 03FF1000#0840112200000001
(1788787665.045436) can0 03FF1000#0840112200000001
(1788787665.150442) can0 03FF1000#0840112200000001
(1788787665.255448) can0 03FF1000#0840112200000001
(1788787665.360455) can0 03FF1000#0840112200000001
(1788787665.465458) can0 03FF1000#0840112200000001
(1788787665.570463) can0 03FF1000#0840112200000001
(1788787665.675470) can0 03FF1000#0840112200000001
(1788787665.780476) can0 03FF1000#0840112200000001
(1788787665.885483) can0 03FF1000#0840112200000001
(1788787665.990487) can0 03FF1000#0840112200000001
(1788787666.095494) can0 03FF1000#0840112200000001
(1788787666.200501) can0 03FF1000#0840112200000001
(1788787666.305507) can0 03FF1000#0840112200000001
(1788787666.410516) can0 03FF1000#0840112200000001
(1788787666.515519) can0 03FF1000#0840112200000001
(1788787666.620534) can0 03FF1000#0840112200000001
(1788787666.725528) can0 03FF1000#0840112200000001
(1788787666.830536) can0 03FF1000#0840112200000001
(1788787666.935539) can0 03FF1000#0840112200000001
(1788787667.040544) can0 03FF1000#0840112200000001
(1788787667.145547) can0 03FF1000#0840112200000001
(1788787667.250553) can0 03FF1000#0840112200000001
(1788787667.355561) can0 03FF1000#0840112200000001
(1788787667.460566) can0 03FF1000#0840112200000001
(1788787667.565569) can0 03FF1000#0840112200000001
(1788787667.654610) can0 04FF3400#0000056F00000000
(1788787667.655572) can0 04FF3603#0300000000000000
(1788787667.670574) can0 03FF1000#0840112200000001
(1788787667.775580) can0 03FF1000#0840112200000001
(1788787667.880589) can0 03FF1000#0840112200000001
(1788787667.985595) can0 03FF1000#0840112200000001
(1788787668.090598) can0 03FF1000#0840112200000001
(1788787668.195604) can0 03FF1000#0840112200000001
(1788787668.300613) can0 03FF1000#0840112200000001
(1788787668.405616) can0 03FF1000#0840112200000001
(1788787668.510623) can0 03FF1000#0840112200000001
(1788787668.615629) can0 03FF1000#0840112200000001
(1788787668.720634) can0 03FF1000#0840112200000001
(1788787668.825639) can0 03FF1000#0840112200000001
(1788787668.930645) can0 03FF1000#0840112200000001
(1788787669.035651) can0 03FF1000#0840112200000001
(1788787669.140659) can0 03FF1000#0840112200000001
(1788787669.245663) can0 03FF1000#0840112200000001
(1788787669.350668) can0 03FF1000#0840112200000001
(1788787669.455673) can0 03FF1000#0840112200000001
(1788787669.560679) can0 03FF1000#0840112200000001
(1788787669.665685) can0 03FF1000#0840112200000001
(1788787669.770689) can0 03FF1000#0840112200000001
(1788787669.875696) can0 03FF1000#0840112200000001
(1788787669.980700) can0 03FF1000#0840112200000001
(1788787670.085708) can0 03FF1000#0840112200000001
(1788787670.190713) can0 03FF1000#0840112200000001
(1788787670.295718) can0 03FF1000#0840112200000001
(1788787670.400724) can0 03FF1000#0840112200000001
(1788787670.505728) can0 03FF1000#0840112200000001
(1788787670.610737) can0 03FF1000#0840112200000001
(1788787670.715741) can0 03FF1000#0840112200000001
(1788787670.820747) can0 03FF1000#0840112200000001
(1788787670.925751) can0 03FF1000#0840112200000001
(1788787671.030757) can0 03FF1000#0840112200000001
(1788787671.135764) can0 03FF1000#0840112200000001
(1788787671.240770) can0 03FF1000#0840112200000001
(1788787671.345776) can0 03FF1000#0840112200000001
(1788787671.450783) can0 03FF1000#0840112200000001
(1788787671.555785) can0 03FF1000#0840112200000001
(1788787671.660791) can0 03FF1000#0840112200000001
(1788787671.765797) can0 03FF1000#0840112200000001
(1788787671.870803) can0 03FF1000#0840112200000001
(1788787671.975808) can0 03FF1000#0840112200000001
(1788787672.080814) can0 03FF1000#0840112200000001
(1788787672.185833) can0 03FF1000#0840112200000001
(1788787672.290835) can0 03FF1000#0840112200000001
(1788787672.395833) can0 03FF1000#0840112200000001
(1788787672.500836) can0 03FF1000#0840112200000001
(1788787672.605842) can0 03FF1000#0840112200000001
(1788787672.710848) can0 03FF1000#0840112200000001
(1788787672.815852) can0 03FF1000#0840112200000001
(1788787672.920860) can0 03FF1000#0840112200000001
(1788787673.025863) can0 03FF1000#0840112200000001
(1788787673.130868) can0 03FF1000#0840112200000001
(1788787673.235875) can0 03FF1000#0840112200000001
(1788787673.340881) can0 03FF1000#0840112200000001
(1788787673.445885) can0 03FF1000#0840112200000001
(1788787673.550890) can0 03FF1000#0840112200000001
(1788787673.655896) can0 03FF1000#0840112200000001
(1788787673.760903) can0 03FF1000#0840112200000001
(1788787673.865908) can0 03FF1000#0840112200000001
(1788787673.970912) can0 03FF1000#0840112200000001
(1788787674.075920) can0 03FF1000#0840112200000001
(1788787674.180924) can0 03FF1000#0840112200000001
(1788787674.285933) can0 03FF1000#0840112200000001
(1788787674.390936) can0 03FF1000#0840112200000001
(1788787674.495940) can0 03FF1000#0840112200000001
(1788787674.600946) can0 03FF1000#0840112200000001
(1788787674.705954) can0 03FF1000#0840112200000001
(1788787674.810960) can0 03FF1000#0840112200000001
(1788787674.915964) can0 03FF1000#0840112200000001
(1788787675.020969) can0 03FF1000#0840112200000001
(1788787675.125975) can0 03FF1000#0840112200000001
(1788787675.230980) can0 03FF1000#0840112200000001
(1788787675.335991) can0 03FF1000#0840112200000001
(1788787675.440993) can0 03FF1000#0840112200000001
(1788787675.545999) can0 03FF1000#0840112200000001
(1788787675.651003) can0 03FF1000#0840112200000001
(1788787675.756013) can0 03FF1000#0840112200000001
(1788787675.861018) can0 03FF1000#0840112200000001
(1788787675.966021) can0 03FF1000#0840112200000001
(1788787676.071026) can0 03FF1000#0840112200000001
(1788787676.176031) can0 03FF1000#0840112200000001
(1788787676.281039) can0 03FF1000#0840112200000001
(1788787676.386046) can0 03FF1000#0840112200000001
(1788787676.491049) can0 03FF1000#0840112200000001
(1788787676.596054) can0 03FF1000#0840112200000001
(1788787676.701062) can0 03FF1000#0840112200000001
(1788787676.806070) can0 03FF1000#0840112200000001
(1788787676.911074) can0 03FF1000#0840112200000001
(1788787677.016078) can0 03FF1000#0840112200000001
(1788787677.121083) can0 03FF1000#0840112200000001
(1788787677.226091) can0 03FF1000#0840112200000001
(1788787677.331096) can0 03FF1000#0840112200000001
(1788787677.436101) can0 03FF1000#0840112200000001
(1788787677.541108) can0 03FF1000#0840112200000001
(1788787677.646114) can0 03FF1000#0840112200000001
(1788787677.655110) can0 04FF3400#0000057000000000
(1788787677.751121) can0 03FF1000#0840112200000001
(1788787677.856124) can0 03FF1000#0840112200000001
(1788787677.961132) can0 03FF1000#0840112200000001
(1788787678.066138) can0 03FF1000#0840112200000001
(1788787678.171142) can0 03FF1000#0840112200000001
(1788787678.276150) can0 03FF1000#0840112200000001
(1788787678.381153) can0 03FF1000#0840112200000001
(1788787678.486159) can0 03FF1000#0840112200000001
(1788787678.591163) can0 03FF1000#0840112200000001
(1788787678.696168) can0 03FF1000#0840112200000001
(1788787678.801174) can0 03FF1000#0840112200000001
(1788787678.906181) can0 03FF1000#0840112200000001
(1788787679.010441) can0 03FF1000#0840112200000001
(1788787679.116191) can0 03FF1000#0840112200000001
(1788787679.220450) can0 03FF1000#0840112200000001
(1788787679.326201) can0 03FF1000#0840112200000001
(1788787679.431210) can0 03FF1000#0840112200000001
(1788787679.535468) can0 03FF1000#0840112200000001
(1788787679.641222) can0 03FF1000#0840112200000001
(1788787679.745480) can0 03FF1000#0840112200000001
(1788787679.850488) can0 03FF1000#0840112200000001
(1788787679.955483) can0 03FF1000#0840112200000001
(1788787680.060463) can0 03FF1000#0840112200000001
(1788787680.165462) can0 03FF1000#0840112200000001
(1788787680.270497) can0 03FF1000#0840112200000001
(1788787680.375489) can0 03FF1000#0840112200000001
(1788787680.480495) can0 03FF1000#0840112200000001
(1788787680.585480) can0 03FF1000#0840112200000001
(1788787680.690473) can0 03FF1000#0840112200000001
(1788787680.795503) can0 03FF1000#0840112200000001
(1788787680.900509) can0 03FF1000#0840112200000001
(1788787681.005509) can0 03FF1000#0840112200000001
(1788787681.110497) can0 03FF1000#0840112200000001
(1788787681.215479) can0 03FF1000#0840112200000001
(1788787681.320497) can0 03FF1000#0840112200000001
(1788787681.425508) can0 03FF1000#0840112200000001
(1788787681.530519) can0 03FF1000#0840112200000001
(1788787681.635491) can0 03FF1000#0840112200000001
(1788787681.740507) can0 03FF1000#0840112200000001
(1788787681.845513) can0 03FF1000#0840112200000001
(1788787681.950565) can0 03FF1000#0840112200000001
(1788787682.055539) can0 03FF1000#0840112200000001
(1788787682.160521) can0 03FF1000#0840112200000001
(1788787682.265510) can0 03FF1000#0840112200000001
(1788787682.370505) can0 03FF1000#0840112200000001
(1788787682.475571) can0 03FF1000#0840112200000001
(1788787682.580543) can0 03FF1000#0840112200000001
(1788787682.685517) can0 03FF1000#0840112200000001
(1788787682.790518) can0 03FF1000#0840112200000001
(1788787682.895536) can0 03FF1000#0840112200000001
(1788787683.000576) can0 03FF1000#0840112200000001
(1788787683.105558) can0 03FF1000#0840112200000001
(1788787683.210544) can0 03FF1000#0840112200000001
(1788787683.315546) can0 03FF1000#0840112200000001
(1788787683.420552) can0 03FF1000#0840112200000001
(1788787683.525551) can0 03FF1000#0840112200000001
(1788787683.630575) can0 03FF1000#0840112200000001
(1788787683.735559) can0 03FF1000#0840112200000001
(1788787683.840539) can0 03FF1000#0840112200000001
(1788787683.945540) can0 03FF1000#0840112200000001
(1788787684.050572) can0 03FF1000#0840112200000001
(1788787684.155564) can0 03FF1000#0840112200000001
(1788787684.260563) can0 03FF1000#0840112200000001
(1788787684.365553) can0 03FF1000#0840112200000001
(1788787684.470561) can0 03FF1000#0840112200000001
(1788787684.575577) can0 03FF1000#0840112200000001
(1788787684.680593) can0 03FF1000#0840112200000001
(1788787684.785573) can0 03FF1000#0840112200000001
(1788787684.890573) can0 03FF1000#0840112200000001
(1788787684.995577) can0 03FF1000#0840112200000001
(1788787685.100594) can0 03FF1000#0840112200000001
(1788787685.205596) can0 03FF1000#0840112200000001
(1788787685.310643) can0 03FF1000#0840112200000001
(1788787685.415589) can0 03FF1000#0840112200000001
(1788787685.520584) can0 03FF1000#0840112200000001
(1788787685.625600) can0 03FF1000#0840112200000001
(1788787685.730608) can0 03FF1000#0840112200000001
(1788787685.835648) can0 03FF1000#0840112200000001
(1788787685.940596) can0 03FF1000#0840112200000001
(1788787686.045599) can0 03FF1000#0840112200000001
(1788787686.150627) can0 03FF1000#0840112200000001
(1788787686.255633) can0 03FF1000#0840112200000001
(1788787686.360620) can0 03FF1000#0840112200000001
(1788787686.465598) can0 03FF1000#0840112200000001
(1788787686.570615) can0 03FF1000#0840112200000001
(1788787686.675631) can0 03FF1000#0840112200000001
(1788787686.780626) can0 03FF1000#0840112200000001
(1788787686.885636) can0 03FF1000#0840112200000001
(1788787686.990615) can0 03FF1000#0840112200000001
(1788787687.095619) can0 03FF1000#0840112200000001
(1788787687.200645) can0 03FF1000#0840112200000001
(1788787687.305643) can0 03FF1000#0840112200000001
(1788787687.410651) can0 03FF1000#0840112200000001
(1788787687.515643) can0 03FF1000#0840112200000001
(1788787687.620648) can0 03FF1000#0840112200000001
(1788787687.654648) can0 04FF3400#0000057100000000
(1788787687.725655) can0 03FF1000#0840112200000001
(1788787687.830661) can0 03FF1000#0840112200000001
(1788787687.935668) can0 03FF1000#0840112200000001
(1788787688.040670) can0 03FF1000#0840112200000001
(1788787688.145698) can0 03FF1000#0840112200000001
(1788787688.250683) can0 03FF1000#0840112200000001
(1788787688.355687) can0 03FF1000#0840112200000001
(1788787688.460697) can0 03FF1000#0840112200000001
(1788787688.565697) can0 03FF1000#0840112200000001
(1788787688.670703) can0 03FF1000#0840112200000001
(1788787688.775711) can0 03FF1000#0840112200000001
(1788787688.880718) can0 03FF1000#0840112200000001
(1788787688.985724) can0 03FF1000#0840112200000001
(1788787689.090727) can0 03FF1000#0840112200000001
(1788787689.195731) can0 03FF1000#0840112200000001
(1788787689.300737) can0 03FF1000#0840112200000001
(1788787689.405743) can0 03FF1000#0840112200000001
(1788787689.510750) can0 03FF1000#0840112200000001
(1788787689.558751) can0 02181606#0100190001030200
(1788787689.620753) can0 03FF1000#0840112200000001
(1788787689.630753) can0 03FF1001#0000000000000000
(1788787689.641754) can0 03FF1603#0000D10E00000000
(1788787689.651757) can0 03FF1605#0100000000000000
(1788787689.653824) can0 05FF4610#0000D157FFFFFFDA
(1788787689.662754) can0 03121606#0100000000000000
(1788787689.668755) can0 02181606#0100190001030200
(1788787689.725763) can0 03FF1000#0840112200000001
(1788787689.735762) can0 03FF1001#0000000000000000
(1788787689.746762) can0 03FF1603#0000D10E00000000
(1788787689.756763) can0 03FF1605#0100000000000000
(1788787689.767761) can0 03121606#0000000000000000
(1788787689.793855) can0 05FF4001#0000000000000000
(1788787689.795854) can0 05FF4000#0000000000000000
(1788787689.830768) can0 03FF1000#0840112200000001
(1788787689.840767) can0 03FF1001#0000000000000000
(1788787689.851768) can0 03FF1603#0000D10E00000000
(1788787689.861767) can0 03FF1605#0100000000000000
(1788787689.872766) can0 03FF1600#142B000104001319
(1788787689.875824) can0 05FF4602#1210181018101710
(1788787689.882767) can0 03FF1601#6E50000000000000
(1788787689.885836) can0 05FF4603#18101B101D101D10
(1788787689.893767) can0 03FF1602#00000500000015E0
(1788787689.895831) can0 05FF4604#1C101C101E101F10
(1788787689.903768) can0 03FF1604#0000000000000000
(1788787689.905860) can0 05FF4605#1C10000000000000
(1788787689.927878) can0 05FF4610#0000D157FFFFFFDA
(1788787689.935774) can0 03FF1000#0840112200000001
(1788787689.936772) can0 05FF4606#1D1D1C
(1788787689.945770) can0 03FF1001#0000000000000000
(1788787689.946770) can0 05FF4607#1D1B1C
(1788787689.956771) can0 03FF1603#0000D10E00000000
(1788787689.956825) can0 05FF4608#0019007C
(1788787689.966772) can0 03FF1605#0100000000000000
(1788787689.967771) can0 05FF4609#010003D403CA00
(1788787690.040778) can0 03FF1000#0840112200000001
(1788787690.050778) can0 03FF1001#0000000000000000
(1788787690.061777) can0 03FF1603#0000D10E00000000
(1788787690.071777) can0 03FF1605#0100000000000000
(1788787690.116781) can0 05FF4400#00000000
(1788787690.145783) can0 03FF1000#0840112200000001
(1788787690.155784) can0 03FF1001#0000000000000000
(1788787690.166782) can0 03FF1603#0000D10E00000000
(1788787690.176783) can0 03FF1605#0100000000000000
(1788787690.193854) can0 05FF4600#0D0300900303
(1788787690.215927) can0 05FF4610#0000D155FFFFFFBF
(1788787690.243859) can0 05FF4601#007300000000
(1788787690.250790) can0 03FF1000#0840112200000001
(1788787690.260790) can0 03FF1001#0000000000000000
(1788787690.271788) can0 03FF1603#0000D10E00000000
(1788787690.281788) can0 03FF1605#0100000000000000
(1788787690.355796) can0 03FF1000#0840112200000001
(1788787690.365796) can0 03FF1001#0000000000000000
(1788787690.376793) can0 03FF1603#0000D10E00000000
(1788787690.386794) can0 03FF1605#0100000000000000
(1788787690.460801) can0 03FF1000#0840112200000001
(1788787690.470803) can0 03FF1001#0000000000000000
(1788787690.476964) can0 05FF4610#0000D155FFFFFFBF
(1788787690.481800) can0 03FF1603#0000D10E00000000
(1788787690.491800) can0 03FF1605#0100000000000000
(1788787690.565807) can0 03FF1000#0840112200000001
(1788787690.575806) can0 03FF1001#0000000000000000
(1788787690.586806) can0 03FF1603#0000D10E00000000
(1788787690.596805) can0 03FF1605#0100000000000000
(1788787690.670811) can0 03FF1000#0840112200000001
(1788787690.680813) can0 03FF1001#0000000000000000
(1788787690.691811) can0 03FF1603#0000D10E00000000
(1788787690.691865) can0 02FF2602#84FB808D3389FD03
(1788787690.692810) can0 02294609#0000000000000000
(1788787690.693810) can0 05124609#030003D403CA00
(1788787690.701814) can0 03FF1605#0100000000000000
(1788787690.749974) can0 05FF4610#0000D155FFFFFFBF
(1788787690.775817) can0 03FF1000#0840112200000001
(1788787690.785816) can0 03FF1001#0000000000000000
(1788787690.796816) can0 03FF1603#0000D10E00000000
(1788787690.806817) can0 03FF1605#0100000000000000
(1788787690.835019) can0 05FF4001#0000000000000000
(1788787690.837018) can0 05FF4000#0000000000000000
(1788787690.859822) can0 03FF1600#142B000104001319
(1788787690.869821) can0 03FF1601#6E50000000000000
(1788787690.880821) can0 03FF1602#000005000000157C
(1788787690.890821) can0 03FF1604#0000000000000000
(1788787690.901822) can0 03FF1000#0840112200000001
(1788787690.911822) can0 03FF1001#0000000000000000
(1788787690.916984) can0 05FF4602#1210181017101710
(1788787690.922822) can0 03FF1603#0000D10E00000000
(1788787690.926996) can0 05FF4603#18101B101D101D10
(1788787690.932823) can0 03FF1605#0100000000000000
(1788787690.936976) can0 05FF4604#1C101C101E101F10
(1788787690.947011) can0 05FF4605#1B10000000000000
(1788787690.976826) can0 05FF4606#1D1D1C
(1788787690.985830) can0 03FF1000#0840112200000001
(1788787690.986829) can0 05FF4607#1D1C1C
(1788787690.995828) can0 03FF1001#0000000000000000
(1788787690.996861) can0 05FF4608#0019007C
(1788787691.006827) can0 03FF1603#0000D10E00000000
(1788787691.006964) can0 05FF4609#030003D403CA00
(1788787691.011012) can0 05FF4610#0000D155FFFFFFBF
(1788787691.016827) can0 03FF1605#0100000000000000
(1788787691.090834) can0 03FF1000#0840112200000001
(1788787691.100835) can0 03FF1001#0000000000000000
(1788787691.111088) can0 03FF1603#0000D10E00000000
(1788787691.121834) can0 03FF1605#0100000000000000
(1788787691.195840) can0 03FF1000#0840112200000001
(1788787691.200875) can0 02FF2602#703B14BD0E3F323F
(1788787691.201841) can0 02294609#0000000000000000
(1788787691.202840) can0 05124609#030003D403CA00
(1788787691.205838) can0 03FF1001#0000000000000000
(1788787691.216838) can0 03FF1603#0000D10E00000000
(1788787691.226839) can0 03FF1605#0100000000000000
(1788787691.299846) can0 05FF4610#0000D158FFFFFFCA
(1788787691.300846) can0 03FF1000#0840112200000001
(1788787691.309972) can0 02203606#0101000100010000
(1788787691.310843) can0 03FF1001#0000000000000000
(1788787691.321852) can0 03FF1603#0000D10E00000000
(1788787691.324843) can0 04FF3604#0004000300000100
(1788787691.331844) can0 03FF1605#0100000000000000
(1788787691.354846) can0 04FF3604#0004000300000100
(1788787691.357848) can0 02181606#0000000000030200
(1788787691.363846) can0 03FF1605#0000000000000000
(1788787691.365846) can0 13B76400#01
(1788787691.383998) can0 02203606#0200000000000000
(1788787691.384847) can0 04FF3604#0004000300000100
(1788787691.410087) can0 02181608#0500000001000000
(1788787691.440106) can0 02181609#0000000000000000
(1788787691.470854) can0 02488600#0000000000000000
(1788787691.519866) can0 02294500#
(1788787691.520860) can0 05124500#0500
(1788787691.529998) can0 1FF8B028#0000000000000000
(1788787691.540859) can0 03FF1000#0840112200000001
(1788787691.550859) can0 02FF2605#0000060907030809
(1788787691.550918) can0 03FF1605#0000000000000000
(1788787691.561857) can0 03121606#0100000000000000
(1788787691.580858) can0 02FF2604#0000000000000000
(1788787691.610860) can0 02FF2704#0200000000000000
(1788787691.634861) can0 03FF1000#0840112200000001
(1788787691.640059) can0 13B76400#01
(1788787691.640863) can0 0260B606#0100000000000000
(1788787691.670864) can0 02203607#0000000300000000
(1788787691.700867) can0 02F82400#CB03000000000000
(1788787691.730870) can0 02FF2602#BC9B580D3D991B83
(1788787691.739869) can0 03FF1000#0840112200000001
(1788787691.760870) can0 02181606#0100190001030200
(1788787691.790873) can0 02203606#0100000100010000
(1788787691.804870) can0 04FF3604#0003000300000000
(1788787691.820874) can0 02181608#0500000001000000
(1788787691.834875) can0 04FF3604#0004000300000000
(1788787691.849876) can0 03FF1000#0840112200000001
(1788787691.850875) can0 02181609#0000000000000000
(1788787691.860117) can0 03FF1001#0000000000000000
(1788787691.864873) can0 04FF3604#0003000300C80000
(1788787691.870874) can0 03FF1603#0000D10E00000000
(1788787691.880875) can0 02488600#0000000000000000
(1788787691.881874) can0 03FF1605#0100000000000000
(1788787691.883874) can0 05FF4610#0000D158FFFFFFCA
(1788787691.891875) can0 03121606#0100000000000000
(1788787691.894875) can0 04FF3604#0003000300C80000
(1788787691.902095) can0 03FF1600#142B000104001319
(1788787691.911060) can0 02294501#
(1788787691.911906) can0 05124501#0103
(1788787691.912875) can0 03FF1601#6E50000000000000
(1788787691.920877) can0 13B76400#01
(1788787691.923119) can0 03FF1602#000005000000157C
(1788787691.924876) can0 04FF3604#0003000300C80000
(1788787691.933876) can0 03FF1604#0000000000000000
(1788787691.940879) can0 02FF2605#0000060907030801
(1788787691.954880) can0 04FF3604#0003000300C80000
(1788787691.954986) can0 03FF1000#0840112200000001
(1788787691.965133) can0 03FF1001#0000000000000000
(1788787691.975879) can0 03FF1603#0000D10E00000000
(1788787691.984879) can0 04FF3604#0004000300C80000
(1788787691.986129) can0 03FF1605#0100000000000000
(1788787692.011881) can0 05FF4001#0000000000000000
(1788787692.013881) can0 05FF4000#0000000000000000
(1788787692.014881) can0 04FF3604#0004000300C80000
(1788787692.025882) can0 02FF2604#0000000000000000
(1788787692.044889) can0 04FF3604#0003000300C80000
(1788787692.050887) can0 02FF2704#0200000000000000
(1788787692.059883) can0 03FF1000#0840112200000001
(1788787692.070134) can0 03FF1001#0000000000000000
(1788787692.074884) can0 04FF3604#0004000300C80000
(1788787692.080885) can0 03FF1603#0000D10E00000000
(1788787692.091129) can0 03FF1605#0100000000000000
(1788787692.093135) can0 05FF4602#1210181018101710
(1788787692.103129) can0 05FF4603#18101B101D101D10
(1788787692.104886) can0 04FF3604#0002000300C80000
(1788787692.107886) can0 0260B606#0100000000000000
(1788787692.113887) can0 05FF4604#1C101C101F101F10
(1788787692.123888) can0 05FF4605#1C10000000000000
(1788787692.131888) can0 02203607#0000000300000000
(1788787692.134887) can0 04FF3604#0005000300C80000
(1788787692.144892) can0 05FF4610#0000D158FFFFFFCA
(1788787692.152973) can0 05FF4606#1D1D1C
(1788787692.154889) can0 04FF3602#0000000000000000
(1788787692.162132) can0 02181606#0100190001030200
(1788787692.162954) can0 05FF4607#1D1B1C
(1788787692.164889) can0 04FF3604#0003000300C80000
(1788787692.165106) can0 03FF1000#0840112200000001
(1788787692.175133) can0 03FF1001#0000000000000000
(1788787692.185891) can0 03FF1603#0000D10E00000000
(1788787692.192890) can0 02203606#0101000100010000
(1788787692.194891) can0 04FF3604#0005000300C80000
(1788787692.196122) can0 03FF1605#0100000000000000
(1788787692.200037) can0 05FF4608#0019007C
(1788787692.202896) can0 13B76400#01
(1788787692.211894) can0 05FF4609#030003D403CA00
(1788787692.223009) can0 02181608#0500000001000000
(1788787692.224892) can0 04FF3604#0004000300C80100
(1788787692.252151) can0 02181609#0000000000000000
(1788787692.254896) can0 04FF3604#0005000300C80100
(1788787692.269895) can0 03FF1000#0840112200000001
(1788787692.280138) can0 03FF1001#0000000000000000
(1788787692.281091) can0 02488600#0000000000000000
(1788787692.284895) can0 04FF3604#0004000300C80100
(1788787692.290896) can0 03FF1603#0000D10E00000000
(1788787692.301135) can0 03FF1605#0100000000000000
(1788787692.311898) can0 03121606#0000000000000000
(1788787692.314897) can0 04FF3604#0005000300C80100
(1788787692.344899) can0 04FF3604#0006000300C80100
(1788787692.353900) can0 02191500#
(1788787692.361085) can0 05FF4400#00000001
(1788787692.374901) can0 04FF3604#0006000300C80100
(1788787692.374978) can0 03FF1000#0840112200000001
(1788787692.382900) can0 02FF2605#0000060907030802
(1788787692.385120) can0 03FF1001#0000000000000000
(1788787692.395902) can0 03FF1500#000000C300000000
(1788787692.404902) can0 04FF3604#0006000300C80100
(1788787692.406133) can0 03FF1603#0000D10E00000000
(1788787692.411157) can0 05FF4600#0D0300900303
(1788787692.412902) can0 02FF2604#0000000000000000
(1788787692.416902) can0 03FF1605#0100000000000000
(1788787692.433904) can0 05FF4610#0000D156FFFFFFC4
(1788787692.434903) can0 04FF3604#0005000300C80100
(1788787692.442907) can0 02FF2704#0200000000000000
(1788787692.461909) can0 05FF4601#007300000000
(1788787692.464905) can0 04FF3604#0006000300C80100
(1788787692.479906) can0 03FF1000#0840112200000001
(1788787692.490150) can0 03FF1001#0000000000000000
(1788787692.494907) can0 04FF3604#0004000300C80100
(1788787692.497907) can0 0260B606#0100000000000000
(1788787692.500907) can0 03FF1603#0000D10E00000000
(1788787692.503907) can0 13B76400#01
(1788787692.511147) can0 03FF1605#0100000000000000
(1788787692.521909) can0 02203607#0000000300000000
(1788787692.524908) can0 04FF3604#0006000300C80100
(1788787692.554913) can0 04FF3604#0006000300C80100
(1788787692.584918) can0 04FF3604#0005000300C80100
(1788787692.584981) can0 03FF1000#0840112200000001
(1788787692.595156) can0 03FF1001#0000000000000000
(1788787692.605913) can0 03FF1603#0000D10E00000000
(1788787692.614914) can0 04FF3604#0004000300C80100
(1788787692.616144) can0 03FF1605#0100000000000000
(1788787692.644918) can0 04FF3604#0006000300C80100
(1788787692.654919) can0 04FF3602#0000000000000000
(1788787692.674918) can0 04FF3604#0004000300C80100
(1788787692.689918) can0 03FF1000#0840112200000001
(1788787692.694918) can0 05FF4610#0000D156FFFFFFC4
(1788787692.700149) can0 03FF1001#0000000000000000
(1788787692.704922) can0 04FF3604#0006000300C80100
(1788787692.710921) can0 03FF1603#0000D10E00000000
(1788787692.721127) can0 03FF1605#0100000000000000
(1788787692.734920) can0 04FF3604#0004000300C80100
(1788787692.764925) can0 04FF3604#0005000300C80100
(1788787692.782925) can0 13B76400#01
(1788787692.794924) can0 04FF3604#0005000300C80100
(1788787692.794989) can0 03FF1000#0840112200000001
(1788787692.805924) can0 03FF1001#0000000000000000
(1788787692.815927) can0 03FF1603#0000D10E00000000
(1788787692.824927) can0 04FF3604#0004000300C80100
(1788787692.826156) can0 03FF1605#0100000000000000
(1788787692.854929) can0 04FF3604#0005000300C80100
(1788787692.872930) can0 02181606#0100190001030200
(1788787692.878928) can0 03FF1600#142B000104001319
(1788787692.884928) can0 04FF3604#0003000300C80100
(1788787692.889131) can0 03FF1601#6E50000000000000
(1788787692.899929) can0 03FF1602#000005000000157C
(1788787692.903928) can0 02203606#0101000100010000
(1788787692.910148) can0 03FF1604#0000000000000000
(1788787692.914929) can0 04FF3604#0003000300C80100
(1788787692.920929) can0 03FF1000#0840112200000001
(1788787692.931162) can0 03FF1001#0000000000000000
(1788787692.933930) can0 02181608#0500000001000000
(1788787692.941933) can0 03FF1603#0000D10E00000000
(1788787692.944934) can0 04FF3604#0006000300C80100
(1788787692.952141) can0 03FF1605#0100000000000000
(1788787692.962933) can0 03121606#0000000000000000
(1788787692.963932) can0 02181609#0000000000000000
(1788787692.968932) can0 05FF4610#0000D156FFFFFFC4
(1788787692.974933) can0 04FF3604#0006000300C80100
(1788787692.992934) can0 02488600#0000000000000000
(1788787693.004935) can0 04FF3604#0003000300C80100
(1788787693.005002) can0 03FF1000#0840112200000001
(1788787693.015155) can0 03FF1001#0000000000000000
(1788787693.022947) can0 02191501#
(1788787693.025935) can0 03FF1603#0000D10E00000000
(1788787693.034936) can0 04FF3604#0004000300C80100
(1788787693.036155) can0 03FF1605#0100000000000000
(1788787693.046939) can0 03FF1501#0000004A00000000
(1788787693.053941) can0 05FF4001#0000000000000000
(1788787693.055937) can0 05FF4000#0000000000000000
(1788787693.064944) can0 04FF3604#0008000300C80100
(1788787693.088965) can0 13B76400#01
(1788787693.094944) can0 04FF3604#0004000300C80100
(1788787693.109943) can0 03FF1000#0840112200000001
(1788787693.120161) can0 03FF1001#0000000000000000
(1788787693.124941) can0 04FF3604#0006000300C80100
(1788787693.130941) can0 03FF1603#0000D10E00000000
(1788787693.135941) can0 05FF4602#1210181017101710
(1788787693.141154) can0 03FF1605#0100000000000000
(1788787693.145945) can0 05FF4603#18101B101D101D10
(1788787693.154943) can0 04FF3602#0000000000000000
(1788787693.154998) can0 04FF3604#0007000300C80100
(1788787693.155942) can0 05FF4604#1C101C101E101F10
(1788787693.165944) can0 05FF4605#1C10000000000000
(1788787693.184944) can0 04FF3604#0006000300C80100
(1788787693.214949) can0 04FF3604#0006000300C80100
(1788787693.214999) can0 03FF1000#0840112200000001
(1788787693.223178) can0 05FF4606#1D1D1C
(1788787693.225166) can0 03FF1001#0000000000000000
(1788787693.233179) can0 05FF4607#1D1B1C
(1788787693.235947) can0 03FF1603#0000D10E00000000
(1788787693.243950) can0 05FF4608#0019007C
(1788787693.244950) can0 04FF3604#0005000300C80100
(1788787693.246158) can0 03FF1605#0100000000000000
(1788787693.253951) can0 05FF4609#030003D403CA00
(1788787693.257948) can0 05FF4610#0000D151FFFFFF9E
(1788787693.274949) can0 04FF3604#0003000300C80100
(1788787693.304951) can0 04FF3604#0003000300C80100
(1788787693.319952) can0 03FF1000#0840112200000001
(1788787693.330149) can0 03FF1001#0000000000000000
(1788787693.334952) can0 04FF3604#0005000400C80100
(1788787693.340955) can0 03FF1603#0000D10E00000000
(1788787693.351175) can0 03FF1605#0100000000000000
(1788787693.362954) can0 13B76400#01
(1788787693.364953) can0 04FF3604#0004000300C80100
(1788787693.381989) can0 02FF2605#0000060907030803
(1788787693.394956) can0 04FF3604#0006000300C80100
(1788787693.412049) can0 02FF2604#0000000000000000
(1788787693.424958) can0 04FF3604#0006000300C80100
(1788787693.425013) can0 03FF1000#0840112200000001
(1788787693.435155) can0 03FF1001#0000000000000000
(1788787693.442099) can0 02FF2704#0200000000000000
(1788787693.445961) can0 03FF1603#0000D10E00000000
(1788787693.454960) can0 04FF3604#0005000300C80100
(1788787693.456178) can0 03FF1605#0100000000000000
(1788787693.472064) can0 0260B606#0100000000000000
(1788787693.484961) can0 04FF3604#0004000300C80100
(1788787693.502135) can0 02203607#0000000300000000
(1788787693.514961) can0 04FF3604#0006000300C80100
(1788787693.518962) can0 05FF4610#0000D151FFFFFF9E
(1788787693.529963) can0 03FF1000#0840112200000001
(1788787693.540174) can0 03FF1001#0000000000000000
(1788787693.544966) can0 04FF3604#0003000300C80100
(1788787693.550965) can0 03FF1603#0000D10E00000000
(1788787693.561172) can0 03FF1605#0100000000000000
(1788787693.574971) can0 04FF3604#0005000300C80100
(1788787693.604969) can0 04FF3604#0005000300C80100
(1788787693.632969) can0 02181606#0100190001030200
(1788787693.634968) can0 04FF3604#0006000300C80100
(1788787693.635024) can0 03FF1000#0840112200000001
(1788787693.642064) can0 13B76400#01
(1788787693.645168) can0 03FF1001#0000000000000000
(1788787693.654969) can0 04FF3602#0000000000000000
(1788787693.655969) can0 03FF1603#0000D10E00000000
(1788787693.662970) can0 02203606#0101000100010000
(1788787693.664970) can0 04FF3604#0005000300C80100
(1788787693.666178) can0 03FF1605#0100000000000000
(1788787693.692971) can0 02181608#0500000001000000
(1788787693.694971) can0 04FF3604#0006000300C80100
(1788787693.722977) can0 02181609#0000000000000000
(1788787693.724976) can0 04FF3604#0004000300C80100
(1788787693.739977) can0 03FF1000#0840112200000001
(1788787693.750161) can0 03FF1001#0000000000000000
(1788787693.752977) can0 02488600#0000000000000000
(1788787693.754975) can0 04FF3604#0003000300C80100
(1788787693.760975) can0 03FF1603#0000D10E00000000
(1788787693.771149) can0 03FF1605#0100000000000000
(1788787693.781976) can0 03121606#0000000000000000
(1788787693.782169) can0 02213500#
(1788787693.784976) can0 04FF3604#0003000300C80100
(1788787693.789976) can0 04F93500#000000EB00000000
(1788787693.791977) can0 05FF4610#0000D151FFFFFF9E
(1788787693.814981) can0 04FF3604#0003000300C80100
(1788787693.844982) can0 04FF3604#0002000300C80100
(1788787693.845049) can0 03FF1000#0840112200000001
(1788787693.855166) can0 03FF1001#0000000000000000
(1788787693.865982) can0 03FF1603#0000D10E00000000
(1788787693.874981) can0 04FF3604#0007000300C80100
(1788787693.876177) can0 03FF1605#0100000000000000
(1788787693.886981) can0 03FF1600#142B000104001319
(1788787693.897156) can0 03FF1601#6E50000000000000
(1788787693.904983) can0 04FF3604#0004000300C80100
(1788787693.907983) can0 03FF1602#000005000000157C
(1788787693.918191) can0 03FF1604#0000000000000000
(1788787693.922983) can0 13B76400#01
(1788787693.934984) can0 04FF3604#0006000300C80100
(1788787693.949988) can0 03FF1000#0840112200000001
(1788787693.960162) can0 03FF1001#0000000000000000
(1788787693.964986) can0 04FF3604#0005000300C80100
(1788787693.970987) can0 03FF1603#0000D10E00000000
(1788787693.981184) can0 03FF1605#0100000000000000
(1788787693.994988) can0 04FF3604#0003000300C80100
(1788787694.024990) can0 04FF3604#0005000400C80100
(1788787694.053994) can0 05FF4610#0000D151FFFFFF9E
(1788787694.054994) can0 04FF3604#0003000300C80100
(1788787694.055047) can0 03FF1000#0840112200000001
(1788787694.065172) can0 03FF1001#0000000000000000
(1788787694.075998) can0 03FF1603#0000D10E00000000
(1788787694.084996) can0 04FF3604#0002000300C80100
(1788787694.086178) can0 03FF1605#0100000000000000
(1788787694.095993) can0 05FF4001#0000000000000000
(1788787694.097993) can0 05FF4000#0000000000000000
(1788787694.114994) can0 04FF3604#0004000300C80100
(1788787694.144999) can0 04FF3604#0005000300C80100
(1788787694.154999) can0 04FF3602#0000000000000000
(1788787694.159996) can0 03FF1000#0840112200000001
(1788787694.170194) can0 03FF1001#0000000000000000
(1788787694.174997) can0 04FF3604#0005000300C80100
(1788787694.177997) can0 05FF4602#1210171017101710
(1788787694.180997) can0 03FF1603#0000D10E00000000
(1788787694.187998) can0 05FF4603#18101A101D101D10
(1788787694.191183) can0 03FF1605#0100000000000000
(1788787694.202999) can0 13B76400#01
(1788787694.205003) can0 04FF3604#0005000300C80100
(1788787694.226003) can0 05FF4604#1C101C101E101F10
(1788787694.235001) can0 04FF3604#0004000300C80100
(1788787694.236000) can0 05FF4605#1B10000000000000
(1788787694.265005) can0 04FF3604#0005000300C80100
(1788787694.265055) can0 03FF1000#0840112200000001
(1788787694.266002) can0 05FF4606#1D1D1C
(1788787694.275194) can0 03FF1001#0000000000000000
(1788787694.276002) can0 05FF4607#1D1C1C
(1788787694.286004) can0 03FF1603#0000D10E00000000
(1788787694.286127) can0 05FF4608#0019007C
(1788787694.295004) can0 04FF3604#0004000300C80100
(1788787694.296003) can0 05FF4609#030003D403CA00
(1788787694.296278) can0 03FF1605#0100000000000000
(1788787694.325006) can0 04FF3604#0006000300C80100
(1788787694.343009) can0 05FF4610#0000D154FFFFFFA3
(1788787694.355009) can0 04FF3604#0004000400C80100
(1788787694.370009) can0 03FF1000#0840112200000001
(1788787694.380194) can0 03FF1001#0000000000000000
(1788787694.385008) can0 04FF3604#0005000300C80100
(1788787694.391010) can0 03FF1603#0000D10E00000000
(1788787694.393043) can0 02181606#0100190001030200
(1788787694.401184) can0 03FF1605#0100000000000000
(1788787694.415010) can0 04FF3604#0005000300C80100
(1788787694.423034) can0 02203606#0101000100010000
(1788787694.445014) can0 04FF3604#0004000300C80100
(1788787694.453131) can0 02181608#0500000001000000
(1788787694.475014) can0 04FF3604#0006000300C80100
(1788787694.475068) can0 03FF1000#0840112200000001
(1788787694.483014) can0 13B76400#01
(1788787694.484013) can0 02181609#0000000000000000
(1788787694.485171) can0 03FF1001#0000000000000000
(1788787694.496015) can0 03FF1603#0000D10E00000000
(1788787694.505015) can0 04FF3604#0005000300C80100
(1788787694.506188) can0 03FF1605#0100000000000000
(1788787694.513172) can0 02488600#0000000000000000
(1788787694.517015) can0 03121606#0000000000000000
(1788787694.535017) can0 04FF3604#0005000300C80100
(1788787694.543019) can0 02213501#
(1788787694.550021) can0 04F93501#0000000400000000
(1788787694.565018) can0 04FF3604#0003000300C80100
(1788787694.574019) can0 02FF2605#0000060907030804
(1788787694.580025) can0 03FF1000#0840112200000001
(1788787694.590191) can0 03FF1001#0000000000000000
(1788787694.595020) can0 04FF3604#0004000300C80100
(1788787694.601020) can0 03FF1603#0000D10E00000000
(1788787694.603263) can0 02FF2604#0000000000000000
(1788787694.604020) can0 05FF4610#0000D154FFFFFFA3
(1788787694.611251) can0 03FF1605#0100000000000000
(1788787694.625022) can0 04FF3604#0003000300C80100
(1788787694.634022) can0 02FF2704#0200000000000000
(1788787694.655027) can0 04FF3602#0000000000000000
(1788787694.655076) can0 04FF3604#0005000300C80100
(1788787694.664025) can0 0260B606#0100000000000000
(1788787694.685025) can0 04FF3604#0004000300C80100
(1788787694.685079) can0 03FF1000#0840112200000001
(1788787694.694026) can0 02203607#0000000300000000
(1788787694.695194) can0 03FF1001#0000000000000000
(1788787694.706029) can0 03FF1603#0000D10E00000000
(1788787694.715029) can0 04FF3604#0005000300C80100
(1788787694.716177) can0 03FF1605#0100000000000000
(1788787694.745030) can0 04FF3604#0005000300C80100
(1788787694.763113) can0 13B76400#01
(1788787694.775034) can0 04FF3604#0004000300C80100
(1788787694.790031) can0 03FF1000#0840112200000001
(1788787694.800204) can0 03FF1001#0000000000000000
(1788787694.805031) can0 04FF3604#0003000300C80100
(1788787694.811035) can0 03FF1603#0000D10E00000000
(1788787694.821173) can0 03FF1605#0100000000000000
(1788787694.835033) can0 04FF3604#0005000300C80100
(1788787694.865038) can0 04FF3604#0005000300C80100
(1788787694.877038) can0 05FF4610#0000D154FFFFFFA3
(1788787694.895036) can0 04FF3604#0003000300C80100
(1788787694.895090) can0 03FF1000#0840112200000001
(1788787694.905198) can0 03FF1001#0000000000000000
(1788787694.916036) can0 03FF1600#142B000104001319
(1788787694.925037) can0 04FF3604#0008000300C80100
(1788787694.926188) can0 03FF1601#6E50000000000000
(1788787694.937038) can0 03FF1602#000005000000157C
(1788787694.947192) can0 03FF1603#0000D10E00000000
(1788787694.955043) can0 04FF3604#0004000300C80100
(1788787694.958039) can0 03FF1604#0000000000000000
(1788787694.968173) can0 03FF1605#0100000000000000
(1788787694.985041) can0 04FF3604#0004000300C80100
(1788787695.000042) can0 03FF1000#0840112200000001
(1788787695.010181) can0 03FF1001#0000000000000000
(1788787695.015042) can0 04FF3604#0006000300C80100
(1788787695.021043) can0 03FF1603#0000D10E00000000
(1788787695.031206) can0 03FF1605#0100000000000000
(1788787695.045046) can0 04FF3604#0006000300C80100
(1788787695.045109) can0 13B76400#01
(1788787695.075046) can0 04FF3604#0005000300C80100
(1788787695.105053) can0 04FF3604#0004000300C80100
(1788787695.105101) can0 03FF1000#0840112200000001
(1788787695.115195) can0 03FF1001#0000000000000000
(1788787695.126048) can0 03FF1603#0000D10E00000000
(1788787695.135049) can0 04FF3604#0005000300C80100
(1788787695.136199) can0 03FF1605#0100000000000000
(1788787695.138095) can0 05FF4001#0000000000000000
(1788787695.139072) can0 05FF4610#0000D154FFFFFFA3
(1788787695.141052) can0 05FF4000#0000000000000000
(1788787695.155052) can0 04FF3602#0000000000000000
(1788787695.156049) can0 02181606#0100190001030200
(1788787695.165051) can0 04FF3604#0005000400C80100
(1788787695.184052) can0 02203606#0101000100010000
(1788787695.195051) can0 04FF3604#0004000300C80100
(1788787695.210057) can0 03FF1000#0840112200000001
(1788787695.214055) can0 02181608#0500000001000000
(1788787695.220203) can0 03FF1001#0000000000000000
(1788787695.225053) can0 04FF3604#0005000300C80100
(1788787695.231054) can0 03FF1603#0000D10E00000000
(1788787695.241196) can0 03FF1605#0100000000000000
(1788787695.244057) can0 02181609#0000000000000000
(1788787695.247092) can0 05FF4602#1210171017101710
(1788787695.252057) can0 03121606#0000000000000000
(1788787695.255055) can0 04FF3604#0004000300C80100
(1788787695.257078) can0 05FF4603#18101B101D101D10
(1788787695.267114) can0 05FF4604#1C101C101E101F10
(1788787695.274057) can0 02488600#0000000000000000
(1788787695.277125) can0 05FF4605#1A10000000000000
(1788787695.285057) can0 04FF3604#0003000300C80100
(1788787695.304058) can0 02294502#
(1788787695.305081) can0 05124502#5250313353333541
(1788787695.307058) can0 05FF4606#1D1D1C
(1788787695.315059) can0 04FF3604#0007000300C80100
(1788787695.315124) can0 03FF1000#0840112200000001
(1788787695.317058) can0 05FF4607#1D1C1C
(1788787695.325210) can0 03FF1001#0000000000000000
(1788787695.326059) can0 13B76400#01
(1788787695.327059) can0 05FF4608#0019007C
(1788787695.336060) can0 03FF1603#0000D10E00000000
(1788787695.337106) can0 05FF4609#030003D403CA00
(1788787695.345063) can0 04FF3604#0005000300C80100
(1788787695.346178) can0 03FF1605#0100000000000000
(1788787695.375063) can0 04FF3604#0002000300C80100
(1788787695.404064) can0 02FF2605#0000060907030805
(1788787695.405063) can0 04FF3604#0005000400C80100
(1788787695.420064) can0 03FF1000#0840112200000001
(1788787695.428176) can0 05FF4610#0000D153FFFFFFA3
(1788787695.430203) can0 03FF1001#0000000000000000
(1788787695.434319) can0 02FF2604#0000000000000000
(1788787695.435064) can0 04FF3604#0004000300C80100
(1788787695.441068) can0 03FF1603#0000D10E00000000
(1788787695.451208) can0 03FF1605#0100000000000000
(1788787695.464068) can0 02FF2704#0200000000000000
(1788787695.465066) can0 04FF3604#0005000300C80100
(1788787695.494068) can0 0260B606#0100000000000000
(1788787695.495068) can0 04FF3604#0006000300C80100
(1788787695.524070) can0 02203607#0000000300000000
(1788787695.525069) can0 04FF3604#0005000300C80100
(1788787695.525235) can0 03FF1000#0840112200000001
(1788787695.535186) can0 03FF1001#0000000000000000
(1788787695.546073) can0 03FF1603#0000D10E00000000
(1788787695.555075) can0 04FF3604#0003000300C80100
(1788787695.556205) can0 03FF1605#0100000000000000
(1788787695.585074) can0 04FF3604#0006000300C80100
(1788787695.604079) can0 13B76400#01
(1788787695.615078) can0 04FF3604#0005000300C80100
(1788787695.630078) can0 03FF1000#0840112200000001
(1788787695.640250) can0 03FF1001#0000000000000000
(1788787695.645078) can0 04FF3604#0005000300C80100
(1788787695.651079) can0 03FF1603#0000D10E00000000
(1788787695.655077) can0 04FF3602#0000000000000000
(1788787695.661204) can0 03FF1605#0100000000000000
(1788787695.675078) can0 04FF3604#0003000300C80100
(1788787695.689310) can0 05FF4610#0000D153FFFFFFA3
(1788787695.705079) can0 04FF3604#0004000300C80100
(1788787695.735085) can0 04FF3604#0005000300C80100
(1788787695.735135) can0 03FF1000#0840112200000001
(1788787695.745223) can0 03FF1001#0000000000000000
(1788787695.756084) can0 03FF1603#0000D10E00000000
(1788787695.765086) can0 04FF3604#0005000300C80100
(1788787695.766210) can0 03FF1605#0100000000000000
(1788787695.795084) can0 04FF3604#0002000300C80100
(1788787695.825089) can0 04FF3604#0005000300C80100
(1788787695.840090) can0 03FF1000#0840112200000001
(1788787695.850218) can0 03FF1001#0000000000000000
(1788787695.855090) can0 04FF3604#0006000300C80100
(1788787695.861088) can0 03FF1603#0000D10E00000000
(1788787695.871192) can0 03FF1605#0100000000000000
(1788787695.885090) can0 04FF3604#0003000300C80100
(1788787695.885144) can0 13B76400#01
(1788787695.903090) can0 03FF1600#142B000104001319
(1788787695.913195) can0 03FF1601#6E50000000000000
(1788787695.915090) can0 04FF3604#0006000300C80100
(1788787695.915145) can0 02181606#0100190001030200
(1788787695.924091) can0 03FF1602#000005000000157C
(1788787695.934231) can0 03FF1604#0000000000000000
(1788787695.945095) can0 04FF3604#0004000300C80100
(1788787695.945162) can0 02203606#0101000100010000
(1788787695.946092) can0 03FF1000#0840112200000001
(1788787695.955221) can0 03FF1001#0000000000000000
(1788787695.963094) can0 05FF4610#0000D153FFFFFFA3
(1788787695.966093) can0 03FF1603#0000D10E00000000
(1788787695.975094) can0 04FF3604#0005000300C80100
(1788787695.975160) can0 02181608#0500000001000000
(1788787695.976232) can0 03FF1605#0100000000000000
(1788787695.987094) can0 03121606#0000000000000000
(1788787696.005096) can0 04FF3604#0005000300C80100
(1788787696.005151) can0 02181609#0000000000000000
(1788787696.035098) can0 04FF3604#0005000300C80100
(1788787696.035163) can0 02488600#0000000000000000
(1788787696.050101) can0 03FF1000#0840112200000001
(1788787696.060206) can0 03FF1001#0000000000000000
(1788787696.065099) can0 04FF3604#0005000300C80100
(1788787696.071099) can0 03FF1603#0000D10E00000000
(1788787696.081227) can0 03FF1605#0100000000000000
(1788787696.085308) can0 02294503#
(1788787696.087106) can0 05124503#00150C0900000C62
(1788787696.094358) can0 04FF3604#0004000300C80100
(1788787696.124352) can0 04FF3604#0005000300C80100
(1788787696.155106) can0 04FF3602#0000000000000000
(1788787696.155157) can0 03FF1000#0840112200000001
(1788787696.165105) can0 13B76400#01
(1788787696.165247) can0 03FF1001#0000000000000000
(1788787696.176105) can0 03FF1603#0000D10E00000000
(1788787696.181105) can0 05FF4001#0000000000000000
(1788787696.183104) can0 05FF4000#0000000000000000
(1788787696.184359) can0 04FF3604#0005000300C80100
(1788787696.186244) can0 03FF1605#0100000000000000
(1788787696.214364) can0 04FF3604#0006000400C80100
(1788787696.244367) can0 04FF3604#0007000300C80100
(1788787696.252112) can0 05FF4610#0000D154FFFFFFA3
(1788787696.260112) can0 03FF1000#0840112200000001
(1788787696.270238) can0 03FF1001#0000000000000000
(1788787696.274365) can0 04FF3604#0005000300C80100
(1788787696.281110) can0 03FF1603#0000D10E00000000
(1788787696.291111) can0 05FF4602#1210171017101710
(1788787696.291293) can0 03FF1605#0100000000000000
(1788787696.301111) can0 05FF4603#18101B101D101D10
(1788787696.304354) can0 04FF3604#0004000300C80100
(1788787696.311217) can0 05FF4604#1C101C101E101F10
(1788787696.321113) can0 05FF4605#1B10000000000000
(1788787696.334368) can0 04FF3604#0004000300C80100
(1788787696.352117) can0 05FF4606#1D1D1C
(1788787696.362117) can0 05FF4607#1D1B1C
(1788787696.364358) can0 04FF3604#0004000300C80100
(1788787696.365114) can0 03FF1000#0840112200000001
(1788787696.372116) can0 05FF4608#0019007C
(1788787696.375231) can0 03FF1001#0000000000000000
(1788787696.382115) can0 05FF4609#030003D403CA00
(1788787696.386116) can0 03FF1603#0000D10E00000000
(1788787696.394348) can0 04FF3604#0005000300C80100
(1788787696.396209) can0 03FF1605#0100000000000000
(1788787696.415118) can0 02FF2605#0000060907030806
(1788787696.424349) can0 04FF3604#0004000300C80100
(1788787696.445122) can0 13B76400#01
(1788787696.445328) can0 02FF2604#0000000000000000
(1788787696.454352) can0 04FF3604#0003000300C80100
(1788787696.470121) can0 03FF1000#0840112200000001
(1788787696.475120) can0 02FF2704#0200000000000000
(1788787696.480236) can0 03FF1001#0000000000000000
(1788787696.484352) can0 04FF3604#0004000300C80100
(1788787696.491122) can0 03FF1603#0000D10E00000000
(1788787696.501238) can0 03FF1605#0100000000000000
(1788787696.507122) can0 0260B606#0100000000000000
(1788787696.514354) can0 04FF3604#0007000300C80100
(1788787696.515123) can0 05FF4610#0000D154FFFFFFA3
(1788787696.535124) can0 02203607#0000000300000000
(1788787696.544347) can0 04FF3604#0003000300C80100
(1788787696.574359) can0 04FF3604#0007000300C80100
(1788787696.575126) can0 03FF1000#0840112200000001
(1788787696.585204) can0 03FF1001#0000000000000000
(1788787696.596127) can0 03FF1603#0000D10E00000000
(1788787696.604353) can0 04FF3604#0004000300C80100
(1788787696.606247) can0 03FF1605#0100000000000000
(1788787696.634373) can0 04FF3604#0003000300C80100
(1788787696.654364) can0 04FF3602#0000000000000000
(1788787696.664365) can0 04FF3604#0005000300C80100
(1788787696.675213) can0 02181606#0100190001030200
(1788787696.680132) can0 03FF1000#0840112200000001
(1788787696.690237) can0 03FF1001#0000000000000000
(1788787696.694352) can0 04FF3604#0007000300C80100
(1788787696.701133) can0 03FF1603#0000D10E00000000
(1788787696.711237) can0 03FF1605#0100000000000000
(1788787696.724346) can0 04FF3604#0004000300C80100
(1788787696.754348) can0 04FF3604#0005000300C80100
(1788787696.775313) can0 02203606#0101000100010000
(1788787696.784357) can0 04FF3604#0006000300C80100
(1788787696.785137) can0 03FF1000#0840112200000001
(1788787696.785261) can0 13B76400#01
(1788787696.789138) can0 05FF4610#0000D154FFFFFFA3
(1788787696.795238) can0 03FF1001#0000000000000000
(1788787696.806138) can0 02181608#0500000001000000
(1788787696.806193) can0 03FF1603#0000D10E00000000
(1788787696.814362) can0 04FF3604#0006000300C80100
(1788787696.816238) can0 03FF1605#0100000000000000
(1788787696.827140) can0 03121606#0000000000000000
(1788787696.836140) can0 02181609#0000000000000000
(1788787696.844352) can0 04FF3604#0004000300C80100
(1788787696.865397) can0 02488600#0000000000000000
(1788787696.874362) can0 04FF3604#0006000300C80100
(1788787696.890143) can0 03FF1000#0840112200000001
(1788787696.895154) can0 02294504#
(1788787696.897142) can0 05124504#1D
(1788787696.900235) can0 03FF1001#0000000000000000
(1788787696.904340) can0 04FF3604#0003000300C80100
(1788787696.911144) can0 03FF1603#0000D10E00000000
(1788787696.921221) can0 03FF1605#0100000000000000
(1788787696.932145) can0 03FF1600#142B000104001319
(1788787696.934353) can0 04FF3604#0005000300C80100
(1788787696.942215) can0 03FF1601#6E50000000000000
(1788787696.953148) can0 03FF1602#000005000000157C
(1788787696.963251) can0 03FF1604#0000000000000000
(1788787696.964355) can0 04FF3604#0005000300C80100
(1788787696.994368) can0 04FF3604#0006000300C80100
(1788787696.995148) can0 03FF1000#0840112200000001
(1788787697.005241) can0 03FF1001#0000000000000000
(1788787697.016150) can0 03FF1603#0000D10E00000000
(1788787697.024342) can0 04FF3604#0003000300C80100
(1788787697.026242) can0 03FF1605#0100000000000000
(1788787697.050153) can0 05FF4610#0000D154FFFFFFA3
(1788787697.054371) can0 04FF3604#0004000300C80100
(1788787697.084361) can0 04FF3604#0006000300C80100
(1788787697.100160) can0 03FF1000#0840112200000001
(1788787697.110226) can0 03FF1001#0000000000000000
(1788787697.114351) can0 04FF3604#0003000300C80100
(1788787697.121156) can0 03FF1603#0000D10E00000000
(1788787697.131248) can0 03FF1605#0100000000000000
(1788787697.144356) can0 04FF3604#0006000300C80100
(1788787697.154365) can0 04FF3602#0000000000000000
(1788787697.163158) can0 03FF1400#0000000400000000
(1788787697.174366) can0 04FF3604#0005000300C80100
(1788787697.204345) can0 04FF3604#0005000300C80100
(1788787697.205159) can0 03FF1000#0840112200000001
(1788787697.215256) can0 03FF1001#0000000000000000
(1788787697.225161) can0 05FF4001#0000000000000000
(1788787697.226160) can0 03FF1603#0000D10E00000000
(1788787697.227160) can0 05FF4000#0000000000000000
(1788787697.234353) can0 04FF3604#0007000300C80100
(1788787697.236241) can0 03FF1605#0100000000000000
(1788787697.264387) can0 04FF3604#0006000300C80100
(1788787697.294351) can0 04FF3604#0005000300C80100
(1788787697.310166) can0 03FF1000#0840112200000001
(1788787697.320248) can0 03FF1001#0000000000000000
(1788787697.324350) can0 04FF3604#0003000300C80100
(1788787697.331167) can0 03FF1603#0000D10E00000000
(1788787697.334167) can0 05FF4602#1110171017101710
(1788787697.339167) can0 05FF4610#0000D14FFFFFFFA9
(1788787697.341236) can0 03FF1605#0100000000000000
(1788787697.344169) can0 05FF4603#18101A101C101D10
(1788787697.354168) can0 05FF4604#1B101C101E101F10
(1788787697.355167) can0 04FF3604#0005000300C80100
(1788787697.364167) can0 05FF4605#1A10000000000000
(1788787697.384367) can0 04FF3604#0005000300C80100
(1788787697.395169) can0 05FF4606#1D1D1C
(1788787697.405170) can0 05FF4607#1D1B1C
(1788787697.414345) can0 04FF3604#0003000300C80100
(1788787697.415171) can0 03FF1000#0840112200000001
(1788787697.415353) can0 05FF4608#0019007C
(1788787697.425172) can0 05FF4609#030003D403CA00
(1788787697.426171) can0 03FF1001#0000000000000000
(1788787697.426226) can0 02FF2605#0000060907030807
(1788787697.436171) can0 03FF1603#0000D10E00000000
(1788787697.444348) can0 04FF3604#0005000300C80100
(1788787697.446230) can0 03FF1605#0100000000000000
(1788787697.458254) can0 02FF2604#0000000000000000
(1788787697.474355) can0 04FF3604#0003000300C80100
(1788787697.486175) can0 02FF2704#0200000000000000
(1788787697.504360) can0 04FF3604#0005000300C80100
(1788787697.516176) can0 0260B606#0100000000000000
(1788787697.520176) can0 03FF1000#0840112200000001
(1788787697.530258) can0 03FF1001#0000000000000000
(1788787697.534350) can0 04FF3604#0006000300C80100
(1788787697.541177) can0 03FF1603#0000D10E00000000
(1788787697.546179) can0 02203607#0000000300000000
(1788787697.551259) can0 03FF1605#0100000000000000
(1788787697.564341) can0 04FF3604#0004000300C80100
(1788787697.576180) can0 02181606#0100190001030200
(1788787697.594350) can0 04FF3604#0005000300C80100
(1788787697.603181) can0 05FF4610#0000D14FFFFFFFA9
(1788787697.606201) can0 02203606#0101000100010000
(1788787697.623184) can0 05FF4600#0D0300900303
(1788787697.624356) can0 04FF3604#0006000300C80100
(1788787697.625182) can0 03FF1000#0840112200000001
(1788787697.635252) can0 03FF1001#0000000000000000
(1788787697.636206) can0 02181608#0500000001000000
(1788787697.646187) can0 03FF1603#0000D10E00000000
(1788787697.654358) can0 04FF3400#0000057200000000
(1788787697.655184) can0 04FF3602#0000000000000000
(1788787697.656184) can0 04FF3604#0004000300C80100
(1788787697.656257) can0 03FF1605#0100000000000000
(1788787697.666220) can0 02181609#0000000000000000
(1788787697.667184) can0 03121606#0000000000000000
(1788787697.684347) can0 04FF3604#0005000300C80100
(1788787697.697186) can0 02488600#0000000000000000
(1788787697.714353) can0 04FF3604#0005000300C80100
(1788787697.726201) can0 02191502#
(1788787697.730188) can0 03FF1000#0840112200000001
(1788787697.740264) can0 03FF1001#0000000000000000
(1788787697.744354) can0 04FF3604#0004000300C80100
(1788787697.751192) can0 03FF1603#0000D10E00000000
(1788787697.761271) can0 03FF1605#0100000000000000
(1788787697.772191) can0 03FF1502#0100000000000000
(1788787697.774363) can0 04FF3604#0005000300C80100
(1788787697.804354) can0 04FF3604#0005000300C80100
(1788787697.834358) can0 04FF3604#0004000300C80100
(1788787697.835193) can0 03FF1000#0840112200000001
(1788787697.845266) can0 03FF1001#0000000000000000
(1788787697.856195) can0 03FF1603#0000D10E00000000
(1788787697.864346) can0 04FF3604#0003000300C80100
(1788787697.866259) can0 03FF1605#0100000000000000
(1788787697.879196) can0 05FF4610#0000D14FFFFFFFA9
(1788787697.894347) can0 04FF3604#0005000300C80100
(1788787697.919198) can0 03FF1600#142B000104001319
(1788787697.924320) can0 04FF3604#0003000300C80100
(1788787697.929221) can0 03FF1601#6E50000000000000
(1788787697.940199) can0 03FF1602#000005000000157C
(1788787697.950282) can0 03FF1604#0000000000000000
(1788787697.954338) can0 04FF3604#0005000400C80100
(1788787697.961200) can0 03FF1000#0840112200000001
(1788787697.971293) can0 03FF1001#0000000000000000
(1788787697.982201) can0 03FF1603#0000D10E00000000
(1788787697.984358) can0 04FF3604#0005000300C80100
(1788787697.992259) can0 03FF1605#0100000000000000
(1788787698.014344) can0 04FF3604#0005000400C80100
(1788787698.044348) can0 04FF3604#0005000300C80100
(1788787698.045205) can0 03FF1000#0840112200000001
(1788787698.055269) can0 03FF1001#0000000000000000
(1788787698.066207) can0 03FF1603#0000D10E00000000
(1788787698.074334) can0 04FF3604#0005000300C80100
(1788787698.076265) can0 03FF1605#0100000000000000
(1788787698.104347) can0 04FF3604#0005000300C80100
(1788787698.134343) can0 04FF3604#0005000300C80100
(1788787698.141341) can0 05FF4610#0000D14FFFFFFFA9
(1788787698.150214) can0 03FF1000#0840112200000001
(1788787698.154352) can0 04FF3602#0000000000000000
(1788787698.160246) can0 03FF1001#0000000000000000
(1788787698.164327) can0 04FF3604#0004000300C80100
(1788787698.171212) can0 03FF1603#0000D10E00000000
(1788787698.181271) can0 03FF1605#0100000000000000
(1788787698.194341) can0 04FF3604#0004000300C80100
(1788787698.197213) can0 02181606#0100190001030200
(1788787698.224357) can0 04FF3604#0005000300C80100
(1788787698.227217) can0 02203606#0101000100010000
(1788787698.254335) can0 04FF3604#0003000300C80100
(1788787698.255219) can0 03FF1000#0840112200000001
(1788787698.257216) can0 02181608#0500000001000000
(1788787698.265251) can0 03FF1001#0000000000000000
(1788787698.276218) can0 03FF1603#0000D10E00000000
(1788787698.284334) can0 04FF3604#0003000300C80100
(1788787698.286271) can0 03FF1605#0100000000000000
(1788787698.287218) can0 02181609#0000000000000000
(1788787698.297219) can0 03121606#0000000000000000
(1788787698.300242) can0 05FF4001#0000000000000000
(1788787698.302265) can0 05FF4000#0000000000000000
(1788787698.314323) can0 04FF3604#0003000300C80100
(1788787698.317219) can0 02488600#0000000000000000
(1788787698.344352) can0 04FF3604#0005000300C80100
(1788787698.347224) can0 02191503#
(1788787698.360222) can0 03FF1000#0840112200000001
(1788787698.370281) can0 03FF1001#0000000000000000
(1788787698.374350) can0 04FF3604#0006000300C80100
(1788787698.381223) can0 03FF1503#0100000000000000
(1788787698.383246) can0 05FF4602#1210171017101710
(1788787698.391258) can0 03FF1603#0000D10E00000000
(1788787698.393258) can0 05FF4603#18101A101D101D10
(1788787698.402224) can0 03FF1605#0100000000000000
(1788787698.403282) can0 05FF4604#1B101C101E101F10
(1788787698.404340) can0 04FF3604#0004000400C80100
(1788787698.413283) can0 05FF4605#1B10000000000000
(1788787698.431430) can0 05FF4610#0000D152FFFFFF9E
(1788787698.434365) can0 04FF3604#0005000300C80100
(1788787698.437226) can0 02FF2605#0000060907030808
(1788787698.443227) can0 05FF4606#1D1D1C
(1788787698.453230) can0 05FF4607#1D1B1C
(1788787698.463230) can0 05FF4608#0019007C
(1788787698.464366) can0 04FF3604#0006000300C80100
(1788787698.465227) can0 03FF1000#0840112200000001
(1788787698.467227) can0 02FF2604#0000000000000000
(1788787698.473251) can0 05FF4609#030003D403CA00
(1788787698.475274) can0 03FF1001#0000000000000000
(1788787698.486229) can0 03FF1603#0000D10E00000000
(1788787698.494328) can0 04FF3604#0004000300C80100
(1788787698.496252) can0 03FF1605#0100000000000000
(1788787698.497229) can0 02FF2704#0200000000000000
(1788787698.524359) can0 04FF3604#0005000300C80100
(1788787698.527231) can0 0260B606#0100000000000000
(1788787698.554340) can0 04FF3604#0006000300C80100
(1788787698.557235) can0 02203607#0000000300000000
(1788787698.570235) can0 03FF1000#0840112200000001
(1788787698.580281) can0 03FF1001#0000000000000000
(1788787698.584338) can0 04FF3604#0005000300C80100
(1788787698.591234) can0 03FF1603#0000D10E00000000
(1788787698.601281) can0 03FF1605#0100000000000000
(1788787698.614335) can0 04FF3604#0005000300C80100
(1788787698.644334) can0 04FF3604#0004000300C80100
(1788787698.654381) can0 04FF3602#0000000000000000
(1788787698.674345) can0 04FF3604#0004000300C80100
(1788787698.675239) can0 03FF1000#0840112200000001
(1788787698.685275) can0 03FF1001#0000000000000000
(1788787698.693368) can0 05FF4610#0000D152FFFFFF9E
(1788787698.696240) can0 03FF1603#0000D10E00000000
(1788787698.704344) can0 04FF3604#0005000400C80100
(1788787698.706287) can0 03FF1605#0100000000000000
(1788787698.734326) can0 04FF3604#0003000300C80100
(1788787698.764340) can0 04FF3604#0004000300C80100
(1788787698.780248) can0 03FF1000#0840112200000001
(1788787698.790257) can0 03FF1001#0000000000000000
(1788787698.794326) can0 04FF3604#0003000300C80100
(1788787698.801246) can0 03FF1603#0000D10E00000000
(1788787698.811291) can0 03FF1605#0100000000000000
(1788787698.824330) can0 04FF3604#0004000300C80100
(1788787698.854344) can0 04FF3604#0004000300C80100
(1788787698.884334) can0 04FF3604#0003000300C80100
(1788787698.885250) can0 03FF1000#0840112200000001
(1788787698.895286) can0 03FF1001#0000000000000000
(1788787698.906252) can0 03FF1603#0000D10E00000000
(1788787698.914356) can0 04FF3604#0003000300C80100
(1788787698.916282) can0 03FF1605#0100000000000000
(1788787698.927252) can0 03FF1600#142B000104001319
(1788787698.937277) can0 03FF1601#6E50000000000000
(1788787698.944334) can0 04FF3604#0003000300C80100
(1788787698.948256) can0 03FF1602#000005000000157C
(1788787698.957454) can0 02181606#0100190001030200
(1788787698.958289) can0 03FF1604#0000000000000000
(1788787698.968474) can0 05FF4610#0000D152FFFFFF9E
(1788787698.974325) can0 04FF3604#0003000300C80100
(1788787698.987464) can0 02203606#0101000100010000
(1788787698.990255) can0 03FF1000#0840112200000001
(1788787699.000349) can0 03FF1001#0000000000000000
(1788787699.004309) can0 04FF3604#0003000300C80100
(1788787699.011257) can0 03FF1603#0000D10E00000000
(1788787699.018258) can0 02181608#0500000001000000
(1788787699.021257) can0 03FF1605#0100000000000000
(1788787699.032258) can0 03121606#0000000000000000
(1788787699.034339) can0 04FF3604#0004000400C80100
(1788787699.048261) can0 02181609#0000000000000000
(1788787699.064354) can0 04FF3604#0005000300C80100
(1788787699.094336) can0 04FF3604#0005000300C80100
(1788787699.095266) can0 03FF1000#0840112200000001
(1788787699.098262) can0 02488600#0000000000000000
(1788787699.105297) can0 03FF1001#0000000000000000
(1788787699.116262) can0 03FF1603#0000D10E00000000
(1788787699.124340) can0 04FF3604#0005000300C80100
(1788787699.126312) can0 03FF1605#0100000000000000
(1788787699.127405) can0 02191504#
(1788787699.147287) can0 03FF1504#0000001D00000000
(1788787699.154350) can0 04FF3602#0000000000000000
(1788787699.155265) can0 04FF3604#0003000300C80100
(1788787699.184347) can0 04FF3604#0003000300C80100
(1788787699.200267) can0 03FF1000#0840112200000001
(1788787699.210290) can0 03FF1001#0000000000000000
(1788787699.214341) can0 04FF3604#0004000300C80100
(1788787699.221271) can0 03FF1603#0000D10E00000000
(1788787699.231270) can0 05FF4610#0000D152FFFFFF9E
(1788787699.231325) can0 03FF1605#0100000000000000
(1788787699.244338) can0 04FF3604#0004000300C80100
(1788787699.274344) can0 04FF3604#0005000300C80100
(1788787699.304329) can0 04FF3604#0004000300C80100
(1788787699.305273) can0 03FF1000#0840112200000001
(1788787699.315274) can0 03FF1001#0000000000000000
(1788787699.326273) can0 03FF1603#0000D10E00000000
(1788787699.334333) can0 04FF3604#0005000300C80100
(1788787699.336297) can0 03FF1605#0100000000000000
(1788787699.346278) can0 05FF4001#0000000000000000
(1788787699.348277) can0 05FF4000#0000000000000000
(1788787699.364342) can0 04FF3604#0005000300C80100
(1788787699.394324) can0 04FF3604#0007000300C80100
(1788787699.410279) can0 03FF1000#0840112200000001
(1788787699.420309) can0 03FF1001#0000000000000000
(1788787699.424325) can0 04FF3604#0004000300C80100
(1788787699.429279) can0 05FF4602#1210171017101710
(1788787699.431280) can0 03FF1603#0000D10E00000000
(1788787699.438280) can0 02F82400#CC03000000000000
(1788787699.439279) can0 05FF4603#18101B101D101D10
(1788787699.441303) can0 03FF1605#0100000000000000
(1788787699.449283) can0 05FF4604#1B101C101E101F10
(1788787699.454325) can0 04FF3604#0004000300C80100
(1788787699.459281) can0 05FF4605#1A10000000000000
(1788787699.468281) can0 02FF2602#BED302F512284BCF
(1788787699.484329) can0 04FF3604#0005000300C80100
(1788787699.488428) can0 05FF4606#1D1D1C
(1788787699.498284) can0 02FF2605#0000060907030809
(1788787699.498442) can0 05FF4607#1D1B1C
(1788787699.508492) can0 05FF4608#0019007C
(1788787699.514330) can0 04FF3604#0004000300C80100
(1788787699.515284) can0 03FF1000#0840112200000001
(1788787699.519284) can0 05FF4609#030003D403CA00
(1788787699.520284) can0 05FF4610#0000D152FFFFFFA3
(1788787699.525291) can0 03FF1001#0000000000000000
(1788787699.528284) can0 02FF2604#0000000000000000
(1788787699.536286) can0 03FF1603#0000D10E00000000
(1788787699.544320) can0 04FF3604#0004000300C80100
(1788787699.546288) can0 03FF1605#0100000000000000
(1788787699.558302) can0 02FF2704#0200000000000000
(1788787699.574323) can0 04FF3604#0004000300C80100
(1788787699.590289) can0 0260B606#0100000000000000
(1788787699.604324) can0 04FF3604#0003000300C80100
(1788787699.618289) can0 02203607#0000000300000000
(1788787699.620294) can0 03FF1000#0840112200000001
(1788787699.630316) can0 03FF1001#0000000000000000
(1788787699.634324) can0 04FF3604#0005000300C80100
(1788787699.641294) can0 03FF1603#0000D10E00000000
(1788787699.651307) can0 03FF1605#0100000000000000
(1788787699.654352) can0 04FF3602#0000000000000000
(1788787699.664322) can0 04FF3604#0007000400C80100
(1788787699.694329) can0 04FF3604#0006000300C80100
(1788787699.718299) can0 02181606#0100190001030200
(1788787699.724332) can0 04FF3604#0004000300C80100
(1788787699.725295) can0 03FF1000#0840112200000001
(1788787699.735296) can0 03FF1001#0000000000000000
(1788787699.746300) can0 03FF1603#0000D10E00000000
(1788787699.748298) can0 02203606#0101000100010000
(1788787699.754329) can0 04FF3604#0004000300C80100
(1788787699.756297) can0 03FF1605#0100000000000000
(1788787699.778299) can0 02181608#0500000001000000
(1788787699.784333) can0 04FF3604#0005000300C80100
(1788787699.793300) can0 05FF4610#0000D152FFFFFFA3
(1788787699.808300) can0 02181609#0000000000000000
(1788787699.814326) can0 04FF3604#0005000300C80100
(1788787699.830304) can0 03FF1000#0840112200000001
(1788787699.838394) can0 02488600#0000000000000000
(1788787699.840313) can0 03FF1001#0000000000000000
(1788787699.844336) can0 04FF3604#0004000300C80100
(1788787699.851305) can0 03FF1603#0000D10E00000000
(1788787699.861324) can0 03FF1605#0100000000000000
(1788787699.868304) can0 02213502#
(1788787699.872303) can0 03121606#0000000000000000
(1788787699.874337) can0 04F93502#0000000000000000
(1788787699.875303) can0 04FF3604#0006000300C80100
(1788787699.904340) can0 04FF3604#0004000400C80100
(1788787699.934331) can0 04FF3604#0004000300C80100
(1788787699.935306) can0 03FF1000#0840112200000001
(1788787699.945307) can0 03FF1001#0000000000000000
(1788787699.956311) can0 03FF1600#142B000104001319
(1788787699.964346) can0 04FF3604#0005000300C80100
(1788787699.966308) can0 03FF1601#6E50000000000000
(1788787699.977308) can0 03FF1602#000005000000157C
(1788787699.987309) can0 03FF1603#0000D10E00000000
(1788787699.994321) can0 04FF3604#0004000300C80100
(1788787699.998310) can0 03FF1604#0000000000000000
(1788787700.008311) can0 03FF1605#0100000000000000
(1788787700.024323) can0 04FF3604#0005000300C80100
(1788787700.040312) can0 03FF1000#0840112200000001
(1788787700.050315) can0 03FF1001#0000000000000000
(1788787700.054327) can0 04FF3604#0003000300C80100
(1788787700.059313) can0 05FF4610#0000D152FFFFFFA3
(1788787700.061313) can0 03FF1603#0000D10E00000000
(1788787700.071313) can0 03FF1605#0100000000000000
(1788787700.084314) can0 04FF3604#0003000300C80100
(1788787700.114317) can0 04FF3604#0003000300C80100
(1788787700.144330) can0 04FF3604#0005000300C80100
(1788787700.145323) can0 03FF1000#0840112200000001
(1788787700.154329) can0 04FF3602#0000000000000000
(1788787700.155323) can0 03FF1001#0000000000000000
(1788787700.166322) can0 03FF1603#0000D10E00000000
(1788787700.174331) can0 04FF3604#0005000300C80100
(1788787700.176319) can0 03FF1605#0100000000000000
(1788787700.204323) can0 04FF3604#0004000300C80100
(1788787700.234328) can0 04FF3604#0004000300C80100
(1788787700.250327) can0 03FF1000#0840112200000001
(1788787700.260327) can0 03FF1001#0000000000000000
(1788787700.264324) can0 04FF3604#0005000300C80100
(1788787700.271325) can0 03FF1603#0000D10E00000000
(1788787700.281325) can0 03FF1605#0100000000000000
(1788787700.294326) can0 04FF3604#0003000300C80100
(1788787700.324328) can0 04FF3604#0004000300C80100
(1788787700.351332) can0 05FF4610#0000D152FFFFFFA3
(1788787700.354332) can0 04FF3604#0003000300C80100
(1788787700.355329) can0 03FF1000#0840112200000001
(1788787700.365331) can0 03FF1001#0000000000000000
(1788787700.376330) can0 03FF1603#0000D10E00000000
(1788787700.384331) can0 04FF3604#0004000300C80100
(1788787700.386331) can0 03FF1605#0100000000000000
(1788787700.396345) can0 05FF4001#0000000000000000
(1788787700.398332) can0 05FF4000#0000000000000000
(1788787700.414333) can0 04FF3604#0006000300C80100
(1788787700.444334) can0 04FF3604#0004000300C80100
(1788787700.459338) can0 02FF2605#0000060907030800
(1788787700.460334) can0 03FF1000#0840112200000001
(1788787700.470335) can0 03FF1001#0000000000000000
(1788787700.474334) can0 04FF3604#0004000300C80100
(1788787700.479335) can0 05FF4602#1210171017101710
(1788787700.481335) can0 03FF1603#0000D10E00000000
(1788787700.489336) can0 05FF4603#18101A101D101D10
(1788787700.489548) can0 02FF2604#0000000000000000
(1788787700.491335) can0 03FF1605#0100000000000000
(1788787700.499336) can0 05FF4604#1B101C101E101F10
(1788787700.504336) can0 04FF3604#0004000300C80100
(1788787700.509337) can0 05FF4605#1B10000000000000
(1788787700.519339) can0 02FF2704#0200000000000000
(1788787700.534338) can0 04FF3604#0006000300C80100
(1788787700.539338) can0 05FF4606#1D1D1C
(1788787700.549341) can0 05FF4607#1D1C1C
(1788787700.549405) can0 0260B606#0100000000000000
(1788787700.559340) can0 05FF4608#0019007C
(1788787700.564339) can0 04FF3604#0004000300C80100
(1788787700.565339) can0 03FF1000#0840112200000001
(1788787700.570340) can0 05FF4609#030003D403CA00
(1788787700.575340) can0 03FF1001#0000000000000000
(1788787700.579340) can0 02203607#0000000300000000
(1788787700.586341) can0 03FF1603#0000D10E00000000
(1788787700.594342) can0 04FF3604#0002000300C80100
(1788787700.596341) can0 03FF1605#0100000000000000
(1788787700.609342) can0 02181606#0100190001030200
(1788787700.614343) can0 05FF4610#0000D152FFFFFFA3
(1788787700.624343) can0 04FF3604#0004000300C80100
(1788787700.639344) can0 02203606#0101000100010000
(1788787700.654345) can0 04FF3602#0000000000000000
(1788787700.655350) can0 04FF3604#0005000300C80100
(1788787700.669348) can0 02181608#0500000001000000
(1788787700.670346) can0 03FF1000#0840112200000001
(1788787700.680347) can0 03FF1001#0000000000000000
(1788787700.684346) can0 04FF3604#0005000300C80100
(1788787700.691347) can0 03FF1603#0000D10E00000000
(1788787700.699348) can0 02181609#0000000000000000
(1788787700.701347) can0 03FF1605#0100000000000000
(1788787700.712348) can0 03121606#0000000000000000
(1788787700.714352) can0 04FF3604#0005000300C80100
(1788787700.729349) can0 02488600#0000000000000000
(1788787700.744350) can0 04FF3604#0006000300C80100
(1788787700.759354) can0 02213503#
(1788787700.769351) can0 04F93503#0000000000000000
(1788787700.774351) can0 04FF3604#0005000300C80100
(1788787700.775351) can0 03FF1000#0840112200000001
(1788787700.785352) can0 03FF1001#0000000000000000
(1788787700.796352) can0 03FF1603#0000D10E00000000
(1788787700.804352) can0 04FF3604#0005000300C80100
(1788787700.806387) can0 03FF1605#0100000000000000
(1788787700.834358) can0 04FF3604#0005000300C80100
(1788787700.864359) can0 04FF3604#0004000300C80100
(1788787700.880357) can0 03FF1000#0840112200000001
(1788787700.888358) can0 05FF4610#0000D152FFFFFFA3
(1788787700.890357) can0 03FF1001#0000000000000000
(1788787700.894357) can0 04FF3604#0004000300C80100
(1788787700.901358) can0 03FF1603#0000D10E00000000
(1788787700.911359) can0 03FF1605#0100000000000000
(1788787700.924359) can0 04FF3604#0004000300C80100
(1788787700.943360) can0 03FF1600#142B000104001319
(1788787700.953362) can0 03FF1601#6E50000000000000
(1788787700.954360) can0 04FF3604#0006000300C80100
(1788787700.964362) can0 03FF1602#000005000000157C
(1788787700.974362) can0 03FF1604#0000000000000000
(1788787700.984362) can0 04FF3604#0004000300C80100
(1788787700.985362) can0 03FF1000#0840112200000001
(1788787700.995364) can0 03FF1001#0000000000000000
(1788787701.006364) can0 03FF1603#0000D10E00000000
(1788787701.014364) can0 04FF3604#0004000300C80100
(1788787701.016364) can0 03FF1605#0100000000000000
(1788787701.044366) can0 04FF3604#0004000300C80100
(1788787701.074369) can0 04FF3604#0005000300C80100
(1788787701.090368) can0 03FF1000#0840112200000001
(1788787701.100368) can0 03FF1001#0000000000000000
(1788787701.104368) can0 04FF3604#0006000300C80100
(1788787701.111370) can0 03FF1603#0000D10E00000000
(1788787701.121370) can0 03FF1605#0100000000000000
(1788787701.134371) can0 04FF3604#0005000300C80100
(1788787701.150372) can0 05FF4610#0000D152FFFFFFA3
(1788787701.154371) can0 04FF3602#0000000000000000
(1788787701.164379) can0 04FF3604#0006000300C80100
(1788787701.194376) can0 04FF3604#0004000300C80100
(1788787701.195374) can0 03FF1000#0840112200000001
(1788787701.205374) can0 03FF1001#0000000000000000
(1788787701.216378) can0 03FF1603#0000D10E00000000
(1788787701.224375) can0 04FF3604#0004000300C80100
(1788787701.226375) can0 03FF1605#0100000000000000
(1788787701.240377) can0 02181606#0100190001030200
(1788787701.254381) can0 04FF3604#0003000300C80100
(1788787701.270384) can0 02203606#0101000100010000
(1788787701.284379) can0 04FF3604#0005000300C80100
(1788787701.300381) can0 02181608#0500000001000000
(1788787701.300445) can0 03FF1000#0840112200000001
(1788787701.310379) can0 03FF1001#0000000000000000
(1788787701.314380) can0 04FF3604#0003000300C80100
(1788787701.321380) can0 03FF1603#0000D10E00000000
(1788787701.330381) can0 02181609#0000000000000000
(1788787701.331381) can0 03FF1605#0100000000000000
(1788787701.342382) can0 03121606#0000000000000000
(1788787701.344381) can0 04FF3604#0004000300C80100
(1788787701.360384) can0 02488600#0000000000000000
(1788787701.374384) can0 04FF3604#0003000300C80100
(1788787701.389542) can0 02213504#
(1788787701.399385) can0 04F93504#0000000000000000
(1788787701.404386) can0 04FF3604#0007000300C80100
(1788787701.405385) can0 03FF1000#0840112200000001
(1788787701.415386) can0 03FF1001#0000000000000000
(1788787701.426387) can0 03FF1603#0000D10E00000000
(1788787701.434387) can0 04FF3604#0006000300C80100
(1788787701.436386) can0 03FF1605#0100000000000000
(1788787701.440387) can0 05FF4610#0000D150FFFFFFA3
(1788787701.442479) can0 05FF4001#0000000000000000
(1788787701.444387) can0 05FF4000#0000000000000000
(1788787701.464390) can0 04FF3604#0002000300C80100
(1788787701.470388) can0 02FF2605#0000060907030801
(1788787701.494392) can0 04FF3604#0004000300C80100
(1788787701.500390) can0 02FF2604#0000000000000000
(1788787701.510391) can0 03FF1000#0840112200000001
(1788787701.520392) can0 03FF1001#0000000000000000
(1788787701.524391) can0 04FF3604#0004000300C80100
(1788787701.525391) can0 05FF4602#1110171017101710
(1788787701.530391) can0 02FF2704#0200000000000000
(1788787701.531391) can0 03FF1603#0000D10E00000000
(1788787701.534391) can0 05FF4603#18101A101D101D10
(1788787701.541393) can0 03FF1605#0100000000000000
(1788787701.544393) can0 05FF4604#1B101C101E101F10
(1788787701.554395) can0 04FF3604#0005000300C80100
(1788787701.555393) can0 05FF4605#1A10000000000000
(1788787701.560393) can0 0260B606#0100000000000000
(1788787701.584394) can0 04FF3604#0006000300C80100
(1788787701.585394) can0 05FF4606#1D1D1C
(1788787701.590395) can0 02203607#0000000300000000
(1788787701.595395) can0 05FF4607#1D1B1C
(1788787701.605396) can0 05FF4608#0019007C
(1788787701.614396) can0 04FF3604#0004000300C80100
(1788787701.615396) can0 03FF1000#0840112200000001
(1788787701.615451) can0 05FF4609#030003D403CA00
(1788787701.625397) can0 03FF1001#0000000000000000
(1788787701.636397) can0 03FF1603#0000D10E00000000
(1788787701.644398) can0 04FF3604#0004000300C80100
(1788787701.646398) can0 03FF1605#0100000000000000
(1788787701.654399) can0 04FF3602#0000000000000000
(1788787701.674406) can0 04FF3604#0003000300C80100
(1788787701.702578) can0 05FF4610#0000D150FFFFFFA3
(1788787701.704401) can0 04FF3604#0004000300C80100
(1788787701.720407) can0 03FF1000#0840112200000001
(1788787701.730403) can0 03FF1001#0000000000000000
(1788787701.734403) can0 04FF3604#0004000300C80100
(1788787701.741403) can0 03FF1603#0000D10E00000000
(1788787701.751407) can0 03FF1605#0100000000000000
(1788787701.764405) can0 04FF3604#0005000300C80100
(1788787701.794406) can0 04FF3604#0006000300C80100
(1788787701.824411) can0 04FF3604#0006000300C80100
(1788787701.825407) can0 03FF1000#0840112200000001
(1788787701.835408) can0 03FF1001#0000000000000000
(1788787701.846409) can0 03FF1603#0000D10E00000000
(1788787701.854413) can0 04FF3604#0003000300C80100
(1788787701.856409) can0 03FF1605#0100000000000000
(1788787701.884410) can0 04FF3604#0004000300C80100
(1788787701.914413) can0 04FF3604#0005000300C80100
(1788787701.930413) can0 03FF1000#0840112200000001
(1788787701.940413) can0 03FF1001#0000000000000000
(1788787701.944414) can0 04FF3604#0003000300C80100
(1788787701.951415) can0 03FF1603#0000D10E00000000
(1788787701.961415) can0 03FF1605#0100000000000000
(1788787701.972416) can0 03FF1600#142B000104001319
(1788787701.974415) can0 04FF3604#0004000300C80100
(1788787701.977496) can0 05FF4610#0000D150FFFFFFA3
(1788787701.982416) can0 03FF1601#6E50000000000000
(1788787701.993416) can0 03FF1602#000005000000157C
(1788787702.003418) can0 02181606#0100190001030200
(1788787702.003472) can0 03FF1604#0000000000000000
(1788787702.004417) can0 04FF3604#0007000300C80100
(1788787702.030462) can0 02203606#0101000100010000
(1788787702.034419) can0 04FF3604#0002000300C80100
(1788787702.035419) can0 03FF1000#0840112200000001
(1788787702.045420) can0 03FF1001#0000000000000000
(1788787702.056422) can0 03FF1603#0000D10E00000000
(1788787702.060501) can0 02181608#0500000001000000
(1788787702.064420) can0 04FF3604#0006000400C80100
(1788787702.066420) can0 03FF1605#0100000000000000
(1788787702.077421) can0 03121606#0000000000000000
(1788787702.094423) can0 04FF3604#0003000300C80100
(1788787702.110585) can0 02181609#0000000000000000
(1788787702.124423) can0 04FF3604#0006000300C80100
(1788787702.140425) can0 03FF1000#0840112200000001
(1788787702.140619) can0 02488600#0000000000000000
(1788787702.150426) can0 03FF1001#0000000000000000
(1788787702.154425) can0 04FF3602#0000000000000000
(1788787702.155431) can0 04FF3604#0005000300C80100
(1788787702.161427) can0 03FF1603#0000D10E00000000
(1788787702.170428) can0 02213600#
(1788787702.171426) can0 03FF1605#0100000000000000
(1788787702.184428) can0 04FF3604#0005000300C80100
(1788787702.214432) can0 04FF3604#0004000300C80100
(1788787702.243433) can0 05FF4610#0000D150FFFFFFA3
(1788787702.244430) can0 04FF3604#0005000300C80100
(1788787702.245429) can0 03FF1000#0840112200000001
(1788787702.255434) can0 03FF1001#0000000000000000
(1788787702.266432) can0 03FF1603#0000D10E00000000
(1788787702.274432) can0 04FF3604#0004000300C80100
(1788787702.276431) can0 03FF1605#0100000000000000
(1788787702.304434) can0 04FF3604#0005000400C80100
(1788787702.334435) can0 04FF3604#0004000300C80100
(1788787702.350436) can0 03FF1000#0840112200000001
(1788787702.360436) can0 03FF1001#0000000000000000
(1788787702.364436) can0 04FF3604#0007000400C80100
(1788787702.371438) can0 03FF1603#0000D10E00000000
(1788787702.381438) can0 03FF1605#0100000000000000
(1788787702.394439) can0 04FF3604#0006000300C80100
(1788787702.424440) can0 04FF3604#0004000300C80100
(1788787702.454444) can0 04FF3604#0006000300C80100
(1788787702.455441) can0 03FF1000#0840112200000001
(1788787702.465442) can0 03FF1001#0000000000000000
(1788787702.476443) can0 03FF1603#0000D10E00000000
(1788787702.481442) can0 02FF2605#0000060907030802
(1788787702.484443) can0 04FF3604#0005000300C80100
(1788787702.486443) can0 03FF1605#0100000000000000
(1788787702.489651) can0 05FF4001#0000000000000000
(1788787702.491674) can0 05FF4000#0000000000000000
(1788787702.511444) can0 02FF2604#0000000000000000
(1788787702.514444) can0 04FF3604#0003000300C80100
(1788787702.530642) can0 05FF4610#0000D151FFFFFFA9
(1788787702.544446) can0 02FF2704#0200000000000000
(1788787702.544501) can0 04FF3604#0004000300C80100
(1788787702.560448) can0 03FF1000#0840112200000001
(1788787702.570448) can0 03FF1001#0000000000000000
(1788787702.571447) can0 0260B606#0100000000000000
(1788787702.571641) can0 05FF4602#1110171017101710
(1788787702.574448) can0 04FF3604#0004000300C80100
(1788787702.581448) can0 03FF1603#0000D10E00000000
(1788787702.581653) can0 05FF4603#18101A101D101D10
(1788787702.591449) can0 03FF1605#0100000000000000
(1788787702.593448) can0 05FF4604#1B101C101E101F10
(1788787702.601449) can0 02203607#0000000300000000
(1788787702.603449) can0 05FF4605#1B10000000000000
(1788787702.604448) can0 04FF3604#0006000300C80100
(1788787702.632649) can0 05FF4606#1D1D1C
(1788787702.634457) can0 04FF3604#0003000300C80100
(1788787702.642660) can0 05FF4607#1D1B1C
(1788787702.652707) can0 05FF4608#0019007C
(1788787702.654452) can0 04FF3602#0000000000000000
(1788787702.663458) can0 05FF4609#030003D403CA00
(1788787702.664452) can0 04FF3604#0005000300C80100
(1788787702.665453) can0 03FF1000#0840112200000001
(1788787702.675455) can0 03FF1001#0000000000000000
(1788787702.686454) can0 03FF1603#0000D10E00000000
(1788787702.694455) can0 04FF3604#0004000300C80100
(1788787702.696454) can0 03FF1605#0100000000000000
(1788787702.724460) can0 04FF3604#0004000300C80100
(1788787702.754462) can0 04FF3604#0003000300C80100
(1788787702.770460) can0 03FF1000#0840112200000001
(1788787702.780459) can0 03FF1001#0000000000000000
(1788787702.784458) can0 04FF3604#0003000300C80100
(1788787702.791459) can0 03FF1603#0000D10E00000000
(1788787702.801460) can0 03FF1605#0100000000000000
(1788787702.805460) can0 05FF4610#0000D151FFFFFFA9
(1788787702.814465) can0 04FF3604#0004000300C80100
(1788787702.815611) can0 05FF4400#00000002
(1788787702.823542) can0 13B76400#01
(1788787702.824460) can0 02181606#0100190001030200
(1788787702.844462) can0 04FF3604#0005000300C80100
(1788787702.851465) can0 02203606#0101000100010000
(1788787702.867719) can0 05FF4600#0D0300900303
(1788787702.874464) can0 04FF3604#0003000300C80100
(1788787702.875463) can0 03FF1000#0840112200000001
(1788787702.881464) can0 02181608#0500000001000000
(1788787702.885464) can0 03FF1001#0000000000000000
(1788787702.896465) can0 03FF1603#0000D10E00000000
(1788787702.904466) can0 04FF3604#0005000300C80100
(1788787702.906465) can0 03FF1605#0100000000000000
(1788787702.913465) can0 02181609#0000000000000000
(1788787702.917466) can0 03121606#0000000000000000
(1788787702.917724) can0 05FF4601#007300000000
(1788787702.934468) can0 04FF3604#0006000300C80100
(1788787702.941467) can0 02488600#0000000000000000
(1788787702.959470) can0 03FF1600#142B000104001319
(1788787702.964468) can0 04FF3604#0004000300C80100
(1788787702.969468) can0 03FF1601#6E50000000000000
(1788787702.971468) can0 02213601#
(1788787702.980470) can0 03FF1602#000005000000157C
(1788787702.990470) can0 03FF1604#0000000000000000
(1788787702.994470) can0 04FF3604#0005000300C80100
(1788787703.001470) can0 03FF1000#0840112200000001
(1788787703.011471) can0 03FF1001#0000000000000000
(1788787703.022472) can0 03FF1603#0000D10E00000000
(1788787703.024471) can0 04FF3604#0005000400C80100
(1788787703.032473) can0 03FF1605#0100000000000000
(1788787703.054474) can0 04FF3604#0004000300C80100
(1788787703.069475) can0 05FF4610#0000D151FFFFFFA9
(1788787703.084475) can0 04FF3604#0005000300C80100
(1788787703.085475) can0 03FF1000#0840112200000001
(1788787703.095475) can0 03FF1001#0000000000000000
(1788787703.102598) can0 13B76400#01
(1788787703.106476) can0 03FF1603#0000D10E00000000
(1788787703.114476) can0 04FF3604#0005000300C80100
(1788787703.116476) can0 03FF1605#0100000000000000
(1788787703.144478) can0 04FF3604#0004000300C80100
(1788787703.154480) can0 04FF3602#0000000000000000
(1788787703.174482) can0 04FF3604#0005000300C80100
(1788787703.190482) can0 03FF1000#0840112200000001
(1788787703.200481) can0 03FF1001#0000000000000000
(1788787703.204481) can0 04FF3604#0004000300C80100
(1788787703.211482) can0 03FF1603#0000D10E00000000
(1788787703.221486) can0 03FF1605#0100000000000000
(1788787703.234485) can0 04FF3604#0005000400C80100
(1788787703.264489) can0 04FF3604#0006000400C80100
(1788787703.294486) can0 04FF3604#0005000300C80100
(1788787703.295486) can0 03FF1000#0840112200000001
(1788787703.305487) can0 03FF1001#0000000000000000
(1788787703.316487) can0 03FF1603#0000D10E00000000
(1788787703.324488) can0 04FF3604#0006000300C80100
(1788787703.326488) can0 03FF1605#0100000000000000
(1788787703.354491) can0 04FF3604#0004000300C80100
(1788787703.359490) can0 05FF4610#0000D151FFFFFF98
(1788787703.384491) can0 04FF3604#0006000300C80100
(1788787703.391537) can0 13B76400#01
(1788787703.400492) can0 03FF1000#0840112200000001
(1788787703.410493) can0 03FF1001#0000000000000000
(1788787703.414493) can0 04FF3604#0004000300C80100
(1788787703.421492) can0 03FF1603#0000D10E00000000
(1788787703.431494) can0 03FF1605#0100000000000000
(1788787703.444494) can0 04FF3604#0007000300C80100
(1788787703.474497) can0 04FF3604#0005000300C80100
(1788787703.492497) can0 02FF2605#0000060907030803
(1788787703.504497) can0 04FF3604#0004000300C80100
(1788787703.505497) can0 03FF1000#0840112200000001
(1788787703.515498) can0 03FF1001#0000000000000000
(1788787703.522498) can0 02FF2604#0000000000000000
(1788787703.526498) can0 03FF1603#0000D10E00000000
(1788787703.534500) can0 04FF3604#0006000300C80100
(1788787703.536499) can0 03FF1605#0100000000000000
(1788787703.538499) can0 05FF4001#0000000000000000
(1788787703.540499) can0 05FF4000#0000000000000000
(1788787703.552502) can0 02FF2704#0200000000000000
(1788787703.564501) can0 04FF3604#0004000300C80100
(1788787703.582504) can0 0260B606#0100000000000000
(1788787703.594504) can0 04FF3604#0005000300C80100
(1788787703.610503) can0 03FF1000#0840112200000001
(1788787703.612503) can0 02203607#0000000300000000
(1788787703.620504) can0 05FF4602#1210171017101710
(1788787703.620704) can0 03FF1001#0000000000000000
(1788787703.622504) can0 05FF4610#0000D151FFFFFF98
(1788787703.624503) can0 04FF3604#0006000300C80100
(1788787703.630504) can0 05FF4603#18101A101D101D10
(1788787703.631504) can0 03FF1603#0000D10E00000000
(1788787703.640504) can0 05FF4604#1B101C101E101F10
(1788787703.641504) can0 03FF1605#0100000000000000
(1788787703.642504) can0 02181606#0100190001030200
(1788787703.650506) can0 05FF4605#1A10000000000000
(1788787703.654506) can0 04FF3602#0000000000000000
(1788787703.655507) can0 04FF3604#0005000300C80100
(1788787703.672507) can0 13B76400#01
(1788787703.672556) can0 02203606#0101000100010000
(1788787703.680507) can0 05FF4606#1D1D1C
(1788787703.684507) can0 04FF3604#0006000300C80100
(1788787703.690509) can0 05FF4607#1D1C1C
(1788787703.700509) can0 05FF4608#0019007C
(1788787703.703508) can0 02181608#0500000001000000
(1788787703.710509) can0 05FF4609#030003D403CA00
(1788787703.714508) can0 04FF3604#0002000300C80100
(1788787703.715508) can0 03FF1000#0840112200000001
(1788787703.725514) can0 03FF1001#0000000000000000
(1788787703.732510) can0 02181609#0000000000000000
(1788787703.736510) can0 03FF1603#0000D10E00000000
(1788787703.744510) can0 04FF3604#0007000300C80100
(1788787703.746510) can0 03FF1605#0100000000000000
(1788787703.757514) can0 03121606#0000000000000000
(1788787703.762512) can0 02488600#0000000000000000
(1788787703.774513) can0 04FF3604#0004000300C80100
(1788787703.792514) can0 02294611#
(1788787703.793513) can0 05124611#0061368C000035B3
(1788787703.804514) can0 04FF3604#0003000300C80100
(1788787703.820517) can0 03FF1000#0840112200000001
(1788787703.830516) can0 03FF1001#0000000000000000
(1788787703.834515) can0 04FF3604#0003000300C80100
(1788787703.841515) can0 03FF1603#0000D10E00000000
(1788787703.851519) can0 03FF1605#0100000000000000
(1788787703.864519) can0 04FF3604#0006000400C80100
(1788787703.894519) can0 04FF3604#0004000300C80100
(1788787703.896518) can0 05FF4610#0000D151FFFFFF98
(1788787703.924522) can0 04FF3604#0005000300C80100
(1788787703.925520) can0 03FF1000#0840112200000001
(1788787703.935521) can0 03FF1001#0000000000000000
(1788787703.946521) can0 03FF1603#0000D10E00000000
(1788787703.952523) can0 13B76400#01
(1788787703.954522) can0 04FF3604#0006000300C80100
(1788787703.956521) can0 03FF1605#0100000000000000
(1788787703.967522) can0 03FF1600#142B000104001319
(1788787703.977523) can0 03FF1601#6E50000000000000
(1788787703.984523) can0 04FF3604#0005000300C80100
(1788787703.988523) can0 03FF1602#000005000000157C
(1788787703.998524) can0 03FF1604#0000000000000000
(1788787704.014525) can0 04FF3604#0007000300C80100
(1788787704.030526) can0 03FF1000#0840112200000001
(1788787704.040526) can0 03FF1001#0000000000000000
(1788787704.044526) can0 04FF3604#0004000300C80100
(1788787704.051527) can0 03FF1603#0000D10E00000000
(1788787704.061528) can0 03FF1605#0100000000000000
(1788787704.074529) can0 04FF3604#0003000300C80100
(1788787704.104530) can0 04FF3604#0004000300C80100
(1788787704.134532) can0 04FF3604#0007000300C80100
(1788787704.135531) can0 03FF1000#0840112200000001
(1788787704.145532) can0 03FF1001#0000000000000000
(1788787704.154533) can0 04FF3602#0000000000000000
(1788787704.156535) can0 03FF1603#0000D10E00000000
(1788787704.158533) can0 05FF4610#0000D151FFFFFF98
(1788787704.164533) can0 04FF3604#0006000300C80100
(1788787704.166534) can0 03FF1605#0100000000000000
(1788787704.194536) can0 04FF3604#0003000300C80100
(1788787704.224541) can0 04FF3604#0004000300C80100
(1788787704.232536) can0 13B76400#01
(1788787704.240538) can0 03FF1000#0840112200000001
(1788787704.250541) can0 03FF1001#0000000000000000
(1788787704.254538) can0 04FF3604#0005000300C80100
(1788787704.261538) can0 03FF1603#0000D10E00000000
(1788787704.271538) can0 03FF1605#0100000000000000
(1788787704.284540) can0 04FF3604#0003000300C80100
(1788787704.302680) can0 02181606#0100190001030200
(1788787704.314542) can0 04FF3604#0003000300C80100
(1788787704.344543) can0 04FF3604#0004000300C80100
(1788787704.345571) can0 03FF1000#0840112200000001
(1788787704.355544) can0 03FF1001#0000000000000000
(1788787704.366544) can0 03FF1603#0000D10E00000000
(1788787704.374545) can0 04FF3604#0005000300C80100
(1788787704.376544) can0 03FF1605#0100000000000000
(1788787704.387544) can0 03121606#0000000000000000
(1788787704.402766) can0 02203606#0101000100010000
(1788787704.404545) can0 04FF3604#0006000300C80100
(1788787704.432803) can0 02181608#0500000001000000
(1788787704.434547) can0 04FF3604#0005000300C80100
