(1788797240.488754) can0 03FF1000#0840112200000001
(1788797240.593742) can0 03FF1000#0840112200000001
(1788797240.698741) can0 03FF1000#0840112200000001
(1788797240.803746) can0 03FF1000#0840112200000001
(1788797240.908749) can0 03FF1000#0840112200000001
(1788797241.013755) can0 03FF1000#0840112200000001
(1788797241.118765) can0 03FF1000#0840112200000001
(1788797241.223764) can0 03FF1000#0840112200000001
(1788797241.328770) can0 03FF1000#0840112200000001
(1788797241.433775) can0 03FF1000#0840112200000001
(1788797241.538782) can0 03FF1000#0840112200000001
(1788797241.643791) can0 03FF1000#0840112200000001
(1788797241.748794) can0 03FF1000#0840112200000001
(1788797241.853801) can0 03FF1000#0840112200000001
(1788797241.958806) can0 03FF1000#0840112200000001
(1788797242.063811) can0 03FF1000#0840112200000001
(1788797242.168818) can0 03FF1000#0840112200000001
(1788797242.273822) can0 03FF1000#0840112200000001
(1788797242.378827) can0 03FF1000#0840112200000001
(1788797242.483832) can0 03FF1000#0840112200000001
(1788797242.588836) can0 03FF1000#0840112200000001
(1788797242.693845) can0 03FF1000#0840112200000001
(1788797242.798848) can0 03FF1000#0840112200000001
(1788797242.903856) can0 03FF1000#0840112200000001
(1788797243.008862) can0 03FF1000#0840112200000001
(1788797243.113873) can0 03FF1000#0840112200000001
(1788797243.218875) can0 03FF1000#0840112200000001
(1788797243.323878) can0 03FF1000#0840112200000001
(1788797243.428882) can0 03FF1000#0840112200000001
(1788797243.533887) can0 03FF1000#0840112200000001
(1788797243.638892) can0 03FF1000#0840112200000001
(1788797243.743900) can0 03FF1000#0840112200000001
(1788797243.848906) can0 03FF1000#0840112200000001
(1788797243.953911) can0 03FF1000#0840112200000001
(1788797244.058915) can0 03FF1000#0840112200000001
(1788797244.163923) can0 03FF1000#0840112200000001
(1788797244.268929) can0 03FF1000#0840112200000001
(1788797244.373932) can0 03FF1000#0840112200000001
(1788797244.478940) can0 03FF1000#0840112200000001
(1788797244.583945) can0 03FF1000#0840112200000001
(1788797244.688948) can0 03FF1000#0840112200000001
(1788797244.793958) can0 03FF1000#0840112200000001
(1788797244.898963) can0 03FF1000#0840112200000001
(1788797245.003968) can0 03FF1000#0840112200000001
(1788797245.108974) can0 03FF1000#0840112200000001
(1788797245.213977) can0 03FF1000#0840112200000001
(1788797245.318985) can0 03FF1000#0840112200000001
(1788797245.423991) can0 03FF1000#0840112200000001
(1788797245.528996) can0 03FF1000#0840112200000001
(1788797245.634001) can0 03FF1000#0840112200000001
(1788797245.739006) can0 03FF1000#0840112200000001
(1788797245.844016) can0 03FF1000#0840112200000001
(1788797245.949018) can0 03FF1000#0840112200000001
(1788797246.054025) can0 03FF1000#0840112200000001
(1788797246.159030) can0 03FF1000#0840112200000001
(1788797246.264035) can0 03FF1000#0840112200000001
(1788797246.369044) can0 03FF1000#0840112200000001
(1788797246.474045) can0 03FF1000#0840112200000001
(1788797246.579052) can0 03FF1000#0840112200000001
(1788797246.684056) can0 03FF1000#0840112200000001
(1788797246.789062) can0 03FF1000#0840112200000001
(1788797246.894071) can0 03FF1000#0840112200000001
(1788797246.999074) can0 03FF1000#0840112200000001
(1788797247.104080) can0 03FF1000#0840112200000001
(1788797247.209085) can0 03FF1000#0840112200000001
(1788797247.314090) can0 03FF1000#0840112200000001
(1788797247.419098) can0 03FF1000#0840112200000001
(1788797247.524101) can0 03FF1000#0840112200000001
(1788797247.629107) can0 03FF1000#0840112200000001
(1788797247.734113) can0 03FF1000#0840112200000001
(1788797247.839118) can0 03FF1000#0840112200000001
(1788797247.944126) can0 03FF1000#0840112200000001
(1788797248.049129) can0 03FF1000#0840112200000001
(1788797248.154136) can0 03FF1000#0840112200000001
(1788797248.259140) can0 03FF1000#0840112200000001
(1788797248.364146) can0 03FF1000#0840112200000001
(1788797248.469155) can0 03FF1000#0840112200000001
(1788797248.574158) can0 03FF1000#0840112200000001
(1788797248.679162) can0 03FF1000#0840112200000001
(1788797248.784168) can0 03FF1000#0840112200000001
(1788797248.889174) can0 03FF1000#0840112200000001
(1788797248.994191) can0 03FF1000#0840112200000001
(1788797249.099184) can0 03FF1000#0840112200000001
(1788797249.204190) can0 03FF1000#0840112200000001
(1788797249.309194) can0 03FF1000#0840112200000001
(1788797249.414200) can0 03FF1000#0840112200000001
(1788797249.431207) can0 04FF3400#0000003000000000
(1788797249.519208) can0 03FF1000#0840112200000001
(1788797249.624212) can0 03FF1000#0840112200000001
(1788797249.729217) can0 03FF1000#0840112200000001
(1788797249.834224) can0 03FF1000#0840112200000001
(1788797249.939229) can0 03FF1000#0840112200000001
(1788797250.044239) can0 03FF1000#0840112200000001
(1788797250.149241) can0 03FF1000#0840112200000001
(1788797250.254246) can0 03FF1000#0840112200000001
(1788797250.359252) can0 03FF1000#0840112200000001
(1788797250.464258) can0 03FF1000#0840112200000001
(1788797250.569267) can0 03FF1000#0840112200000001
(1788797250.674269) can0 03FF1000#0840112200000001
(1788797250.779273) can0 03FF1000#0840112200000001
(1788797250.884280) can0 03FF1000#0840112200000001
(1788797250.989286) can0 03FF1000#0840112200000001
(1788797251.094294) can0 03FF1000#0840112200000001
(1788797251.199300) can0 03FF1000#0840112200000001
(1788797251.304301) can0 03FF1000#0840112200000001
(1788797251.409307) can0 03FF1000#0840112200000001
(1788797251.514312) can0 03FF1000#0840112200000001
(1788797251.619322) can0 03FF1000#0840112200000001
(1788797251.724324) can0 03FF1000#0840112200000001
(1788797251.829329) can0 03FF1000#0840112200000001
(1788797251.934334) can0 03FF1000#0840112200000001
(1788797252.039341) can0 03FF1000#0840112200000001
(1788797252.144349) can0 03FF1000#0840112200000001
(1788797252.249352) can0 03FF1000#0840112200000001
(1788797252.354358) can0 03FF1000#0840112200000001
(1788797252.459363) can0 03FF1000#0840112200000001
(1788797252.564369) can0 03FF1000#0840112200000001
(1788797252.669377) can0 03FF1000#0840112200000001
(1788797252.774380) can0 03FF1000#0840112200000001
(1788797252.879385) can0 03FF1000#0840112200000001
(1788797252.984392) can0 03FF1000#0840112200000001
(1788797253.089397) can0 03FF1000#0840112200000001
(1788797253.194407) can0 03FF1000#0840112200000001
(1788797253.299408) can0 03FF1000#0840112200000001
(1788797253.404413) can0 03FF1000#0840112200000001
(1788797253.509420) can0 03FF1000#0840112200000001
(1788797253.614424) can0 03FF1000#0840112200000001
(1788797253.719433) can0 03FF1000#0840112200000001
(1788797253.824437) can0 03FF1000#0840112200000001
(1788797253.929441) can0 03FF1000#0840112200000001
(1788797254.034451) can0 03FF1000#0840112200000001
(1788797254.139454) can0 03FF1000#0840112200000001
(1788797254.244461) can0 03FF1000#0840112200000001
(1788797254.349463) can0 03FF1000#0840112200000001
(1788797254.454473) can0 03FF1000#0840112200000001
(1788797254.559479) can0 03FF1000#0840112200000001
(1788797254.664483) can0 03FF1000#0840112200000001
(1788797254.769490) can0 03FF1000#0840112200000001
(1788797254.874496) can0 03FF1000#0840112200000001
(1788797254.979500) can0 03FF1000#0840112200000001
(1788797255.084503) can0 03FF1000#0840112200000001
(1788797255.189512) can0 03FF1000#0840112200000001
(1788797255.294517) can0 03FF1000#0840112200000001
(1788797255.399522) can0 03FF1000#0840112200000001
(1788797255.503780) can0 03FF1000#0840112200000001
(1788797255.608774) can0 03FF1000#0840112200000001
(1788797255.713770) can0 03FF1000#0840112200000001
(1788797255.818801) can0 03FF1000#0840112200000001
(1788797255.924549) can0 03FF1000#0840112200000001
(1788797256.028784) can0 03FF1000#0840112200000001
(1788797256.133801) can0 03FF1000#0840112200000001
(1788797256.238802) can0 03FF1000#0840112200000001
(1788797256.343816) can0 03FF1000#0840112200000001
(1788797256.449577) can0 03FF1000#0840112200000001
(1788797256.553800) can0 03FF1000#0840112200000001
(1788797256.658789) can0 03FF1000#0840112200000001
(1788797256.763811) can0 03FF1000#0840112200000001
(1788797256.868832) can0 03FF1000#0840112200000001
(1788797256.974604) can0 03FF1000#0840112200000001
(1788797257.078817) can0 03FF1000#0840112200000001
(1788797257.183814) can0 03FF1000#0840112200000001
(1788797257.288818) can0 03FF1000#0840112200000001
(1788797257.393848) can0 03FF1000#0840112200000001
(1788797257.498880) can0 03FF1000#0840112200000001
(1788797257.603821) can0 03FF1000#0840112200000001
(1788797257.708815) can0 03FF1000#0840112200000001
(1788797257.813820) can0 03FF1000#0840112200000001
(1788797257.918848) can0 03FF1000#0840112200000001
(1788797258.023844) can0 03FF1000#0840112200000001
(1788797258.128848) can0 03FF1000#0840112200000001
(1788797258.233823) can0 03FF1000#0840112200000001
(1788797258.338829) can0 03FF1000#0840112200000001
(1788797258.443858) can0 03FF1000#0840112200000001
(1788797258.548874) can0 03FF1000#0840112200000001
(1788797258.653857) can0 03FF1000#0840112200000001
(1788797258.758846) can0 03FF1000#0840112200000001
(1788797258.863846) can0 03FF1000#0840112200000001
(1788797258.968875) can0 03FF1000#0840112200000001
(1788797259.073867) can0 03FF1000#0840112200000001
(1788797259.178857) can0 03FF1000#0840112200000001
(1788797259.283856) can0 03FF1000#0840112200000001
(1788797259.388862) can0 03FF1000#0840112200000001
(1788797259.431738) can0 04FF3400#0000003100000000
(1788797259.493890) can0 03FF1000#0840112200000001
(1788797259.598882) can0 03FF1000#0840112200000001
(1788797259.703878) can0 03FF1000#0840112200000001
(1788797259.808918) can0 03FF1000#0840112200000001
(1788797259.913862) can0 03FF1000#0840112200000001
(1788797260.018896) can0 03FF1000#0840112200000001
(1788797260.123888) can0 03FF1000#0840112200000001
(1788797260.228882) can0 03FF1000#0840112200000001
(1788797260.333918) can0 03FF1000#0840112200000001
(1788797260.438894) can0 03FF1000#0840112200000001
(1788797260.543900) can0 03FF1000#0840112200000001
(1788797260.648916) can0 03FF1000#0840112200000001
(1788797260.753900) can0 03FF1000#0840112200000001
(1788797260.858941) can0 03FF1000#0840112200000001
(1788797260.963897) can0 03FF1000#0840112200000001
(1788797261.068928) can0 03FF1000#0840112200000001
(1788797261.173904) can0 03FF1000#0840112200000001
(1788797261.278915) can0 03FF1000#0840112200000001
(1788797261.383898) can0 03FF1000#0840112200000001
(1788797261.488904) can0 03FF1000#0840112200000001
(1788797261.593917) can0 03FF1000#0840112200000001
(1788797261.698937) can0 03FF1000#0840112200000001
(1788797261.803933) can0 03FF1000#0840112200000001
(1788797261.908914) can0 03FF1000#0840112200000001
(1788797262.013931) can0 03FF1000#0840112200000001
(1788797262.118914) can0 03FF1000#0840112200000001
(1788797262.223941) can0 03FF1000#0840112200000001
(1788797262.328936) can0 03FF1000#0840112200000001
(1788797262.433925) can0 03FF1000#0840112200000001
(1788797262.538936) can0 03FF1000#0840112200000001
(1788797262.643942) can0 03FF1000#0840112200000001
(1788797262.748957) can0 03FF1000#0840112200000001
(1788797262.853937) can0 03FF1000#0840112200000001
(1788797262.958936) can0 03FF1000#0840112200000001
(1788797263.063930) can0 03FF1000#0840112200000001
(1788797263.169009) can0 03FF1000#0840112200000001
(1788797263.273964) can0 03FF1000#0840112200000001
(1788797263.378968) can0 03FF1000#0840112200000001
(1788797263.483951) can0 03FF1000#0840112200000001
(1788797263.588957) can0 03FF1000#0840112200000001
(1788797263.694008) can0 03FF1000#0840112200000001
(1788797263.798982) can0 03FF1000#0840112200000001
(1788797263.903977) can0 03FF1000#0840112200000001
(1788797264.008981) can0 03FF1000#0840112200000001
(1788797264.113990) can0 03FF1000#0840112200000001
(1788797264.218993) can0 03FF1000#0840112200000001
(1788797264.323998) can0 03FF1000#0840112200000001
(1788797264.429003) can0 03FF1000#0840112200000001
(1788797264.534010) can0 03FF1000#0840112200000001
(1788797264.639016) can0 03FF1000#0840112200000001
(1788797264.744022) can0 03FF1000#0840112200000001
(1788797264.849026) can0 03FF1000#0840112200000001
(1788797264.954032) can0 03FF1000#0840112200000001
(1788797265.059039) can0 03FF1000#0840112200000001
(1788797265.164044) can0 03FF1000#0840112200000001
(1788797265.269047) can0 03FF1000#0840112200000001
(1788797265.374050) can0 03FF1000#0840112200000001
(1788797265.479055) can0 03FF1000#0840112200000001
(1788797265.584062) can0 03FF1000#0840112200000001
(1788797265.689068) can0 03FF1000#0840112200000001
(1788797265.794079) can0 03FF1000#0840112200000001
(1788797265.899083) can0 03FF1000#0840112200000001
(1788797266.004083) can0 03FF1000#0840112200000001
(1788797266.109088) can0 03FF1000#0840112200000001
(1788797266.214094) can0 03FF1000#0840112200000001
(1788797266.319104) can0 03FF1000#0840112200000001
(1788797266.424107) can0 03FF1000#0840112200000001
(1788797266.529112) can0 03FF1000#0840112200000001
(1788797266.634118) can0 03FF1000#0840112200000001
(1788797266.739124) can0 03FF1000#0840112200000001
(1788797266.755123) can0 02417500#
(1788797266.755178) can0 02417500#
(1788797266.755381) can0 02417500#
(1788797266.763124) can0 08F97500#000000F400000000
(1788797266.768125) can0 08F97500#000000F400000000
(1788797266.773122) can0 08F97500#000000F400000000
(1788797266.773174) can0 02417501#
(1788797266.773325) can0 02417501#
(1788797266.774123) can0 02417501#
(1788797266.782381) can0 08F97501#0000001500000000
(1788797266.787341) can0 08F97501#0000001500000000
(1788797266.792297) can0 08F97501#0000001500000000
(1788797266.793123) can0 02519500#
(1788797266.793351) can0 02519500#
(1788797266.794124) can0 02519500#
(1788797266.844130) can0 03FF1000#0840112200000001
(1788797266.949135) can0 03FF1000#0840112200000001
(1788797267.053186) can0 02294609#
(1788797267.054140) can0 03FF1000#0840112200000001
(1788797267.055137) can0 05124609#010003CA03CA00
(1788797267.159146) can0 03FF1000#0840112200000001
(1788797267.254181) can0 0258A604#0000000000000000
(1788797267.264152) can0 03FF1000#0840112200000001
(1788797267.369158) can0 03FF1000#0840112200000001
(1788797267.474164) can0 03FF1000#0840112200000001
(1788797267.544166) can0 02294601#
(1788797267.545329) can0 05124601#007300000000
(1788797267.579169) can0 03FF1000#0840112200000001
(1788797267.684174) can0 03FF1000#0840112200000001
(1788797267.764243) can0 0258A604#0000000000000000
(1788797267.789180) can0 03FF1000#0840112200000001
(1788797267.814181) can0 02519501#
(1788797267.814247) can0 02519501#
(1788797267.815178) can0 02519501#
(1788797267.894184) can0 03FF1000#0840112200000001
(1788797267.999188) can0 03FF1000#0840112200000001
(1788797268.054191) can0 02294602#
(1788797268.055341) can0 05124602#0B10101011101010
(1788797268.104194) can0 03FF1000#0840112200000001
(1788797268.154324) can0 02294500#
(1788797268.155196) can0 02294501#
(1788797268.155246) can0 02203607#0000000300000000
(1788797268.156195) can0 05124500#0500
(1788797268.156262) can0 05124501#0103
(1788797268.174266) can0 02294503#
(1788797268.176197) can0 05124503#00150C0900000C62
(1788797268.209199) can0 03FF1000#0840112200000001
(1788797268.213199) can0 02294609#
(1788797268.214199) can0 05124609#010003CA03CA00
(1788797268.244305) can0 02294611#
(1788797268.245339) can0 05124611#0061368C00003528
(1788797268.287423) can0 0258A604#0000000000000000
(1788797268.314206) can0 03FF1000#0840112200000001
(1788797268.419211) can0 03FF1000#0840112200000001
(1788797268.427211) can0 02181606#0100190001030200
(1788797268.476213) can0 03FF1600#142B000104001319
(1788797268.486456) can0 03FF1601#6E50000000000000
(1788797268.497214) can0 03FF1602#000005000000157C
(1788797268.507469) can0 03FF1604#0000000000000000
(1788797268.529216) can0 03FF1000#0840112200000001
(1788797268.535216) can0 02181606#0100190001030200
(1788797268.539215) can0 03FF1001#0000000000000000
(1788797268.549483) can0 03FF1603#0000D05700000000
(1788797268.560216) can0 03FF1605#0100000000000000
(1788797268.562256) can0 05FF4610#0000D0DDFFFFFFDA
(1788797268.570444) can0 03121606#0100000000000000
(1788797268.572218) can0 02294603#
(1788797268.572284) can0 05124603#1110101013101310
(1788797268.634223) can0 03FF1000#0840112200000001
(1788797268.644222) can0 03FF1001#0000000000000000
(1788797268.645222) can0 02181606#0100190001030200
(1788797268.654443) can0 03FF1603#0000D05700000000
(1788797268.665223) can0 03FF1605#0100000000000000
(1788797268.675466) can0 03121606#0000000000000000
(1788797268.690271) can0 05FF4001#0000000000000000
(1788797268.692295) can0 05FF4000#0000000000000000
(1788797268.739227) can0 03FF1000#0840112200000001
(1788797268.749227) can0 03FF1001#0000000000000000
(1788797268.759472) can0 03FF1603#0000D05700000000
(1788797268.770229) can0 03FF1605#0100000000000000
(1788797268.772263) can0 05FF4602#0B10101011100F10
(1788797268.780467) can0 03121606#0000000000000000
(1788797268.794253) can0 05FF4603#1110101013101310
(1788797268.795231) can0 0258A604#0000000000000000
(1788797268.804243) can0 05FF4604#1110111014101510
(1788797268.814277) can0 05FF4605#1010000000000000
(1788797268.835406) can0 05FF4610#0000D0DDFFFFFFDA
(1788797268.843487) can0 03FF1000#0840112200000001
(1788797268.845232) can0 05FF4606#1E1E1D
(1788797268.854233) can0 03FF1001#0000000000000000
(1788797268.854346) can0 05FF4607#1E1D1D
(1788797268.864234) can0 05FF4608#0019007C
(1788797268.865233) can0 03FF1603#0000D05700000000
(1788797268.874234) can0 05FF4609#010003CA03CA00
(1788797268.875234) can0 03FF1605#0100000000000000
(1788797268.948481) can0 03FF1000#0840112200000001
(1788797268.959239) can0 03FF1001#0000000000000000
(1788797268.969459) can0 03FF1603#0000D05700000000
(1788797268.980239) can0 03FF1605#0100000000000000
(1788797269.024242) can0 05FF4400#0000000C
(1788797269.054244) can0 03FF1000#0840112200000001
(1788797269.064245) can0 03FF1001#0000000000000000
(1788797269.074453) can0 03FF1603#0000D05700000000
(1788797269.075244) can0 05FF4600#0D0300900303
(1788797269.075311) can0 02294604#
(1788797269.076244) can0 05124604#1110111014101510
(1788797269.085245) can0 03FF1605#0100000000000000
(1788797269.096275) can0 05FF4610#0000D0DDFFFFFFDA
(1788797269.124250) can0 05FF4601#007300000000
(1788797269.156250) can0 02191602#0000000000000000
(1788797269.158480) can0 03FF1000#0840112200000001
(1788797269.169249) can0 03FF1001#0000000000000000
(1788797269.179482) can0 03FF1603#0000D05700000000
(1788797269.190251) can0 03FF1605#0100000000000000
(1788797269.263510) can0 03FF1000#0840112200000001
(1788797269.274256) can0 03FF1001#0000000000000000
(1788797269.284464) can0 03FF1603#0000D05700000000
(1788797269.295256) can0 03FF1605#0100000000000000
(1788797269.306259) can0 0258A604#0000000000000000
(1788797269.358284) can0 05FF4610#0000D0DDFFFFFFDA
(1788797269.368504) can0 03FF1000#0840112200000001
(1788797269.379261) can0 03FF1001#0000000000000000
(1788797269.389481) can0 03FF1603#0000D05700000000
(1788797269.400262) can0 03FF1605#0100000000000000
(1788797269.431264) can0 04FF3400#0000003200000000
(1788797269.473493) can0 03FF1000#0840112200000001
(1788797269.484267) can0 03FF1001#0000000000000000
(1788797269.494487) can0 03FF1603#0000D05700000000
(1788797269.505268) can0 03FF1605#0100000000000000
(1788797269.515484) can0 03FF1600#142B000104001319
(1788797269.526269) can0 03FF1601#6E50000000000000
(1788797269.536466) can0 03FF1602#000005000000157C
(1788797269.547270) can0 03FF1604#0000000000000000
(1788797269.578502) can0 03FF1000#0840112200000001
(1788797269.586272) can0 02294605#
(1788797269.587283) can0 05124605#1010000000000000
(1788797269.589271) can0 03FF1001#0000000000000000
(1788797269.599476) can0 03FF1603#0000D05700000000
(1788797269.610274) can0 03FF1605#0100000000000000
(1788797269.647276) can0 05FF4610#0000D0DBFFFFFFCA
(1788797269.683532) can0 03FF1000#0840112200000001
(1788797269.694277) can0 03FF1001#0000000000000000
(1788797269.704464) can0 03FF1603#0000D05700000000
(1788797269.715280) can0 03FF1605#0100000000000000
(1788797269.733314) can0 05FF4001#0000000000000000
(1788797269.735441) can0 05FF4000#0000000000000000
(1788797269.788538) can0 03FF1000#0840112200000001
(1788797269.799283) can0 03FF1001#0000000000000000
(1788797269.809494) can0 03FF1400#0000000200000000
(1788797269.820285) can0 03FF1603#0000D05700000000
(1788797269.827285) can0 05FF4602#0B10101010101010
(1788797269.830539) can0 03FF1605#0100000000000000
(1788797269.837285) can0 05FF4603#11100F1012101310
(1788797269.847285) can0 05FF4604#1110111014101510
(1788797269.857287) can0 05FF4605#1010000000000000
(1788797269.888288) can0 05FF4606#1E1E1D
(1788797269.893519) can0 03FF1000#0840112200000001
(1788797269.898289) can0 05FF4607#1E1D1D
(1788797269.904289) can0 03FF1001#0000000000000000
(1788797269.908288) can0 05FF4608#0019007C
(1788797269.914487) can0 03FF1603#0000D05700000000
(1788797269.918290) can0 05FF4609#010003CA03CA00
(1788797269.922290) can0 05FF4610#0000D0DBFFFFFFCA
(1788797269.925289) can0 03FF1605#0100000000000000
(1788797269.998502) can0 03FF1000#0840112200000001
(1788797270.009295) can0 03FF1001#0000000000000000
(1788797270.019492) can0 03FF1603#0000D05700000000
(1788797270.030295) can0 03FF1605#0100000000000000
(1788797270.103531) can0 03FF1000#0840112200000001
(1788797270.114300) can0 03FF1001#0000000000000000
(1788797270.116300) can0 02294606#
(1788797270.117300) can0 05124606#1E1E1D
(1788797270.124485) can0 03FF1603#0000D05700000000
(1788797270.135302) can0 03FF1605#0100000000000000
(1788797270.177303) can0 02FF2602#EFAB9FC5367D8DEB
(1788797270.177358) can0 02294609#0000000000000000
(1788797270.179303) can0 05124609#030003CA03CA00
(1788797270.184303) can0 05FF4610#0000D0DBFFFFFFCA
(1788797270.209306) can0 03FF1000#0840112200000001
(1788797270.219491) can0 03FF1001#0000000000000000
(1788797270.230307) can0 03FF1603#0000D05700000000
(1788797270.240515) can0 03FF1605#0100000000000000
(1788797270.314311) can0 03FF1000#0840112200000001
(1788797270.324521) can0 03FF1001#0000000000000000
(1788797270.335312) can0 03FF1603#0000D05700000000
(1788797270.345516) can0 03FF1605#0100000000000000
(1788797270.419317) can0 03FF1000#0840112200000001
(1788797270.429513) can0 03FF1001#0000000000000000
(1788797270.440317) can0 03FF1603#0000D05700000000
(1788797270.449330) can0 05FF4610#0000D0DBFFFFFFCA
(1788797270.450537) can0 03FF1605#0100000000000000
(1788797270.492548) can0 03FF1600#142B000104001319
(1788797270.503324) can0 03FF1601#6E50000000000000
(1788797270.513471) can0 03FF1602#000005000000157C
(1788797270.524321) can0 03FF1604#0000000000000000
(1788797270.534565) can0 03FF1000#0840112200000001
(1788797270.545322) can0 03FF1001#0000000000000000
(1788797270.555480) can0 03FF1603#0000D05700000000
(1788797270.566324) can0 03FF1605#0100000000000000
(1788797270.617326) can0 02294607#
(1788797270.618326) can0 05124607#1E1D1D
(1788797270.629326) can0 03FF1000#0840112200000001
(1788797270.639523) can0 03FF1001#0000000000000000
(1788797270.650327) can0 03FF1603#0000D05700000000
(1788797270.660525) can0 03FF1605#0100000000000000
(1788797270.687330) can0 02FF2602#EFAB9FC5367D8DEB
(1788797270.688330) can0 02294609#0000000000000000
(1788797270.689329) can0 05124609#030003CA03CA00
(1788797270.734333) can0 03FF1000#0840112200000001
(1788797270.743340) can0 05FF4610#0000D0DCFFFFFFCA
(1788797270.744541) can0 03FF1001#0000000000000000
(1788797270.755333) can0 03FF1603#0000D05700000000
(1788797270.765519) can0 03FF1605#0100000000000000
(1788797270.797355) can0 05FF4001#0000000000000000
(1788797270.799358) can0 05FF4000#0000000000000000
(1788797270.827337) can0 02181606#0100190001030200
(1788797270.839342) can0 03FF1000#0840112200000001
(1788797270.849538) can0 03FF1001#0000000000000000
(1788797270.860341) can0 03FF1603#0000D05700000000
(1788797270.870537) can0 03FF1605#0100000000000000
(1788797270.879340) can0 05FF4602#0B10101011101010
(1788797270.881343) can0 03121606#0000000000000000
(1788797270.890344) can0 05FF4603#11100F1012101310
(1788797270.900342) can0 05FF4604#1110111014101510
(1788797270.910364) can0 05FF4605#1010000000000000
(1788797270.940344) can0 05FF4606#1E1E1D
(1788797270.944343) can0 03FF1000#0840112200000001
(1788797270.950343) can0 05FF4607#1E1D1D
(1788797270.954529) can0 03FF1001#0000000000000000
(1788797270.960344) can0 05FF4608#0019007C
(1788797270.965344) can0 03FF1603#0000D05700000000
(1788797270.970344) can0 05FF4609#030003CA03CA00
(1788797270.975518) can0 03FF1605#0100000000000000
(1788797271.019348) can0 05FF4610#0000D0DCFFFFFFCA
(1788797271.049349) can0 03FF1000#0840112200000001
(1788797271.059558) can0 03FF1001#0000000000000000
(1788797271.070350) can0 03FF1603#0000D05700000000
(1788797271.080531) can0 03FF1605#0100000000000000
(1788797271.127358) can0 02294609#
(1788797271.128356) can0 05124609#030003CA03CA00
(1788797271.154355) can0 03FF1000#0840112200000001
(1788797271.164563) can0 03FF1001#0000000000000000
(1788797271.175357) can0 03FF1603#0000D05700000000
(1788797271.185530) can0 03FF1605#0100000000000000
(1788797271.259361) can0 03FF1000#0840112200000001
(1788797271.269529) can0 03FF1001#0000000000000000
(1788797271.280362) can0 03FF1603#0000D05700000000
(1788797271.284361) can0 05FF4610#0000D0DCFFFFFFCA
(1788797271.290547) can0 03FF1605#0100000000000000
(1788797271.338364) can0 02191602#0000000000000000
(1788797271.364369) can0 03FF1000#0840112200000001
(1788797271.374543) can0 03FF1001#0000000000000000
(1788797271.385367) can0 03FF1603#0000D05700000000
(1788797271.395529) can0 03FF1605#0100000000000000
(1788797271.469372) can0 03FF1000#0840112200000001
(1788797271.479533) can0 03FF1001#0000000000000000
(1788797271.490372) can0 03FF1603#0000D05700000000
(1788797271.500565) can0 03FF1605#0100000000000000
(1788797271.511374) can0 03FF1600#142B000104001319
(1788797271.521524) can0 03FF1601#6E50000000000000
(1788797271.532375) can0 03FF1602#000005000000157C
(1788797271.542533) can0 03FF1604#0000000000000000
(1788797271.574377) can0 03FF1000#0840112200000001
(1788797271.576377) can0 05FF4610#0000D0DBFFFFFFCA
(1788797271.584539) can0 03FF1001#0000000000000000
(1788797271.595378) can0 03FF1603#0000D05700000000
(1788797271.605505) can0 03FF1605#0100000000000000
(1788797271.638384) can0 02294610#
(1788797271.638433) can0 05124610#0000D0DBFFFFFFCA
(1788797271.679383) can0 03FF1000#0840112200000001
(1788797271.689545) can0 03FF1001#0000000000000000
(1788797271.700383) can0 03FF1603#0000D05700000000
(1788797271.710547) can0 03FF1605#0100000000000000
(1788797271.784388) can0 03FF1000#0840112200000001
(1788797271.794550) can0 03FF1001#0000000000000000
(1788797271.805389) can0 03FF1603#0000D05700000000
(1788797271.815529) can0 03FF1605#0100000000000000
(1788797271.853392) can0 05FF4001#0000000000000000
(1788797271.854396) can0 05FF4610#0000D0DBFFFFFFCA
(1788797271.855533) can0 05FF4000#0000000000000000
(1788797271.889396) can0 03FF1000#0840112200000001
(1788797271.898397) can0 13B16001#
(1788797271.898451) can0 13B16001#
(1788797271.898582) can0 13B16001#
(1788797271.899539) can0 03FF1001#0000000000000000
(1788797271.910394) can0 03FF1603#0000D05700000000
(1788797271.920546) can0 03FF1605#0100000000000000
(1788797271.935430) can0 05FF4602#0B10101010101010
(1788797271.945419) can0 05FF4603#11100F1012101310
(1788797271.955420) can0 05FF4604#1110111014101510
(1788797271.965466) can0 05FF4605#1010000000000000
(1788797271.994399) can0 03FF1000#0840112200000001
(1788797271.995399) can0 05FF4606#1E1E1D
(1788797272.004551) can0 03FF1001#0000000000000000
(1788797272.005399) can0 05FF4607#1E1D1D
(1788797272.015400) can0 03FF1603#0000D05700000000
(1788797272.015462) can0 05FF4608#0019007C
(1788797272.025424) can0 05FF4609#030003CA03CA00
(1788797272.026400) can0 03FF1605#0100000000000000
(1788797272.099405) can0 03FF1000#0840112200000001
(1788797272.109544) can0 03FF1001#0000000000000000
(1788797272.116406) can0 05FF4610#0000D0DBFFFFFFCA
(1788797272.120405) can0 03FF1603#0000D05700000000
(1788797272.130572) can0 03FF1605#0100000000000000
(1788797272.148411) can0 02294611#
(1788797272.149407) can0 05124611#0061368C00003527
(1788797272.204411) can0 03FF1000#0840112200000001
(1788797272.214585) can0 03FF1001#0000000000000000
(1788797272.225411) can0 03FF1603#0000D05700000000
(1788797272.235550) can0 03FF1605#0100000000000000
(1788797272.309415) can0 03FF1000#0840112200000001
(1788797272.319543) can0 03FF1001#0000000000000000
(1788797272.330417) can0 03FF1603#0000D05700000000
(1788797272.340556) can0 03FF1605#0100000000000000
(1788797272.359418) can0 02FF2602#45A31D8D26E3313F
(1788797272.359473) can0 02294609#0000000000000000
(1788797272.361422) can0 05124609#030003CA03CA00
(1788797272.369421) can0 02181606#0000000000030200
(1788797272.372423) can0 03FF1605#0000000000000000
(1788797272.499430) can0 02181606#0100190001030200
(1788797272.539429) can0 1FF8B028#0000000000000000
(1788797272.575430) can0 03FF1000#0840112200000001
(1788797272.585546) can0 03FF1605#0000000000000000
(1788797272.596431) can0 03121606#0100000000000000
(1788797272.609512) can0 02181606#0100190001030200
(1788797272.648566) can0 03FF1000#0840112200000001
(1788797272.659437) can0 03FF1001#0000000000000000
(1788797272.661434) can0 02294500#
(1788797272.662434) can0 05124500#0500
(1788797272.669550) can0 03FF1603#0000D05700000000
(1788797272.680436) can0 03FF1605#0100000000000000
(1788797272.682436) can0 05FF4610#0000D0DDFFFFFFCA
(1788797272.690524) can0 03121606#0000000000000000
(1788797272.719437) can0 02181606#0100190001030200
(1788797272.753555) can0 03FF1000#0840112200000001
(1788797272.764439) can0 03FF1001#0000000000000000
(1788797272.774544) can0 03FF1603#0000D05700000000
(1788797272.785441) can0 03FF1605#0100000000000000
(1788797272.795557) can0 03121606#0000000000000000
(1788797272.825479) can0 05FF4001#0000000000000000
(1788797272.827443) can0 05FF4000#0000000000000000
(1788797272.858573) can0 03FF1000#0840112200000001
(1788797272.869446) can0 03FF1001#0000000000000000
(1788797272.879543) can0 03FF1603#0000D05700000000
(1788797272.890450) can0 03FF1605#0100000000000000
(1788797272.900566) can0 03121606#0000000000000000
(1788797272.907448) can0 05FF4602#0B10101011101010
(1788797272.917448) can0 05FF4603#11100F1013101310
(1788797272.919448) can0 02519500#
(1788797272.919514) can0 02519500#
(1788797272.919569) can0 02519500#
(1788797272.927448) can0 05FF4604#1110111014101510
(1788797272.937449) can0 05FF4605#1010000000000000
(1788797272.958451) can0 05FF4610#0000D0DDFFFFFFCA
(1788797272.963588) can0 03FF1000#0840112200000001
(1788797272.967450) can0 05FF4606#1E1E1D
(1788797272.974451) can0 03FF1001#0000000000000000
(1788797272.977451) can0 05FF4607#1E1D1D
(1788797272.984521) can0 03FF1603#0000D05700000000
(1788797272.987451) can0 05FF4608#0019007C
(1788797272.995452) can0 03FF1605#0100000000000000
(1788797272.997452) can0 05FF4609#010003CA03CA00
(1788797273.068573) can0 03FF1000#0840112200000001
(1788797273.079457) can0 03FF1001#0000000000000000
(1788797273.089557) can0 03FF1603#0000D05700000000
(1788797273.100457) can0 03FF1605#0100000000000000
(1788797273.147464) can0 05FF4400#0000000D
(1788797273.169464) can0 02294501#
(1788797273.170461) can0 05124501#0103
(1788797273.173660) can0 03FF1000#0840112200000001
(1788797273.184462) can0 03FF1001#0000000000000000
(1788797273.194557) can0 03FF1603#0000D05700000000
(1788797273.198462) can0 05FF4600#0D0300900303
(1788797273.205462) can0 03FF1605#0100000000000000
(1788797273.219488) can0 02181606#0000000000030200
(1788797273.220464) can0 02203606#0200000000000000
(1788797273.220618) can0 05FF4610#0000D0DDFFFFFFCA
(1788797273.226465) can0 03FF1605#0000000000000000
(1788797273.229464) can0 02181606#0000000000030200
(1788797273.230464) can0 02203606#0200000000000000
(1788797273.239465) can0 02181606#0000000000030200
(1788797273.240465) can0 02203606#0200000000000000
(1788797273.249628) can0 02203607#0000000300000000
(1788797273.393474) can0 1FF8B028#0000000000000000
(1788797273.403480) can0 03FF1000#0840112200000001
(1788797273.413674) can0 03FF1605#0000000000000000
(1788797273.424478) can0 03121606#0100000000000000
(1788797273.497666) can0 03FF1000#0840112200000001
(1788797273.508479) can0 03121606#0100000000000000
(1788797273.602717) can0 03FF1000#0840112200000001
(1788797273.613485) can0 03121606#0100000000000000
(1788797273.707692) can0 03FF1000#0840112200000001
(1788797273.812678) can0 03FF1000#0840112200000001
(1788797273.917664) can0 03FF1000#0840112200000001
(1788797273.941504) can0 02519501#
(1788797273.941559) can0 02519501#
(1788797273.941613) can0 02519501#
(1788797274.022670) can0 03FF1000#0840112200000001
(1788797274.127734) can0 03FF1000#0840112200000001
(1788797274.232705) can0 03FF1000#0840112200000001
(1788797274.260619) can0 02203607#0000000300000000
(1788797274.337687) can0 03FF1000#0840112200000001
(1788797274.442680) can0 03FF1000#0840112200000001
(1788797274.547699) can0 03FF1000#0840112200000001
(1788797274.652734) can0 03FF1000#0840112200000001
(1788797274.757710) can0 03FF1000#0840112200000001
(1788797274.862691) can0 03FF1000#0840112200000001
(1788797274.967685) can0 03FF1000#0840112200000001
(1788797275.072704) can0 03FF1000#0840112200000001
(1788797275.177726) can0 03FF1000#0840112200000001
(1788797275.271578) can0 02203607#0000000300000000
(1788797275.282724) can0 03FF1000#0840112200000001
(1788797275.387703) can0 03FF1000#0840112200000001
(1788797275.492701) can0 03FF1000#0840112200000001
(1788797275.597709) can0 03FF1000#0840112200000001
(1788797275.702736) can0 03FF1000#0840112200000001
(1788797275.807725) can0 03FF1000#0840112200000001
(1788797275.912724) can0 03FF1000#0840112200000001
(1788797276.017718) can0 03FF1000#0840112200000001
(1788797276.122714) can0 03FF1000#0840112200000001
(1788797276.227730) can0 03FF1000#0840112200000001
(1788797276.301652) can0 02203607#0000000300000000
(1788797276.332745) can0 03FF1000#0840112200000001
(1788797276.437729) can0 03FF1000#0840112200000001
(1788797276.542717) can0 03FF1000#0840112200000001
(1788797276.647728) can0 03FF1000#0840112200000001
(1788797276.752756) can0 03FF1000#0840112200000001
(1788797276.857750) can0 03FF1000#0840112200000001
(1788797276.962797) can0 03FF1000#0840112200000001
(1788797277.067739) can0 03FF1000#0840112200000001
(1788797277.172734) can0 03FF1000#0840112200000001
(1788797277.277773) can0 03FF1000#0840112200000001
(1788797277.382767) can0 03FF1000#0840112200000001
(1788797277.487807) can0 03FF1000#0840112200000001
(1788797277.592743) can0 03FF1000#0840112200000001
(1788797277.697751) can0 03FF1000#0840112200000001
(1788797277.802773) can0 03FF1000#0840112200000001
(1788797277.907784) can0 03FF1000#0840112200000001
(1788797278.012823) can0 03FF1000#0840112200000001
(1788797278.023939) can0 13B16001#
(1788797278.024719) can0 13B16001#
(1788797278.024775) can0 13B16001#
(1788797278.117765) can0 03FF1000#0840112200000001
(1788797278.222778) can0 03FF1000#0840112200000001
(1788797278.327782) can0 03FF1000#0840112200000001
(1788797278.432800) can0 03FF1000#0840112200000001
(1788797278.537783) can0 03FF1000#0840112200000001
(1788797278.642764) can0 03FF1000#0840112200000001
(1788797278.747778) can0 03FF1000#0840112200000001
(1788797278.852799) can0 03FF1000#0840112200000001
(1788797278.957805) can0 03FF1000#0840112200000001
(1788797279.062798) can0 03FF1000#0840112200000001
(1788797279.167788) can0 03FF1000#0840112200000001
(1788797279.272787) can0 03FF1000#0840112200000001
(1788797279.377816) can0 03FF1000#0840112200000001
(1788797279.430875) can0 04FF3400#0000003300000000
(1788797279.482810) can0 03FF1000#0840112200000001
(1788797279.587803) can0 03FF1000#0840112200000001
(1788797279.692812) can0 03FF1000#0840112200000001
(1788797279.797814) can0 03FF1000#0840112200000001
(1788797279.902820) can0 03FF1000#0840112200000001
(1788797280.007826) can0 03FF1000#0840112200000001
(1788797280.112832) can0 03FF1000#0840112200000001
(1788797280.217837) can0 03FF1000#0840112200000001
(1788797280.322851) can0 03FF1000#0840112200000001
(1788797280.427848) can0 03FF1000#0840112200000001
(1788797280.532853) can0 03FF1000#0840112200000001
(1788797280.637859) can0 03FF1000#0840112200000001
(1788797280.742865) can0 03FF1000#0840112200000001
(1788797280.847883) can0 03FF1000#0840112200000001
(1788797280.952877) can0 03FF1000#0840112200000001
(1788797281.057883) can0 03FF1000#0840112200000001
(1788797281.162894) can0 03FF1000#0840112200000001
(1788797281.267896) can0 03FF1000#0840112200000001
(1788797281.372901) can0 03FF1000#0840112200000001
(1788797281.477904) can0 03FF1000#0840112200000001
(1788797281.582911) can0 03FF1000#0840112200000001
(1788797281.687915) can0 03FF1000#0840112200000001
(1788797281.792920) can0 03FF1000#0840112200000001
(1788797281.897929) can0 03FF1000#0840112200000001
(1788797282.002933) can0 03FF1000#0840112200000001
(1788797282.107938) can0 03FF1000#0840112200000001
(1788797282.212943) can0 03FF1000#0840112200000001
(1788797282.317950) can0 03FF1000#0840112200000001
(1788797282.422958) can0 03FF1000#0840112200000001
(1788797282.527961) can0 03FF1000#0840112200000001
(1788797282.632966) can0 03FF1000#0840112200000001
(1788797282.737971) can0 03FF1000#0840112200000001
(1788797282.842977) can0 03FF1000#0840112200000001
(1788797282.947985) can0 03FF1000#0840112200000001
(1788797283.052988) can0 03FF1000#0840112200000001
(1788797283.157995) can0 03FF1000#0840112200000001
(1788797283.262999) can0 03FF1000#0840112200000001
(1788797283.368004) can0 03FF1000#0840112200000001
(1788797283.473012) can0 03FF1000#0840112200000001
(1788797283.578016) can0 03FF1000#0840112200000001
(1788797283.683021) can0 03FF1000#0840112200000001
(1788797283.788027) can0 03FF1000#0840112200000001
(1788797283.893031) can0 03FF1000#0840112200000001
(1788797283.998040) can0 03FF1000#0840112200000001
(1788797284.103045) can0 03FF1000#0840112200000001
(1788797284.208051) can0 03FF1000#0840112200000001
(1788797284.313055) can0 03FF1000#0840112200000001
(1788797284.418061) can0 03FF1000#0840112200000001
(1788797284.523068) can0 03FF1000#0840112200000001
(1788797284.628072) can0 03FF1000#0840112200000001
(1788797284.733077) can0 03FF1000#0840112200000001
(1788797284.838083) can0 03FF1000#0840112200000001
(1788797284.943088) can0 03FF1000#0840112200000001
(1788797285.048096) can0 03FF1000#0840112200000001
(1788797285.153099) can0 03FF1000#0840112200000001
(1788797285.258105) can0 03FF1000#0840112200000001
(1788797285.363112) can0 03FF1000#0840112200000001
(1788797285.468117) can0 03FF1000#0840112200000001
(1788797285.573124) can0 03FF1000#0840112200000001
(1788797285.678128) can0 03FF1000#0840112200000001
(1788797285.783133) can0 03FF1000#0840112200000001
(1788797285.888139) can0 03FF1000#0840112200000001
(1788797285.993145) can0 03FF1000#0840112200000001
(1788797286.098151) can0 03FF1000#0840112200000001
(1788797286.203158) can0 03FF1000#0840112200000001
(1788797286.308161) can0 03FF1000#0840112200000001
(1788797286.413172) can0 03FF1000#0840112200000001
(1788797286.518173) can0 03FF1000#0840112200000001
(1788797286.623180) can0 03FF1000#0840112200000001
(1788797286.728183) can0 03FF1000#0840112200000001
(1788797286.833189) can0 03FF1000#0840112200000001
(1788797286.938194) can0 03FF1000#0840112200000001
(1788797287.043201) can0 03FF1000#0840112200000001
(1788797287.148214) can0 03FF1000#0840112200000001
(1788797287.253214) can0 03FF1000#0840112200000001
(1788797287.358216) can0 03FF1000#0840112200000001
(1788797287.463225) can0 03FF1000#0840112200000001
(1788797287.568230) can0 03FF1000#0840112200000001
(1788797287.673235) can0 03FF1000#0840112200000001
(1788797287.778240) can0 03FF1000#0840112200000001
(1788797287.883244) can0 03FF1000#0840112200000001
(1788797287.988250) can0 03FF1000#0840112200000001
(1788797288.093257) can0 03FF1000#0840112200000001
(1788797288.198263) can0 03FF1000#0840112200000001
(1788797288.303267) can0 03FF1000#0840112200000001
(1788797288.408274) can0 03FF1000#0840112200000001
(1788797288.513277) can0 03FF1000#0840112200000001
(1788797288.618285) can0 03FF1000#0840112200000001
(1788797288.723291) can0 03FF1000#0840112200000001
(1788797288.828294) can0 03FF1000#0840112200000001
(1788797288.933299) can0 03FF1000#0840112200000001
(1788797289.038307) can0 03FF1000#0840112200000001
(1788797289.143313) can0 03FF1000#0840112200000001
(1788797289.248320) can0 03FF1000#0840112200000001
(1788797289.353324) can0 03FF1000#0840112200000001
(1788797289.431327) can0 04FF3400#0000003400000000
(1788797289.458328) can0 03FF1000#0840112200000001
(1788797289.563333) can0 03FF1000#0840112200000001
(1788797289.668340) can0 03FF1000#0840112200000001
(1788797289.773346) can0 03FF1000#0840112200000001
(1788797289.878350) can0 03FF1000#0840112200000001
(1788797289.983357) can0 03FF1000#0840112200000001
(1788797290.088362) can0 03FF1000#0840112200000001
(1788797290.193367) can0 03FF1000#0840112200000001
(1788797290.298374) can0 03FF1000#0840112200000001
(1788797290.403378) can0 03FF1000#0840112200000001
(1788797290.508384) can0 03FF1000#0840112200000001
(1788797290.613390) can0 03FF1000#0840112200000001
(1788797290.718395) can0 03FF1000#0840112200000001
(1788797290.823405) can0 03FF1000#0840112200000001
(1788797290.928406) can0 03FF1000#0840112200000001
(1788797291.033412) can0 03FF1000#0840112200000001
(1788797291.138419) can0 03FF1000#0840112200000001
(1788797291.243423) can0 03FF1000#0840112200000001
(1788797291.348430) can0 03FF1000#0840112200000001
(1788797291.453434) can0 03FF1000#0840112200000001
(1788797291.558439) can0 03FF1000#0840112200000001
(1788797291.663445) can0 03FF1000#0840112200000001
(1788797291.768451) can0 03FF1000#0840112200000001
(1788797291.873457) can0 03FF1000#0840112200000001
(1788797291.978462) can0 03FF1000#0840112200000001
(1788797292.083468) can0 03FF1000#0840112200000001
(1788797292.188473) can0 03FF1000#0840112200000001
(1788797292.293478) can0 03FF1000#0840112200000001
(1788797292.398485) can0 03FF1000#0840112200000001
(1788797292.503490) can0 03FF1000#0840112200000001
(1788797292.608497) can0 03FF1000#0840112200000001
(1788797292.713502) can0 03FF1000#0840112200000001
(1788797292.818507) can0 03FF1000#0840112200000001
(1788797292.923515) can0 03FF1000#0840112200000001
(1788797293.028517) can0 03FF1000#0840112200000001
(1788797293.133529) can0 03FF1000#0840112200000001
(1788797293.238533) can0 03FF1000#0840112200000001
(1788797293.343534) can0 03FF1000#0840112200000001
(1788797293.448543) can0 03FF1000#0840112200000001
(1788797293.553546) can0 03FF1000#0840112200000001
(1788797293.658552) can0 03FF1000#0840112200000001
(1788797293.763557) can0 03FF1000#0840112200000001
(1788797293.868563) can0 03FF1000#0840112200000001
(1788797293.973570) can0 03FF1000#0840112200000001
(1788797294.078574) can0 03FF1000#0840112200000001
(1788797294.183582) can0 03FF1000#0840112200000001
(1788797294.288585) can0 03FF1000#0840112200000001
(1788797294.393591) can0 03FF1000#0840112200000001
(1788797294.498597) can0 03FF1000#0840112200000001
(1788797294.603601) can0 03FF1000#0840112200000001
(1788797294.708608) can0 03FF1000#0840112200000001
(1788797294.813613) can0 03FF1000#0840112200000001
(1788797294.918619) can0 03FF1000#0840112200000001
(1788797295.023627) can0 03FF1000#0840112200000001
(1788797295.128631) can0 03FF1000#0840112200000001
(1788797295.233635) can0 03FF1000#0840112200000001
(1788797295.338640) can0 03FF1000#0840112200000001
(1788797295.443647) can0 03FF1000#0840112200000001
(1788797295.548655) can0 03FF1000#0840112200000001
(1788797295.653657) can0 03FF1000#0840112200000001
(1788797295.758663) can0 03FF1000#0840112200000001
(1788797295.863668) can0 03FF1000#0840112200000001
(1788797295.968675) can0 03FF1000#0840112200000001
(1788797296.073682) can0 03FF1000#0840112200000001
(1788797296.178686) can0 03FF1000#0840112200000001
(1788797296.283691) can0 03FF1000#0840112200000001
(1788797296.388696) can0 03FF1000#0840112200000001
(1788797296.493702) can0 03FF1000#0840112200000001
(1788797296.598711) can0 03FF1000#0840112200000001
(1788797296.703715) can0 03FF1000#0840112200000001
(1788797296.808719) can0 03FF1000#0840112200000001
(1788797296.913725) can0 03FF1000#0840112200000001
(1788797297.018731) can0 03FF1000#0840112200000001
(1788797297.123738) can0 03FF1000#0840112200000001
(1788797297.228741) can0 03FF1000#0840112200000001
(1788797297.333749) can0 03FF1000#0840112200000001
(1788797297.438752) can0 03FF1000#0840112200000001
(1788797297.543757) can0 03FF1000#0840112200000001
(1788797297.648765) can0 03FF1000#0840112200000001
(1788797297.753769) can0 03FF1000#0840112200000001
(1788797297.858775) can0 03FF1000#0840112200000001
(1788797297.963780) can0 03FF1000#0840112200000001
(1788797298.068785) can0 03FF1000#0840112200000001
(1788797298.173794) can0 03FF1000#0840112200000001
(1788797298.278798) can0 03FF1000#0840112200000001
(1788797298.383803) can0 03FF1000#0840112200000001
(1788797298.488808) can0 03FF1000#0840112200000001
(1788797298.593814) can0 03FF1000#0840112200000001
(1788797298.698822) can0 03FF1000#0840112200000001
(1788797298.803826) can0 03FF1000#0840112200000001
(1788797298.908830) can0 03FF1000#0840112200000001
(1788797299.013836) can0 03FF1000#0840112200000001
(1788797299.118852) can0 03FF1000#0840112200000001
(1788797299.223852) can0 03FF1000#0840112200000001
(1788797299.328853) can0 03FF1000#0840112200000001
(1788797299.430859) can0 04FF3400#0000003500000000
(1788797299.431857) can0 04FF3603#0300000000000000
(1788797299.433857) can0 03FF1000#0840112200000001
(1788797299.538864) can0 03FF1000#0840112200000001
(1788797299.643870) can0 03FF1000#0840112200000001
(1788797299.748878) can0 03FF1000#0840112200000001
(1788797299.853881) can0 03FF1000#0840112200000001
(1788797299.958885) can0 03FF1000#0840112200000001
(1788797300.063893) can0 03FF1000#0840112200000001
(1788797300.168898) can0 03FF1000#0840112200000001
(1788797300.273904) can0 03FF1000#0840112200000001
(1788797300.378911) can0 03FF1000#0840112200000001
(1788797300.483914) can0 03FF1000#0840112200000001
(1788797300.588919) can0 03FF1000#0840112200000001
(1788797300.693928) can0 03FF1000#0840112200000001
(1788797300.798934) can0 03FF1000#0840112200000001
(1788797300.903936) can0 03FF1000#0840112200000001
(1788797301.008944) can0 03FF1000#0840112200000001
(1788797301.113948) can0 03FF1000#0840112200000001
(1788797301.218952) can0 03FF1000#0840112200000001
(1788797301.323962) can0 03FF1000#0840112200000001
(1788797301.428965) can0 03FF1000#0840112200000001
(1788797301.533969) can0 03FF1000#0840112200000001
(1788797301.638975) can0 03FF1000#0840112200000001
(1788797301.743981) can0 03FF1000#0840112200000001
(1788797301.848988) can0 03FF1000#0840112200000001
(1788797301.953992) can0 03FF1000#0840112200000001
(1788797302.058998) can0 03FF1000#0840112200000001
(1788797302.164011) can0 03FF1000#0840112200000001
(1788797302.269015) can0 03FF1000#0840112200000001
(1788797302.374020) can0 03FF1000#0840112200000001
(1788797302.479025) can0 03FF1000#0840112200000001
(1788797302.584027) can0 03FF1000#0840112200000001
(1788797302.689032) can0 03FF1000#0840112200000001
(1788797302.794036) can0 03FF1000#0840112200000001
(1788797302.898303) can0 03FF1000#0840112200000001
(1788797303.003305) can0 03FF1000#0840112200000001
(1788797303.108300) can0 03FF1000#0840112200000001
(1788797303.213313) can0 03FF1000#0840112200000001
(1788797303.319064) can0 03FF1000#0840112200000001
(1788797303.423326) can0 03FF1000#0840112200000001
(1788797303.528310) can0 03FF1000#0840112200000001
(1788797303.633314) can0 03FF1000#0840112200000001
(1788797303.738341) can0 03FF1000#0840112200000001
(1788797303.843319) can0 03FF1000#0840112200000001
(1788797303.948322) can0 03FF1000#0840112200000001
(1788797304.053324) can0 03FF1000#0840112200000001
(1788797304.158320) can0 03FF1000#0840112200000001
(1788797304.263346) can0 03FF1000#0840112200000001
(1788797304.368344) can0 03FF1000#0840112200000001
(1788797304.473350) can0 03FF1000#0840112200000001
(1788797304.578328) can0 03FF1000#0840112200000001
(1788797304.683319) can0 03FF1000#0840112200000001
(1788797304.788363) can0 03FF1000#0840112200000001
(1788797304.893359) can0 03FF1000#0840112200000001
(1788797304.998357) can0 03FF1000#0840112200000001
(1788797305.103334) can0 03FF1000#0840112200000001
(1788797305.208352) can0 03FF1000#0840112200000001
(1788797305.313366) can0 03FF1000#0840112200000001
(1788797305.418361) can0 03FF1000#0840112200000001
(1788797305.523362) can0 03FF1000#0840112200000001
(1788797305.628397) can0 03FF1000#0840112200000001
(1788797305.733354) can0 03FF1000#0840112200000001
(1788797305.838383) can0 03FF1000#0840112200000001
(1788797305.943375) can0 03FF1000#0840112200000001
(1788797306.048388) can0 03FF1000#0840112200000001
(1788797306.153424) can0 03FF1000#0840112200000001
(1788797306.258373) can0 03FF1000#0840112200000001
(1788797306.363397) can0 03FF1000#0840112200000001
(1788797306.468396) can0 03FF1000#0840112200000001
(1788797306.573392) can0 03FF1000#0840112200000001
(1788797306.678442) can0 03FF1000#0840112200000001
(1788797306.783377) can0 03FF1000#0840112200000001
(1788797306.888370) can0 03FF1000#0840112200000001
(1788797306.993400) can0 03FF1000#0840112200000001
(1788797307.098412) can0 03FF1000#0840112200000001
(1788797307.203383) can0 03FF1000#0840112200000001
(1788797307.308392) can0 03FF1000#0840112200000001
(1788797307.413411) can0 03FF1000#0840112200000001
(1788797307.518415) can0 03FF1000#0840112200000001
(1788797307.623400) can0 03FF1000#0840112200000001
(1788797307.728394) can0 03FF1000#0840112200000001
(1788797307.833397) can0 03FF1000#0840112200000001
(1788797307.938424) can0 03FF1000#0840112200000001
(1788797308.043434) can0 03FF1000#0840112200000001
(1788797308.148420) can0 03FF1000#0840112200000001
(1788797308.253407) can0 03FF1000#0840112200000001
(1788797308.358415) can0 03FF1000#0840112200000001
(1788797308.463426) can0 03FF1000#0840112200000001
(1788797308.568424) can0 03FF1000#0840112200000001
(1788797308.673446) can0 03FF1000#0840112200000001
(1788797308.778413) can0 03FF1000#0840112200000001
(1788797308.883413) can0 03FF1000#0840112200000001
(1788797308.988495) can0 03FF1000#0840112200000001
(1788797309.093443) can0 03FF1000#0840112200000001
(1788797309.198454) can0 03FF1000#0840112200000001
(1788797309.303429) can0 03FF1000#0840112200000001
(1788797309.408437) can0 03FF1000#0840112200000001
(1788797309.430634) can0 04FF3400#0000003600000000
(1788797309.513498) can0 03FF1000#0840112200000001
(1788797309.618466) can0 03FF1000#0840112200000001
(1788797309.723468) can0 03FF1000#0840112200000001
(1788797309.828446) can0 03FF1000#0840112200000001
(1788797309.933452) can0 03FF1000#0840112200000001
(1788797310.038463) can0 03FF1000#0840112200000001
(1788797310.143475) can0 03FF1000#0840112200000001
(1788797310.248472) can0 03FF1000#0840112200000001
(1788797310.353449) can0 03FF1000#0840112200000001
(1788797310.458444) can0 03FF1000#0840112200000001
(1788797310.563485) can0 03FF1000#0840112200000001
(1788797310.668491) can0 03FF1000#0840112200000001
(1788797310.773489) can0 03FF1000#0840112200000001
(1788797310.878466) can0 03FF1000#0840112200000001
(1788797310.983472) can0 03FF1000#0840112200000001
(1788797311.088503) can0 03FF1000#0840112200000001
(1788797311.193489) can0 03FF1000#0840112200000001
(1788797311.298494) can0 03FF1000#0840112200000001
(1788797311.403494) can0 03FF1000#0840112200000001
(1788797311.508499) can0 03FF1000#0840112200000001
(1788797311.613508) can0 03FF1000#0840112200000001
(1788797311.718513) can0 03FF1000#0840112200000001
(1788797311.823567) can0 03FF1000#0840112200000001
(1788797311.928522) can0 03FF1000#0840112200000001
(1788797312.033528) can0 03FF1000#0840112200000001
(1788797312.138535) can0 03FF1000#0840112200000001
(1788797312.243539) can0 03FF1000#0840112200000001
(1788797312.348572) can0 03FF1000#0840112200000001
(1788797312.453551) can0 03FF1000#0840112200000001
(1788797312.558557) can0 03FF1000#0840112200000001
(1788797312.663565) can0 03FF1000#0840112200000001
(1788797312.768566) can0 03FF1000#0840112200000001
(1788797312.873589) can0 03FF1000#0840112200000001
(1788797312.978580) can0 03FF1000#0840112200000001
(1788797313.083585) can0 03FF1000#0840112200000001
(1788797313.188590) can0 03FF1000#0840112200000001
(1788797313.293597) can0 03FF1000#0840112200000001
(1788797313.398606) can0 03FF1000#0840112200000001
(1788797313.503605) can0 03FF1000#0840112200000001
(1788797313.608614) can0 03FF1000#0840112200000001
(1788797313.713617) can0 03FF1000#0840112200000001
(1788797313.818622) can0 03FF1000#0840112200000001
(1788797313.923633) can0 03FF1000#0840112200000001
(1788797314.028635) can0 03FF1000#0840112200000001
(1788797314.133641) can0 03FF1000#0840112200000001
(1788797314.238646) can0 03FF1000#0840112200000001
(1788797314.343651) can0 03FF1000#0840112200000001
(1788797314.448660) can0 03FF1000#0840112200000001
(1788797314.553662) can0 03FF1000#0840112200000001
(1788797314.658669) can0 03FF1000#0840112200000001
(1788797314.763674) can0 03FF1000#0840112200000001
(1788797314.868679) can0 03FF1000#0840112200000001
(1788797314.973688) can0 03FF1000#0840112200000001
(1788797315.078691) can0 03FF1000#0840112200000001
(1788797315.183701) can0 03FF1000#0840112200000001
(1788797315.288701) can0 03FF1000#0840112200000001
(1788797315.393706) can0 03FF1000#0840112200000001
(1788797315.498719) can0 03FF1000#0840112200000001
(1788797315.603717) can0 03FF1000#0840112200000001
(1788797315.708724) can0 03FF1000#0840112200000001
(1788797315.813728) can0 03FF1000#0840112200000001
(1788797315.918735) can0 03FF1000#0840112200000001
(1788797316.023747) can0 03FF1000#0840112200000001
(1788797316.128745) can0 03FF1000#0840112200000001
(1788797316.233752) can0 03FF1000#0840112200000001
(1788797316.338756) can0 03FF1000#0840112200000001
(1788797316.443762) can0 03FF1000#0840112200000001
(1788797316.548773) can0 03FF1000#0840112200000001
(1788797316.653776) can0 03FF1000#0840112200000001
(1788797316.758780) can0 03FF1000#0840112200000001
(1788797316.863784) can0 03FF1000#0840112200000001
(1788797316.968792) can0 03FF1000#0840112200000001
(1788797317.073800) can0 03FF1000#0840112200000001
(1788797317.178803) can0 03FF1000#0840112200000001
(1788797317.283809) can0 03FF1000#0840112200000001
(1788797317.388812) can0 03FF1000#0840112200000001
(1788797317.493818) can0 03FF1000#0840112200000001
(1788797317.598828) can0 03FF1000#0840112200000001
(1788797317.703830) can0 03FF1000#0840112200000001
(1788797317.808834) can0 03FF1000#0840112200000001
(1788797317.913843) can0 03FF1000#0840112200000001
(1788797318.018846) can0 03FF1000#0840112200000001
(1788797318.123858) can0 03FF1000#0840112200000001
(1788797318.228856) can0 03FF1000#0840112200000001
(1788797318.333863) can0 03FF1000#0840112200000001
(1788797318.438868) can0 03FF1000#0840112200000001
(1788797318.543875) can0 03FF1000#0840112200000001
(1788797318.648884) can0 03FF1000#0840112200000001
(1788797318.753886) can0 03FF1000#0840112200000001
(1788797318.858891) can0 03FF1000#0840112200000001
(1788797318.963896) can0 03FF1000#0840112200000001
(1788797319.068902) can0 03FF1000#0840112200000001
(1788797319.173913) can0 03FF1000#0840112200000001
(1788797319.278914) can0 03FF1000#0840112200000001
(1788797319.383919) can0 03FF1000#0840112200000001
(1788797319.430921) can0 04FF3400#0000003700000000
(1788797319.488924) can0 03FF1000#0840112200000001
(1788797319.593929) can0 03FF1000#0840112200000001
(1788797319.698941) can0 03FF1000#0840112200000001
(1788797319.803941) can0 03FF1000#0840112200000001
(1788797319.908946) can0 03FF1000#0840112200000001
(1788797320.013954) can0 03FF1000#0840112200000001
(1788797320.118958) can0 03FF1000#0840112200000001
(1788797320.223967) can0 03FF1000#0840112200000001
(1788797320.328970) can0 03FF1000#0840112200000001
(1788797320.433973) can0 03FF1000#0840112200000001
(1788797320.538980) can0 03FF1000#0840112200000001
(1788797320.643986) can0 03FF1000#0840112200000001
(1788797320.748995) can0 03FF1000#0840112200000001
(1788797320.853998) can0 03FF1000#0840112200000001
(1788797320.959002) can0 03FF1000#0840112200000001
(1788797321.064009) can0 03FF1000#0840112200000001
(1788797321.169014) can0 03FF1000#0840112200000001
(1788797321.274024) can0 03FF1000#0840112200000001
(1788797321.379026) can0 03FF1000#0840112200000001
(1788797321.484030) can0 03FF1000#0840112200000001
(1788797321.589037) can0 03FF1000#0840112200000001
(1788797321.694040) can0 03FF1000#0840112200000001
(1788797321.799051) can0 03FF1000#0840112200000001
(1788797321.904054) can0 03FF1000#0840112200000001
(1788797322.009058) can0 03FF1000#0840112200000001
(1788797322.114064) can0 03FF1000#0840112200000001
(1788797322.219069) can0 03FF1000#0840112200000001
(1788797322.324080) can0 03FF1000#0840112200000001
(1788797322.429080) can0 03FF1000#0840112200000001
(1788797322.534086) can0 03FF1000#0840112200000001
(1788797322.639092) can0 03FF1000#0840112200000001
(1788797322.744098) can0 03FF1000#0840112200000001
(1788797322.849107) can0 03FF1000#0840112200000001
(1788797322.954110) can0 03FF1000#0840112200000001
(1788797323.059115) can0 03FF1000#0840112200000001
(1788797323.164127) can0 03FF1000#0840112200000001
(1788797323.269126) can0 03FF1000#0840112200000001
(1788797323.374136) can0 03FF1000#0840112200000001
(1788797323.479137) can0 03FF1000#0840112200000001
(1788797323.584142) can0 03FF1000#0840112200000001
(1788797323.689148) can0 03FF1000#0840112200000001
(1788797323.794154) can0 03FF1000#0840112200000001
(1788797323.899162) can0 03FF1000#0840112200000001
(1788797324.004165) can0 03FF1000#0840112200000001
(1788797324.109170) can0 03FF1000#0840112200000001
(1788797324.214177) can0 03FF1000#0840112200000001
(1788797324.319180) can0 03FF1000#0840112200000001
(1788797324.424193) can0 03FF1000#0840112200000001
(1788797324.529191) can0 03FF1000#0840112200000001
(1788797324.634199) can0 03FF1000#0840112200000001
(1788797324.739203) can0 03FF1000#0840112200000001
(1788797324.844209) can0 03FF1000#0840112200000001
(1788797324.949219) can0 03FF1000#0840112200000001
(1788797325.054221) can0 03FF1000#0840112200000001
(1788797325.159227) can0 03FF1000#0840112200000001
(1788797325.264231) can0 03FF1000#0840112200000001
(1788797325.369236) can0 03FF1000#0840112200000001
(1788797325.474246) can0 03FF1000#0840112200000001
(1788797325.579249) can0 03FF1000#0840112200000001
(1788797325.684254) can0 03FF1000#0840112200000001
(1788797325.789261) can0 03FF1000#0840112200000001
(1788797325.894266) can0 03FF1000#0840112200000001
(1788797325.999278) can0 03FF1000#0840112200000001
(1788797326.104277) can0 03FF1000#0840112200000001
(1788797326.209282) can0 03FF1000#0840112200000001
(1788797326.314287) can0 03FF1000#0840112200000001
(1788797326.419293) can0 03FF1000#0840112200000001
(1788797326.524305) can0 03FF1000#0840112200000001
(1788797326.629307) can0 03FF1000#0840112200000001
(1788797326.734310) can0 03FF1000#0840112200000001
(1788797326.839316) can0 03FF1000#0840112200000001
(1788797326.944321) can0 03FF1000#0840112200000001
(1788797327.049334) can0 03FF1000#0840112200000001
(1788797327.154333) can0 03FF1000#0840112200000001
(1788797327.259337) can0 03FF1000#0840112200000001
(1788797327.364343) can0 03FF1000#0840112200000001
(1788797327.469349) can0 03FF1000#0840112200000001
(1788797327.574360) can0 03FF1000#0840112200000001
(1788797327.679363) can0 03FF1000#0840112200000001
(1788797327.784365) can0 03FF1000#0840112200000001
(1788797327.889370) can0 03FF1000#0840112200000001
(1788797327.994378) can0 03FF1000#0840112200000001
(1788797328.099388) can0 03FF1000#0840112200000001
(1788797328.204388) can0 03FF1000#0840112200000001
(1788797328.309392) can0 03FF1000#0840112200000001
(1788797328.414398) can0 03FF1000#0840112200000001
(1788797328.519406) can0 03FF1000#0840112200000001
(1788797328.624416) can0 03FF1000#0840112200000001
(1788797328.729415) can0 03FF1000#0840112200000001
(1788797328.834422) can0 03FF1000#0840112200000001
(1788797328.939427) can0 03FF1000#0840112200000001
(1788797329.044433) can0 03FF1000#0840112200000001
(1788797329.149449) can0 03FF1000#0840112200000001
(1788797329.254445) can0 03FF1000#0840112200000001
(1788797329.359448) can0 03FF1000#0840112200000001
(1788797329.430464) can0 04FF3400#0000003800000000
(1788797329.464454) can0 03FF1000#0840112200000001
(1788797329.569460) can0 03FF1000#0840112200000001
(1788797329.674473) can0 03FF1000#0840112200000001
(1788797329.779473) can0 03FF1000#0840112200000001
(1788797329.884477) can0 03FF1000#0840112200000001
(1788797329.989483) can0 03FF1000#0840112200000001
(1788797330.094493) can0 03FF1000#0840112200000001
(1788797330.199504) can0 03FF1000#0840112200000001
(1788797330.304499) can0 03FF1000#0840112200000001
(1788797330.409505) can0 03FF1000#0840112200000001
(1788797330.514511) can0 03FF1000#0840112200000001
(1788797330.619517) can0 03FF1000#0840112200000001
(1788797330.724528) can0 03FF1000#0840112200000001
(1788797330.829526) can0 03FF1000#0840112200000001
(1788797330.934534) can0 03FF1000#0840112200000001
(1788797331.039541) can0 03FF1000#0840112200000001
(1788797331.144545) can0 03FF1000#0840112200000001
(1788797331.249554) can0 03FF1000#0840112200000001
(1788797331.354556) can0 03FF1000#0840112200000001
(1788797331.459562) can0 03FF1000#0840112200000001
(1788797331.564567) can0 03FF1000#0840112200000001
(1788797331.669575) can0 03FF1000#0840112200000001
(1788797331.774582) can0 03FF1000#0840112200000001
(1788797331.879583) can0 03FF1000#0840112200000001
(1788797331.984593) can0 03FF1000#0840112200000001
(1788797332.089597) can0 03FF1000#0840112200000001
(1788797332.194601) can0 03FF1000#0840112200000001
(1788797332.299612) can0 03FF1000#0840112200000001
(1788797332.404611) can0 03FF1000#0840112200000001
(1788797332.509616) can0 03FF1000#0840112200000001
(1788797332.614626) can0 03FF1000#0840112200000001
(1788797332.719628) can0 03FF1000#0840112200000001
(1788797332.824639) can0 03FF1000#0840112200000001
(1788797332.929640) can0 03FF1000#0840112200000001
(1788797333.034648) can0 03FF1000#0840112200000001
(1788797333.139652) can0 03FF1000#0840112200000001
(1788797333.244655) can0 03FF1000#0840112200000001
(1788797333.349666) can0 03FF1000#0840112200000001
(1788797333.454668) can0 03FF1000#0840112200000001
(1788797333.559673) can0 03FF1000#0840112200000001
(1788797333.664683) can0 03FF1000#0840112200000001
(1788797333.769684) can0 03FF1000#0840112200000001
(1788797333.874695) can0 03FF1000#0840112200000001
(1788797333.979699) can0 03FF1000#0840112200000001
(1788797334.084701) can0 03FF1000#0840112200000001
(1788797334.188966) can0 03FF1000#0840112200000001
(1788797334.294713) can0 03FF1000#0840112200000001
(1788797334.399722) can0 03FF1000#0840112200000001
(1788797334.504723) can0 03FF1000#0840112200000001
(1788797334.609731) can0 03FF1000#0840112200000001
(1788797334.713972) can0 03FF1000#0840112200000001
(1788797334.819740) can0 03FF1000#0840112200000001
(1788797334.923977) can0 03FF1000#0840112200000001
(1788797335.029008) can0 03FF1000#0840112200000001
(1788797335.134004) can0 03FF1000#0840112200000001
(1788797335.238994) can0 03FF1000#0840112200000001
(1788797335.344768) can0 03FF1000#0840112200000001
(1788797335.449021) can0 03FF1000#0840112200000001
(1788797335.554022) can0 03FF1000#0840112200000001
(1788797335.659008) can0 03FF1000#0840112200000001
(1788797335.763992) can0 03FF1000#0840112200000001
(1788797335.869003) can0 03FF1000#0840112200000001
(1788797335.974025) can0 03FF1000#0840112200000001
(1788797336.079039) can0 03FF1000#0840112200000001
(1788797336.184027) can0 03FF1000#0840112200000001
(1788797336.289002) can0 03FF1000#0840112200000001
(1788797336.394020) can0 03FF1000#0840112200000001
(1788797336.499043) can0 03FF1000#0840112200000001
(1788797336.604031) can0 03FF1000#0840112200000001
(1788797336.709042) can0 03FF1000#0840112200000001
(1788797336.814019) can0 03FF1000#0840112200000001
(1788797336.919013) can0 03FF1000#0840112200000001
(1788797337.024042) can0 03FF1000#0840112200000001
(1788797337.129085) can0 03FF1000#0840112200000001
(1788797337.234055) can0 03FF1000#0840112200000001
(1788797337.339047) can0 03FF1000#0840112200000001
(1788797337.444048) can0 03FF1000#0840112200000001
(1788797337.549040) can0 03FF1000#0840112200000001
(1788797337.654103) can0 03FF1000#0840112200000001
(1788797337.759059) can0 03FF1000#0840112200000001
(1788797337.864053) can0 03FF1000#0840112200000001
(1788797337.969047) can0 03FF1000#0840112200000001
(1788797338.074057) can0 03FF1000#0840112200000001
(1788797338.179120) can0 03FF1000#0840112200000001
(1788797338.284070) can0 03FF1000#0840112200000001
(1788797338.389056) can0 03FF1000#0840112200000001
(1788797338.494052) can0 03FF1000#0840112200000001
(1788797338.599085) can0 03FF1000#0840112200000001
(1788797338.704084) can0 03FF1000#0840112200000001
(1788797338.809080) can0 03FF1000#0840112200000001
(1788797338.914074) can0 03FF1000#0840112200000001
(1788797339.019080) can0 03FF1000#0840112200000001
(1788797339.124077) can0 03FF1000#0840112200000001
(1788797339.229090) can0 03FF1000#0840112200000001
(1788797339.334096) can0 03FF1000#0840112200000001
(1788797339.430984) can0 04FF3400#0000003900000000
(1788797339.439085) can0 03FF1000#0840112200000001
(1788797339.544083) can0 03FF1000#0840112200000001
(1788797339.649084) can0 03FF1000#0840112200000001
(1788797339.754107) can0 03FF1000#0840112200000001
(1788797339.859106) can0 03FF1000#0840112200000001
(1788797339.964094) can0 03FF1000#0840112200000001
(1788797340.069101) can0 03FF1000#0840112200000001
(1788797340.174112) can0 03FF1000#0840112200000001
(1788797340.279113) can0 03FF1000#0840112200000001
(1788797340.384130) can0 03FF1000#0840112200000001
(1788797340.489157) can0 03FF1000#0840112200000001
(1788797340.594116) can0 03FF1000#0840112200000001
(1788797340.699118) can0 03FF1000#0840112200000001
(1788797340.804139) can0 03FF1000#0840112200000001
(1788797340.909128) can0 03FF1000#0840112200000001
(1788797341.014157) can0 03FF1000#0840112200000001
(1788797341.119126) can0 03FF1000#0840112200000001
(1788797341.224133) can0 03FF1000#0840112200000001
(1788797341.329144) can0 03FF1000#0840112200000001
(1788797341.434139) can0 03FF1000#0840112200000001
(1788797341.539177) can0 03FF1000#0840112200000001
(1788797341.644140) can0 03FF1000#0840112200000001
(1788797341.749148) can0 03FF1000#0840112200000001
(1788797341.854168) can0 03FF1000#0840112200000001
(1788797341.959166) can0 03FF1000#0840112200000001
(1788797342.064140) can0 03FF1000#0840112200000001
(1788797342.169142) can0 03FF1000#0840112200000001
(1788797342.274160) can0 03FF1000#0840112200000001
(1788797342.379166) can0 03FF1000#0840112200000001
(1788797342.484183) can0 03FF1000#0840112200000001
(1788797342.589153) can0 03FF1000#0840112200000001
(1788797342.694173) can0 03FF1000#0840112200000001
(1788797342.799168) can0 03FF1000#0840112200000001
(1788797342.904181) can0 03FF1000#0840112200000001
(1788797343.009179) can0 03FF1000#0840112200000001
(1788797343.114183) can0 03FF1000#0840112200000001
(1788797343.219188) can0 03FF1000#0840112200000001
(1788797343.324197) can0 03FF1000#0840112200000001
(1788797343.429199) can0 03FF1000#0840112200000001
(1788797343.534203) can0 03FF1000#0840112200000001
(1788797343.639212) can0 03FF1000#0840112200000001
(1788797343.744216) can0 03FF1000#0840112200000001
(1788797343.849237) can0 03FF1000#0840112200000001
(1788797343.954226) can0 03FF1000#0840112200000001
(1788797344.059234) can0 03FF1000#0840112200000001
(1788797344.164238) can0 03FF1000#0840112200000001
(1788797344.269242) can0 03FF1000#0840112200000001
(1788797344.374254) can0 03FF1000#0840112200000001
(1788797344.479253) can0 03FF1000#0840112200000001
(1788797344.584259) can0 03FF1000#0840112200000001
(1788797344.689268) can0 03FF1000#0840112200000001
(1788797344.794272) can0 03FF1000#0840112200000001
(1788797344.899282) can0 03FF1000#0840112200000001
(1788797345.004285) can0 03FF1000#0840112200000001
(1788797345.109287) can0 03FF1000#0840112200000001
(1788797345.214293) can0 03FF1000#0840112200000001
(1788797345.319299) can0 03FF1000#0840112200000001
(1788797345.424310) can0 03FF1000#0840112200000001
(1788797345.529310) can0 03FF1000#0840112200000001
(1788797345.634318) can0 03FF1000#0840112200000001
(1788797345.739321) can0 03FF1000#0840112200000001
(1788797345.844326) can0 03FF1000#0840112200000001
(1788797345.949337) can0 03FF1000#0840112200000001
(1788797346.054341) can0 03FF1000#0840112200000001
(1788797346.159344) can0 03FF1000#0840112200000001
(1788797346.264348) can0 03FF1000#0840112200000001
(1788797346.369355) can0 03FF1000#0840112200000001
(1788797346.474373) can0 03FF1000#0840112200000001
(1788797346.579366) can0 03FF1000#0840112200000001
(1788797346.684375) can0 03FF1000#0840112200000001
(1788797346.789376) can0 03FF1000#0840112200000001
(1788797346.894382) can0 03FF1000#0840112200000001
(1788797346.999394) can0 03FF1000#0840112200000001
(1788797347.104398) can0 03FF1000#0840112200000001
(1788797347.209403) can0 03FF1000#0840112200000001
(1788797347.314406) can0 03FF1000#0840112200000001
(1788797347.419410) can0 03FF1000#0840112200000001
(1788797347.524421) can0 03FF1000#0840112200000001
(1788797347.629425) can0 03FF1000#0840112200000001
(1788797347.734428) can0 03FF1000#0840112200000001
(1788797347.839432) can0 03FF1000#0840112200000001
(1788797347.944439) can0 03FF1000#0840112200000001
(1788797348.049449) can0 03FF1000#0840112200000001
(1788797348.154449) can0 03FF1000#0840112200000001
(1788797348.259455) can0 03FF1000#0840112200000001
(1788797348.364460) can0 03FF1000#0840112200000001
(1788797348.469466) can0 03FF1000#0840112200000001
(1788797348.574477) can0 03FF1000#0840112200000001
(1788797348.679482) can0 03FF1000#0840112200000001
(1788797348.784483) can0 03FF1000#0840112200000001
(1788797348.889487) can0 03FF1000#0840112200000001
(1788797348.994495) can0 03FF1000#0840112200000001
(1788797349.099506) can0 03FF1000#0840112200000001
(1788797349.204509) can0 03FF1000#0840112200000001
(1788797349.309510) can0 03FF1000#0840112200000001
(1788797349.414516) can0 03FF1000#0840112200000001
(1788797349.430516) can0 04FF3400#0000003A00000000
(1788797349.519522) can0 03FF1000#0840112200000001
(1788797349.624532) can0 03FF1000#0840112200000001
(1788797349.729534) can0 03FF1000#0840112200000001
(1788797349.834539) can0 03FF1000#0840112200000001
(1788797349.939544) can0 03FF1000#0840112200000001
(1788797350.044551) can0 03FF1000#0840112200000001
(1788797350.149560) can0 03FF1000#0840112200000001
(1788797350.254561) can0 03FF1000#0840112200000001
(1788797350.359566) can0 03FF1000#0840112200000001
(1788797350.464574) can0 03FF1000#0840112200000001
(1788797350.569578) can0 03FF1000#0840112200000001
(1788797350.674589) can0 03FF1000#0840112200000001
(1788797350.779591) can0 03FF1000#0840112200000001
(1788797350.884593) can0 03FF1000#0840112200000001
(1788797350.989600) can0 03FF1000#0840112200000001
(1788797351.094606) can0 03FF1000#0840112200000001
(1788797351.199617) can0 03FF1000#0840112200000001
(1788797351.304616) can0 03FF1000#0840112200000001
(1788797351.409623) can0 03FF1000#0840112200000001
(1788797351.514627) can0 03FF1000#0840112200000001
(1788797351.619645) can0 03FF1000#0840112200000001
(1788797351.724645) can0 03FF1000#0840112200000001
(1788797351.829644) can0 03FF1000#0840112200000001
(1788797351.934650) can0 03FF1000#0840112200000001
(1788797352.039656) can0 03FF1000#0840112200000001
(1788797352.144661) can0 03FF1000#0840112200000001
(1788797352.249673) can0 03FF1000#0840112200000001
(1788797352.354673) can0 03FF1000#0840112200000001
(1788797352.459678) can0 03FF1000#0840112200000001
(1788797352.564684) can0 03FF1000#0840112200000001
(1788797352.669689) can0 03FF1000#0840112200000001
(1788797352.774697) can0 03FF1000#0840112200000001
(1788797352.806695) can0 02417500#
(1788797352.806807) can0 02417500#
(1788797352.807695) can0 02417500#
(1788797352.816696) can0 08F97500#000000F400000000
(1788797352.821696) can0 08F97500#000000F400000000
(1788797352.826697) can0 08F97500#000000F400000000
(1788797352.826746) can0 02417501#
(1788797352.826841) can0 02417501#
(1788797352.827696) can0 02417501#
(1788797352.835940) can0 08F97501#0000001500000000
(1788797352.840928) can0 08F97501#0000001500000000
(1788797352.845871) can0 08F97501#0000001500000000
(1788797352.846697) can0 02519500#
(1788797352.846844) can0 02519500#
(1788797352.847697) can0 02519500#
(1788797352.879701) can0 03FF1000#0840112200000001
(1788797352.984709) can0 03FF1000#0840112200000001
(1788797353.089712) can0 03FF1000#0840112200000001
(1788797353.107718) can0 02294609#
(1788797353.108839) can0 05124609#010003CA03CA00
(1788797353.194721) can0 03FF1000#0840112200000001
(1788797353.299725) can0 03FF1000#0840112200000001
(1788797353.307907) can0 0258A604#0000000000000000
(1788797353.404727) can0 03FF1000#0840112200000001
(1788797353.509740) can0 03FF1000#0840112200000001
(1788797353.597739) can0 02294601#
(1788797353.597857) can0 05124601#007300000000
(1788797353.614739) can0 03FF1000#0840112200000001
(1788797353.719746) can0 03FF1000#0840112200000001
(1788797353.817751) can0 0258A604#0000000000000000
(1788797353.824750) can0 03FF1000#0840112200000001
(1788797353.867752) can0 02519501#
(1788797353.867887) can0 02519501#
(1788797353.868752) can0 02519501#
(1788797353.929756) can0 03FF1000#0840112200000001
(1788797354.034763) can0 03FF1000#0840112200000001
(1788797354.116859) can0 02294602#
(1788797354.117915) can0 05124602#0B10101010101010
(1788797354.139767) can0 03FF1000#0840112200000001
(1788797354.227818) can0 02294500#
(1788797354.228772) can0 02294501#
(1788797354.228826) can0 02203607#0000000300000000
(1788797354.229026) can0 05124500#0500
(1788797354.229771) can0 05124501#0103
(1788797354.244773) can0 03FF1000#0840112200000001
(1788797354.247830) can0 02294503#
(1788797354.248968) can0 05124503#00150C0900000C62
(1788797354.267797) can0 02294609#
(1788797354.268889) can0 05124609#010003CA03CA00
(1788797354.307845) can0 02294611#
(1788797354.308921) can0 05124611#0061368C00003527
(1788797354.328777) can0 0258A604#0000000000000000
(1788797354.349777) can0 03FF1000#0840112200000001
(1788797354.454785) can0 03FF1000#0840112200000001
(1788797354.488786) can0 02181606#0100190001030200
(1788797354.563836) can0 03FF1000#0840112200000001
(1788797354.574789) can0 03FF1001#0000000000000000
(1788797354.584813) can0 03FF1603#0000D05700000000
(1788797354.595791) can0 03FF1605#0100000000000000
(1788797354.597791) can0 05FF4610#0000D0DCFFFFFFDA
(1788797354.598790) can0 02181606#0100190001030200
(1788797354.605826) can0 03121606#0100000000000000
(1788797354.618793) can0 02294603#
(1788797354.619009) can0 05124603#11100F1012101310
(1788797354.668866) can0 03FF1000#0840112200000001
(1788797354.679797) can0 03FF1001#0000000000000000
(1788797354.689830) can0 03FF1603#0000D05700000000
(1788797354.700796) can0 03FF1605#0100000000000000
(1788797354.710830) can0 03121606#0000000000000000
(1788797354.718797) can0 02181606#0100190001030200
(1788797354.725797) can0 05FF4001#0000000000000000
(1788797354.727797) can0 05FF4000#0000000000000000
(1788797354.773857) can0 03FF1000#0840112200000001
(1788797354.784801) can0 03FF1001#0000000000000000
(1788797354.794809) can0 03FF1603#0000D05700000000
(1788797354.805802) can0 03FF1605#0100000000000000
(1788797354.807056) can0 05FF4602#0B10101011101010
(1788797354.815838) can0 03121606#0000000000000000
(1788797354.817052) can0 05FF4603#11100F1012101310
(1788797354.827046) can0 05FF4604#1110111014101510
(1788797354.837803) can0 05FF4605#1010000000000000
(1788797354.838803) can0 0258A604#0000000000000000
(1788797354.858805) can0 05FF4610#0000D0DCFFFFFFDA
(1788797354.866863) can0 05FF4606#1E1E1D
(1788797354.876863) can0 05FF4607#1E1D1D
(1788797354.878840) can0 03FF1000#0840112200000001
(1788797354.886918) can0 05FF4608#0019007C
(1788797354.889806) can0 03FF1001#0000000000000000
(1788797354.897026) can0 05FF4609#010003CA03CA00
(1788797354.899876) can0 03FF1603#0000D05700000000
(1788797354.910808) can0 03FF1605#0100000000000000
(1788797354.983859) can0 03FF1000#0840112200000001
(1788797354.994813) can0 03FF1001#0000000000000000
(1788797355.004824) can0 03FF1603#0000D05700000000
(1788797355.015814) can0 03FF1605#0100000000000000
(1788797355.046931) can0 05FF4400#0000000E
(1788797355.088852) can0 03FF1000#0840112200000001
(1788797355.099817) can0 03FF1001#0000000000000000
(1788797355.109825) can0 03FF1603#0000D05700000000
(1788797355.117015) can0 05FF4600#0D0300900303
(1788797355.120818) can0 03FF1605#0100000000000000
(1788797355.128818) can0 02294604#
(1788797355.130034) can0 05124604#1110111014101510
(1788797355.139821) can0 05FF4610#0000D0DCFFFFFFDA
(1788797355.167019) can0 05FF4601#007300000000
(1788797355.193892) can0 03FF1000#0840112200000001
(1788797355.204823) can0 03FF1001#0000000000000000
(1788797355.214835) can0 03FF1600#142B000104001319
(1788797355.225824) can0 03FF1601#6E50000000000000
(1788797355.229044) can0 02191602#0000000000000000
(1788797355.235825) can0 03FF1602#000005000000157C
(1788797355.246825) can0 03FF1603#0000D05700000000
(1788797355.256860) can0 03FF1604#0000000000000000
(1788797355.267827) can0 03FF1605#0100000000000000
(1788797355.298870) can0 03FF1000#0840112200000001
(1788797355.309830) can0 03FF1001#0000000000000000
(1788797355.319853) can0 03FF1603#0000D05700000000
(1788797355.330830) can0 03FF1605#0100000000000000
(1788797355.349831) can0 0258A604#0000000000000000
(1788797355.400834) can0 05FF4610#0000D0DCFFFFFFDA
(1788797355.403868) can0 03FF1000#0840112200000001
(1788797355.414834) can0 03FF1001#0000000000000000
(1788797355.424853) can0 03FF1603#0000D05700000000
(1788797355.435836) can0 03FF1605#0100000000000000
(1788797355.508874) can0 03FF1000#0840112200000001
(1788797355.519839) can0 03FF1001#0000000000000000
(1788797355.529840) can0 03FF1603#0000D05700000000
(1788797355.540841) can0 03FF1605#0100000000000000
(1788797355.613856) can0 03FF1000#0840112200000001
(1788797355.624846) can0 03FF1001#0000000000000000
(1788797355.634846) can0 03FF1603#0000D05700000000
(1788797355.639846) can0 02294605#
(1788797355.640846) can0 05124605#1010000000000000
(1788797355.645847) can0 03FF1605#0100000000000000
(1788797355.688849) can0 05FF4610#0000D0DAFFFFFFCA
(1788797355.718851) can0 03FF1000#0840112200000001
(1788797355.729851) can0 03FF1001#0000000000000000
(1788797355.739852) can0 03FF1603#0000D05700000000
(1788797355.750852) can0 03FF1605#0100000000000000
(1788797355.773853) can0 05FF4001#0000000000000000
(1788797355.775853) can0 05FF4000#0000000000000000
(1788797355.823891) can0 03FF1000#0840112200000001
(1788797355.834858) can0 03FF1001#0000000000000000
(1788797355.844858) can0 03FF1603#0000D05700000000
(1788797355.855858) can0 05FF4602#0B10101010101010
(1788797355.855907) can0 03FF1605#0100000000000000
(1788797355.865113) can0 05FF4603#10100F1012101310
(1788797355.875113) can0 05FF4604#1110111014101510
(1788797355.885860) can0 05FF4605#1010000000000000
(1788797355.914949) can0 05FF4606#1E1E1D
(1788797355.924942) can0 05FF4607#1E1D1D
(1788797355.928919) can0 03FF1000#0840112200000001
(1788797355.934989) can0 05FF4608#0019007C
(1788797355.939862) can0 03FF1001#0000000000000000
(1788797355.945093) can0 05FF4609#010003CA03CA00
(1788797355.949863) can0 05FF4610#0000D0DAFFFFFFCA
(1788797355.949917) can0 03FF1603#0000D05700000000
(1788797355.960863) can0 03FF1605#0100000000000000
(1788797356.033889) can0 03FF1000#0840112200000001
(1788797356.044868) can0 03FF1001#0000000000000000
(1788797356.054868) can0 03FF1603#0000D05700000000
(1788797356.065869) can0 03FF1605#0100000000000000
(1788797356.138874) can0 03FF1000#0840112200000001
(1788797356.149874) can0 03FF1001#0000000000000000
(1788797356.149927) can0 02294606#
(1788797356.150907) can0 05124606#1E1E1D
(1788797356.159886) can0 03FF1603#0000D05700000000
(1788797356.170874) can0 03FF1605#0100000000000000
(1788797356.201876) can0 03FF1600#142B000104001319
(1788797356.212877) can0 03FF1601#6E50000000000000
(1788797356.222121) can0 05FF4610#0000D0DAFFFFFFCA
(1788797356.222877) can0 03FF1602#000005000000157C
(1788797356.233878) can0 03FF1604#0000000000000000
(1788797356.243897) can0 03FF1000#0840112200000001
(1788797356.250879) can0 02FF2602#F1A3195D05B3E6FF
(1788797356.250934) can0 02294609#0000000000000000
(1788797356.251878) can0 05124609#030003CA03CA00
(1788797356.254878) can0 03FF1001#0000000000000000
(1788797356.264880) can0 03FF1603#0000D05700000000
(1788797356.275880) can0 03FF1605#0100000000000000
(1788797356.348907) can0 03FF1000#0840112200000001
(1788797356.359886) can0 03FF1001#0000000000000000
(1788797356.369886) can0 03FF1603#0000D05700000000
(1788797356.380886) can0 03FF1605#0100000000000000
(1788797356.453936) can0 03FF1000#0840112200000001
(1788797356.464890) can0 03FF1001#0000000000000000
(1788797356.474891) can0 03FF1603#0000D05700000000
(1788797356.483891) can0 05FF4610#0000D0DAFFFFFFCA
(1788797356.485890) can0 03FF1605#0100000000000000
(1788797356.558895) can0 03FF1000#0840112200000001
(1788797356.569896) can0 03FF1001#0000000000000000
(1788797356.579896) can0 03FF1603#0000D05700000000
(1788797356.590897) can0 03FF1605#0100000000000000
(1788797356.660902) can0 02294607#
(1788797356.660979) can0 05124607#1E1D1D
(1788797356.663900) can0 03FF1000#0840112200000001
(1788797356.674902) can0 03FF1001#0000000000000000
(1788797356.684901) can0 03FF1603#0000D05700000000
(1788797356.695903) can0 03FF1605#0100000000000000
(1788797356.760906) can0 02FF2602#F1A3195D05B3E6FF
(1788797356.761905) can0 02294609#0000000000000000
(1788797356.762905) can0 05124609#030003CA03CA00
(1788797356.768906) can0 03FF1000#0840112200000001
(1788797356.771906) can0 05FF4610#0000D0DAFFFFFFCA
(1788797356.779907) can0 03FF1001#0000000000000000
(1788797356.789908) can0 03FF1603#0000D05700000000
(1788797356.800907) can0 03FF1605#0100000000000000
(1788797356.813909) can0 05FF4001#0000000000000000
(1788797356.815908) can0 05FF4000#0000000000000000
(1788797356.873913) can0 03FF1000#0840112200000001
(1788797356.884914) can0 03FF1001#0000000000000000
(1788797356.894913) can0 03FF1603#0000D05700000000
(1788797356.896913) can0 05FF4602#0B10101010101010
(1788797356.900913) can0 02181606#0100190001030200
(1788797356.905914) can0 03FF1605#0100000000000000
(1788797356.906913) can0 05FF4603#11100F1012101310
(1788797356.916914) can0 05FF4604#1010111014101510
(1788797356.926915) can0 05FF4605#1010000000000000
(1788797356.956916) can0 05FF4606#1E1E1D
(1788797356.966172) can0 05FF4607#1E1D1D
(1788797356.976918) can0 05FF4608#0019007C
(1788797356.978917) can0 03FF1000#0840112200000001
(1788797356.986918) can0 05FF4609#030003CA03CA00
(1788797356.989917) can0 03FF1001#0000000000000000
(1788797356.999919) can0 03FF1603#0000D05700000000
(1788797357.010919) can0 03FF1605#0100000000000000
(1788797357.020920) can0 03121606#0000000000000000
(1788797357.033920) can0 05FF4610#0000D0DAFFFFFFCA
(1788797357.083923) can0 03FF1000#0840112200000001
(1788797357.094924) can0 03FF1001#0000000000000000
(1788797357.104924) can0 03FF1603#0000D05700000000
(1788797357.115925) can0 03FF1605#0100000000000000
(1788797357.170929) can0 02294609#
(1788797357.172177) can0 05124609#030003CA03CA00
(1788797357.188928) can0 03FF1000#0840112200000001
(1788797357.199929) can0 03FF1001#0000000000000000
(1788797357.209929) can0 03FF1603#0000D05700000000
(1788797357.220930) can0 03FF1605#0100000000000000
(1788797357.230931) can0 03FF1600#142B000104001319
(1788797357.241931) can0 03FF1601#6E50000000000000
(1788797357.251932) can0 03FF1602#000005000000157C
(1788797357.262932) can0 03FF1604#0000000000000000
(1788797357.293934) can0 03FF1000#0840112200000001
(1788797357.304935) can0 03FF1001#0000000000000000
(1788797357.306935) can0 05FF4610#0000D0DAFFFFFFCA
(1788797357.314936) can0 03FF1603#0000D05700000000
(1788797357.325936) can0 03FF1605#0100000000000000
(1788797357.398940) can0 03FF1000#0840112200000001
(1788797357.409942) can0 03FF1001#0000000000000000
(1788797357.419942) can0 03FF1603#0000D05700000000
(1788797357.430942) can0 03FF1605#0100000000000000
(1788797357.503946) can0 03FF1000#0840112200000001
(1788797357.514946) can0 03FF1001#0000000000000000
(1788797357.524947) can0 03FF1603#0000D05700000000
(1788797357.535947) can0 03FF1605#0100000000000000
(1788797357.595951) can0 05FF4610#0000D0DAFFFFFFCF
(1788797357.608950) can0 03FF1000#0840112200000001
(1788797357.619951) can0 03FF1001#0000000000000000
(1788797357.629952) can0 03FF1603#0000D05700000000
(1788797357.640953) can0 03FF1605#0100000000000000
(1788797357.681956) can0 02294610#
(1788797357.683955) can0 05124610#0000D0DAFFFFFFCF
(1788797357.713956) can0 03FF1000#0840112200000001
(1788797357.724958) can0 03FF1001#0000000000000000
(1788797357.734957) can0 03FF1603#0000D05700000000
(1788797357.745958) can0 03FF1605#0100000000000000
(1788797357.818962) can0 03FF1000#0840112200000001
(1788797357.829962) can0 03FF1001#0000000000000000
(1788797357.839963) can0 03FF1603#0000D05700000000
(1788797357.850963) can0 03FF1605#0100000000000000
(1788797357.855963) can0 05FF4001#0000000000000000
(1788797357.856964) can0 05FF4610#0000D0DAFFFFFFCF
(1788797357.857964) can0 05FF4000#0000000000000000
(1788797357.923969) can0 03FF1000#0840112200000001
(1788797357.924968) can0 02FF2602#834BE32538FDDBF7
(1788797357.925069) can0 02294609#0000000000000000
(1788797357.926002) can0 05124609#030003CA03CA00
(1788797357.934969) can0 03FF1001#0000000000000000
(1788797357.937968) can0 05FF4602#0B10101010101010
(1788797357.944968) can0 03FF1603#0000D05700000000
(1788797357.947969) can0 05FF4603#11100F1012101310
(1788797357.953103) can0 13B16001#
(1788797357.953968) can0 13B16001#
(1788797357.954023) can0 13B16001#
(1788797357.955969) can0 03FF1605#0100000000000000
(1788797357.957969) can0 05FF4604#1010111014101510
(1788797357.968970) can0 05FF4605#1010000000000000
(1788797357.998135) can0 05FF4606#1E1E1D
(1788797358.008123) can0 05FF4607#1E1D1D
(1788797358.018153) can0 05FF4608#0019007C
(1788797358.028973) can0 05FF4609#030003CA03CA00
(1788797358.029028) can0 03FF1000#0840112200000001
(1788797358.039973) can0 03FF1001#0000000000000000
(1788797358.049975) can0 03FF1603#0000D05700000000
(1788797358.060975) can0 03FF1605#0100000000000000
(1788797358.130981) can0 05FF4610#0000D0DAFFFFFFCF
(1788797358.133980) can0 03FF1000#0840112200000001
(1788797358.144979) can0 03FF1001#0000000000000000
(1788797358.154980) can0 03FF1603#0000D05700000000
(1788797358.165981) can0 03FF1605#0100000000000000
(1788797358.191982) can0 02294611#
(1788797358.192981) can0 05124611#0061368C00003526
(1788797358.217983) can0 03FF1600#142B000104001319
(1788797358.228984) can0 03FF1601#6E50000000000000
(1788797358.238984) can0 03FF1602#000005000000157C
(1788797358.249985) can0 03FF1604#0000000000000000
(1788797358.259986) can0 03FF1000#0840112200000001
(1788797358.270987) can0 03FF1001#0000000000000000
(1788797358.280987) can0 03FF1603#0000D05700000000
(1788797358.291987) can0 03FF1605#0100000000000000
(1788797358.343990) can0 03FF1000#0840112200000001
(1788797358.354990) can0 03FF1001#0000000000000000
(1788797358.364990) can0 03FF1603#0000D05700000000
(1788797358.375992) can0 03FF1605#0100000000000000
(1788797358.391993) can0 05FF4610#0000D0DAFFFFFFCF
(1788797358.432995) can0 02FF2602#36A33AA53356DC4B
(1788797358.433061) can0 02294609#0000000000000000
(1788797358.434100) can0 05124609#030003CA03CA00
(1788797358.442997) can0 02181606#0000000000030200
(1788797358.448996) can0 03FF1000#0840112200000001
(1788797358.449996) can0 03FF1605#0000000000000000
(1788797358.573004) can0 02181606#0100190001030200
(1788797358.616005) can0 03FF1001#0000000000000000
(1788797358.652046) can0 03FF1603#0000D05700000000
(1788797358.663011) can0 03FF1605#0100000000000000
(1788797358.665008) can0 05FF4610#0000D0DBFFFFFFCA
(1788797358.673009) can0 1FF8B028#0000000000000000
(1788797358.683009) can0 02181606#0100190001030200
(1788797358.684008) can0 03FF1000#0840112200000001
(1788797358.694011) can0 03FF1605#0000000000000000
(1788797358.702229) can0 02294500#
(1788797358.703194) can0 05124500#0500
(1788797358.705009) can0 03121606#0100000000000000
(1788797358.726011) can0 03FF1000#0840112200000001
(1788797358.736011) can0 03FF1001#0000000000000000
(1788797358.747013) can0 03FF1603#0000D05700000000
(1788797358.757012) can0 03FF1605#0100000000000000
(1788797358.760012) can0 05FF4610#0000D0DBFFFFFFCA
(1788797358.768012) can0 03121606#0000000000000000
(1788797358.831017) can0 03FF1000#0840112200000001
(1788797358.841017) can0 03FF1001#0000000000000000
(1788797358.852018) can0 03FF1603#0000D05700000000
(1788797358.862018) can0 03FF1605#0100000000000000
(1788797358.873018) can0 03121606#0000000000000000
(1788797358.888020) can0 05FF4001#0000000000000000
(1788797358.890019) can0 05FF4000#0000000000000000
(1788797358.936022) can0 03FF1000#0840112200000001
(1788797358.946024) can0 03FF1001#0000000000000000
(1788797358.957024) can0 03FF1603#0000D05700000000
(1788797358.967023) can0 03FF1605#0100000000000000
(1788797358.970023) can0 05FF4602#0B10101011101010
(1788797358.973028) can0 02519500#
(1788797358.973076) can0 02519500#
(1788797358.973129) can0 02519500#
(1788797358.980024) can0 05FF4603#11100F1012101310
(1788797358.990028) can0 05FF4604#1010111014101510
(1788797359.000028) can0 05FF4605#1010000000000000
(1788797359.021027) can0 05FF4610#0000D0DBFFFFFFCA
(1788797359.030028) can0 05FF4606#1E1E1D
(1788797359.040027) can0 05FF4607#1E1D1D
(1788797359.041027) can0 03FF1000#0840112200000001
(1788797359.050028) can0 05FF4608#0019007C
(1788797359.051028) can0 03FF1001#0000000000000000
(1788797359.060029) can0 05FF4609#010003CA03CA00
(1788797359.062029) can0 03FF1603#0000D05700000000
(1788797359.072030) can0 03FF1605#0100000000000000
(1788797359.146038) can0 03FF1000#0840112200000001
(1788797359.156037) can0 03FF1001#0000000000000000
(1788797359.167035) can0 03FF1603#0000D05700000000
(1788797359.177036) can0 03FF1605#0100000000000000
(1788797359.193035) can0 02191602#0000000000000000
(1788797359.213037) can0 02294501#
(1788797359.213265) can0 05124501#0103
(1788797359.224036) can0 05FF4400#0000000F
(1788797359.230037) can0 03FF1600#142B000104001319
(1788797359.240037) can0 03FF1601#6E50000000000000
(1788797359.251039) can0 03FF1602#000005000000157C
(1788797359.261039) can0 03FF1604#0000000000000000
(1788797359.263039) can0 02181606#0000000000030200
(1788797359.264039) can0 02203606#0200000000000000
(1788797359.272040) can0 03FF1000#0840112200000001
(1788797359.272106) can0 03FF1605#0000000000000000
(1788797359.273039) can0 02181606#0000000000030200
(1788797359.274040) can0 02203606#0200000000000000
(1788797359.274094) can0 05FF4600#0D0300900303
(1788797359.283041) can0 02181606#0000000000030200
(1788797359.284040) can0 02203606#0200000000000000
(1788797359.293191) can0 02203607#0000000300000000
(1788797359.430183) can0 04FF3400#0000003B00000000
(1788797359.431048) can0 04FF3603#0300000000000000
(1788797359.439049) can0 03FF1001#0000000000000000
(1788797359.449051) can0 03FF1603#0000D05700000000
(1788797359.459050) can0 03FF1605#0100000000000000
(1788797359.462050) can0 05FF4610#0000D0DBFFFFFFCA
(1788797359.470050) can0 1FF8B028#0000000000000000
(1788797359.480051) can0 03FF1000#0840112200000001
(1788797359.491051) can0 03FF1605#0000000000000000
(1788797359.501052) can0 03121606#0100000000000000
(1788797359.543054) can0 03FF1000#0840112200000001
(1788797359.554055) can0 03121606#0100000000000000
(1788797359.648063) can0 03FF1000#0840112200000001
(1788797359.659063) can0 03121606#0100000000000000
(1788797359.753067) can0 03FF1000#0840112200000001
(1788797359.858071) can0 03FF1000#0840112200000001
(1788797359.963079) can0 03FF1000#0840112200000001
(1788797359.994083) can0 02519501#
(1788797359.994132) can0 02519501#
(1788797359.994189) can0 02519501#
(1788797360.068083) can0 03FF1000#0840112200000001
(1788797360.173091) can0 03FF1000#0840112200000001
(1788797360.278094) can0 03FF1000#0840112200000001
(1788797360.314108) can0 02203607#0000000300000000
(1788797360.383100) can0 03FF1000#0840112200000001
(1788797360.488109) can0 03FF1000#0840112200000001
(1788797360.593116) can0 03FF1000#0840112200000001
(1788797360.698120) can0 03FF1000#0840112200000001
(1788797360.803125) can0 03FF1000#0840112200000001
(1788797360.908129) can0 03FF1000#0840112200000001
(1788797361.013136) can0 03FF1000#0840112200000001
(1788797361.118143) can0 03FF1000#0840112200000001
(1788797361.223147) can0 03FF1000#0840112200000001
(1788797361.325151) can0 02203607#0000000300000000
(1788797361.328150) can0 03FF1000#0840112200000001
(1788797361.433156) can0 03FF1000#0840112200000001
(1788797361.538165) can0 03FF1000#0840112200000001
(1788797361.643173) can0 03FF1000#0840112200000001
(1788797361.748174) can0 03FF1000#0840112200000001
(1788797361.853180) can0 03FF1000#0840112200000001
(1788797361.958183) can0 03FF1000#0840112200000001
(1788797362.063192) can0 03FF1000#0840112200000001
(1788797362.168200) can0 03FF1000#0840112200000001
(1788797362.273203) can0 03FF1000#0840112200000001
(1788797362.336204) can0 02203607#0000000300000000
(1788797362.378205) can0 03FF1000#0840112200000001
(1788797362.483215) can0 03FF1000#0840112200000001
(1788797362.588220) can0 03FF1000#0840112200000001
(1788797362.693228) can0 03FF1000#0840112200000001
(1788797362.798231) can0 03FF1000#0840112200000001
(1788797362.903235) can0 03FF1000#0840112200000001
(1788797363.008242) can0 03FF1000#0840112200000001
(1788797363.113248) can0 03FF1000#0840112200000001
(1788797363.218255) can0 03FF1000#0840112200000001
(1788797363.323259) can0 03FF1000#0840112200000001
(1788797363.428262) can0 03FF1000#0840112200000001
(1788797363.533271) can0 03FF1000#0840112200000001
(1788797363.638275) can0 03FF1000#0840112200000001
(1788797363.743283) can0 03FF1000#0840112200000001
(1788797363.848286) can0 03FF1000#0840112200000001
(1788797363.953290) can0 03FF1000#0840112200000001
(1788797364.058297) can0 03FF1000#0840112200000001
(1788797364.087483) can0 13B16001#
(1788797364.088296) can0 13B16001#
(1788797364.088362) can0 13B16001#
(1788797364.163304) can0 03FF1000#0840112200000001
(1788797364.268310) can0 03FF1000#0840112200000001
(1788797364.373313) can0 03FF1000#0840112200000001
(1788797364.478322) can0 03FF1000#0840112200000001
(1788797364.583327) can0 03FF1000#0840112200000001
(1788797364.688333) can0 03FF1000#0840112200000001
(1788797364.793338) can0 03FF1000#0840112200000001
(1788797364.898345) can0 03FF1000#0840112200000001
(1788797365.003350) can0 03FF1000#0840112200000001
(1788797365.108357) can0 03FF1000#0840112200000001
(1788797365.213361) can0 03FF1000#0840112200000001
(1788797365.318366) can0 03FF1000#0840112200000001
(1788797365.423369) can0 03FF1000#0840112200000001
(1788797365.528374) can0 03FF1000#0840112200000001
(1788797365.633380) can0 03FF1000#0840112200000001
(1788797365.738387) can0 03FF1000#0840112200000001
(1788797365.843393) can0 03FF1000#0840112200000001
(1788797365.948396) can0 03FF1000#0840112200000001
(1788797366.053403) can0 03FF1000#0840112200000001
(1788797366.158412) can0 03FF1000#0840112200000001
(1788797366.263415) can0 03FF1000#0840112200000001
(1788797366.368420) can0 03FF1000#0840112200000001
(1788797366.473427) can0 03FF1000#0840112200000001
(1788797366.578430) can0 03FF1000#0840112200000001
(1788797366.683440) can0 03FF1000#0840112200000001
(1788797366.788444) can0 03FF1000#0840112200000001
(1788797366.893447) can0 03FF1000#0840112200000001
(1788797366.998454) can0 03FF1000#0840112200000001
(1788797367.103459) can0 03FF1000#0840112200000001
(1788797367.208467) can0 03FF1000#0840112200000001
(1788797367.313471) can0 03FF1000#0840112200000001
(1788797367.418476) can0 03FF1000#0840112200000001
(1788797367.523480) can0 03FF1000#0840112200000001
(1788797367.628485) can0 03FF1000#0840112200000001
(1788797367.733493) can0 03FF1000#0840112200000001
(1788797367.838499) can0 03FF1000#0840112200000001
(1788797367.943504) can0 03FF1000#0840112200000001
(1788797368.048510) can0 03FF1000#0840112200000001
(1788797368.153517) can0 03FF1000#0840112200000001
(1788797368.258522) can0 03FF1000#0840112200000001
(1788797368.363528) can0 03FF1000#0840112200000001
(1788797368.468531) can0 03FF1000#0840112200000001
(1788797368.573536) can0 03FF1000#0840112200000001
(1788797368.678544) can0 03FF1000#0840112200000001
(1788797368.783549) can0 03FF1000#0840112200000001
(1788797368.888553) can0 03FF1000#0840112200000001
(1788797368.993562) can0 03FF1000#0840112200000001
(1788797369.098572) can0 03FF1000#0840112200000001
(1788797369.203575) can0 03FF1000#0840112200000001
(1788797369.308577) can0 03FF1000#0840112200000001
(1788797369.413580) can0 03FF1000#0840112200000001
(1788797369.430582) can0 04FF3400#0000003C00000000
(1788797369.518586) can0 03FF1000#0840112200000001
(1788797369.623591) can0 03FF1000#0840112200000001
(1788797369.728600) can0 03FF1000#0840112200000001
(1788797369.833605) can0 03FF1000#0840112200000001
(1788797369.938608) can0 03FF1000#0840112200000001
(1788797370.043618) can0 03FF1000#0840112200000001
(1788797370.148623) can0 03FF1000#0840112200000001
(1788797370.253627) can0 03FF1000#0840112200000001
(1788797370.358633) can0 03FF1000#0840112200000001
(1788797370.463636) can0 03FF1000#0840112200000001
(1788797370.568643) can0 03FF1000#0840112200000001
(1788797370.673650) can0 03FF1000#0840112200000001
(1788797370.778656) can0 03FF1000#0840112200000001
(1788797370.883659) can0 03FF1000#0840112200000001
(1788797370.988668) can0 03FF1000#0840112200000001
(1788797371.093674) can0 03FF1000#0840112200000001
(1788797371.198682) can0 03FF1000#0840112200000001
(1788797371.303683) can0 03FF1000#0840112200000001
(1788797371.408686) can0 03FF1000#0840112200000001
(1788797371.513692) can0 03FF1000#0840112200000001
(1788797371.618698) can0 03FF1000#0840112200000001
(1788797371.723706) can0 03FF1000#0840112200000001
(1788797371.828711) can0 03FF1000#0840112200000001
(1788797371.933715) can0 03FF1000#0840112200000001
(1788797372.038723) can0 03FF1000#0840112200000001
(1788797372.143731) can0 03FF1000#0840112200000001
(1788797372.248734) can0 03FF1000#0840112200000001
(1788797372.353739) can0 03FF1000#0840112200000001
(1788797372.458743) can0 03FF1000#0840112200000001
(1788797372.563748) can0 03FF1000#0840112200000001
(1788797372.668757) can0 03FF1000#0840112200000001
(1788797372.773761) can0 03FF1000#0840112200000001
(1788797372.878766) can0 03FF1000#0840112200000001
(1788797372.983773) can0 03FF1000#0840112200000001
(1788797373.088778) can0 03FF1000#0840112200000001
(1788797373.193787) can0 03FF1000#0840112200000001
(1788797373.298790) can0 03FF1000#0840112200000001
(1788797373.403792) can0 03FF1000#0840112200000001
(1788797373.508799) can0 03FF1000#0840112200000001
(1788797373.613804) can0 03FF1000#0840112200000001
(1788797373.718814) can0 03FF1000#0840112200000001
(1788797373.823816) can0 03FF1000#0840112200000001
(1788797373.928820) can0 03FF1000#0840112200000001
(1788797374.033829) can0 03FF1000#0840112200000001
(1788797374.138835) can0 03FF1000#0840112200000001
(1788797374.243842) can0 03FF1000#0840112200000001
(1788797374.348846) can0 03FF1000#0840112200000001
(1788797374.453849) can0 03FF1000#0840112200000001
(1788797374.558854) can0 03FF1000#0840112200000001
(1788797374.663862) can0 03FF1000#0840112200000001
(1788797374.768869) can0 03FF1000#0840112200000001
(1788797374.873870) can0 03FF1000#0840112200000001
(1788797374.978879) can0 03FF1000#0840112200000001
(1788797375.083884) can0 03FF1000#0840112200000001
(1788797375.188893) can0 03FF1000#0840112200000001
(1788797375.293898) can0 03FF1000#0840112200000001
(1788797375.398899) can0 03FF1000#0840112200000001
(1788797375.503905) can0 03FF1000#0840112200000001
(1788797375.608910) can0 03FF1000#0840112200000001
(1788797375.713919) can0 03FF1000#0840112200000001
(1788797375.818927) can0 03FF1000#0840112200000001
(1788797375.923928) can0 03FF1000#0840112200000001
(1788797376.028936) can0 03FF1000#0840112200000001
(1788797376.133941) can0 03FF1000#0840112200000001
(1788797376.238946) can0 03FF1000#0840112200000001
(1788797376.343955) can0 03FF1000#0840112200000001
(1788797376.448957) can0 03FF1000#0840112200000001
(1788797376.553963) can0 03FF1000#0840112200000001
(1788797376.658969) can0 03FF1000#0840112200000001
(1788797376.763974) can0 03FF1000#0840112200000001
(1788797376.868982) can0 03FF1000#0840112200000001
(1788797376.973985) can0 03FF1000#0840112200000001
(1788797377.078991) can0 03FF1000#0840112200000001
(1788797377.183998) can0 03FF1000#0840112200000001
(1788797377.289001) can0 03FF1000#0840112200000001
(1788797377.394009) can0 03FF1000#0840112200000001
